Freq.	I(Ci)/V(i)	I(Co)/V(i)
1.00000000000000e+007	1.17721472354850e-008,1.54337953200947e-004	4.75612796381597e-003,-5.65871991189957e-005
2.00000000000000e+007	6.02462810266663e-008,3.32549139179080e-004	4.75611732036506e-003,-1.13716605097731e-004
3.00000000000000e+007	1.41036779635977e-007,5.05455140222440e-004	4.75610086572685e-003,-1.70725518098582e-004
4.00000000000000e+007	2.54143499795835e-007,6.77034820134058e-004	4.75607799781783e-003,-2.27704305016365e-004
5.00000000000000e+007	3.99566410169523e-007,8.48083943685759e-004	4.75604864246222e-003,-2.84671038310364e-004
6.00000000000000e+007	5.77305487433191e-007,1.01886775931119e-003	4.75601278135791e-003,-3.41631741373071e-004
7.00000000000000e+007	7.87360706624172e-007,1.18949993908952e-003	4.75597040823490e-003,-3.98588995006926e-004
8.00000000000000e+007	1.02973203929613e-006,1.36003731398678e-003	4.75592152047530e-003,-4.55544089043182e-004
9.00000000000000e+007	1.30441945301632e-006,1.53051145273746e-003	4.75586611682969e-003,-5.12497739548134e-004
1.00000000000000e+008	1.61142291119482e-006,1.70094129206592e-003	4.75580419664124e-003,-5.69450375705606e-004
1.10000000000000e+008	1.95074237301692e-006,1.87133887940395e-003	4.75573575953861e-003,-6.26402270218077e-004
1.20000000000000e+008	2.32237779341310e-006,2.04171224290419e-003	4.75566080529970e-003,-6.83353604507244e-004
1.30000000000000e+008	2.72632912304464e-006,2.21206693749554e-003	4.75557933378573e-003,-7.40304503822012e-004
1.40000000000000e+008	3.16259630829598e-006,2.38240692820591e-003	4.75549134490701e-003,-7.97255057300210e-004
1.50000000000000e+008	3.63117929127067e-006,2.55273511977444e-003	4.75539683860408e-003,-8.54205330005615e-004
1.60000000000000e+008	4.13207800978897e-006,2.72305368843503e-003	4.75529581483687e-003,-9.11155370451095e-004
1.70000000000000e+008	4.66529239738647e-006,2.89336429644360e-003	4.75518827357815e-003,-9.68105215466519e-004
1.80000000000000e+008	5.23082238331314e-006,3.06366823385009e-003	4.75507421480944e-003,-1.02505489344404e-003
1.90000000000000e+008	5.82866789253288e-006,3.23396651708925e-003	4.75495363851846e-003,-1.08200442655856e-003
2.00000000000000e+008	6.45882884572309e-006,3.40425995727367e-003	4.75482654469736e-003,-1.13895383232200e-003
2.10000000000000e+008	7.12130515927451e-006,3.57454921017044e-003	4.75469293334154e-003,-1.19590312469359e-003
2.20000000000000e+008	7.81609674529099e-006,3.74483480872124e-003	4.75455280444894e-003,-1.25285231488726e-003
2.30000000000000e+008	8.54320351158951e-006,3.91511719343361e-003	4.75440615801937e-003,-1.30980141196845e-003
2.40000000000000e+008	9.30262536170000e-006,4.08539672770010e-003	4.75425299405418e-003,-1.36675042330175e-003
2.50000000000000e+008	1.00943621948654e-005,4.25567371678745e-003	4.75409331255594e-003,-1.42369935489100e-003
2.60000000000000e+008	1.09184139060418e-005,4.42594841636904e-003	4.75392711352824e-003,-1.48064821164104e-003
2.70000000000000e+008	1.17747803858978e-005,4.59622104353516e-003	4.75375439697548e-003,-1.53759699756120e-003
2.80000000000000e+008	1.26634615208156e-005,4.76649178271126e-003	4.75357516290284e-003,-1.59454571592521e-003
2.90000000000000e+008	1.35844571928900e-005,4.93676079165267e-003	4.75338941131611e-003,-1.65149436939802e-003
3.00000000000000e+008	1.45377672799289e-005,5.10702820442505e-003	4.75319714222165e-003,-1.70844296013731e-003
3.10000000000000e+008	1.55233916554535e-005,5.27729413916182e-003	4.75299835562633e-003,-1.76539148987525e-003
3.20000000000000e+008	1.65413301886979e-005,5.44755869570544e-003	4.75279305153749e-003,-1.82233995998502e-003
3.30000000000000e+008	1.75915827446094e-005,5.61782196137228e-003	4.75258122996289e-003,-1.87928837153520e-003
3.40000000000000e+008	1.86741491838485e-005,5.78808401271531e-003	4.75236289091072e-003,-1.93623672533454e-003
3.50000000000000e+008	1.97890293627890e-005,5.95834491471515e-003	4.75213803438953e-003,-1.99318502196912e-003
3.60000000000000e+008	2.09362231335180e-005,6.12860472472265e-003	4.75190666040825e-003,-2.05013326183325e-003
3.70000000000000e+008	2.21157303438359e-005,6.29886349456220e-003	4.75166876897614e-003,-2.10708144515538e-003
3.80000000000000e+008	2.33275508372566e-005,6.46912126749177e-003	4.75142436010283e-003,-2.16402957201996e-003
3.90000000000000e+008	2.45716844530072e-005,6.63937808144721e-003	4.75117343379826e-003,-2.22097764238584e-003
4.00000000000000e+008	2.58481310260287e-005,6.80963397044732e-003	4.75091599007269e-003,-2.27792565610204e-003
4.10000000000000e+008	2.71568903869753e-005,6.97988896397222e-003	4.75065202893671e-003,-2.33487361292110e-003
4.20000000000000e+008	2.84979623622152e-005,7.15014308705701e-003	4.75038155040120e-003,-2.39182151251057e-003
4.30000000000000e+008	2.98713467738301e-005,7.32039636262499e-003	4.75010455447736e-003,-2.44876935446292e-003
4.40000000000000e+008	3.12770434396155e-005,7.49064880923959e-003	4.74982104117667e-003,-2.50571713830403e-003
4.50000000000000e+008	3.27150521730806e-005,7.66090044531950e-003	4.74953101051094e-003,-2.56266486350063e-003
4.60000000000000e+008	3.41853727834488e-005,7.83115128359514e-003	4.74923446249225e-003,-2.61961252946672e-003
4.70000000000000e+008	3.56880050756572e-005,8.00140133620937e-003	4.74893139713297e-003,-2.67656013556915e-003
4.80000000000000e+008	3.72229488503572e-005,8.17165061455570e-003	4.74862181444578e-003,-2.73350768113256e-003
4.90000000000000e+008	3.87902039039142e-005,8.34189912838420e-003	4.74830571444363e-003,-2.79045516544370e-003
5.00000000000000e+008	4.03897700284076e-005,8.51214688363002e-003	4.74798309713975e-003,-2.84740258775519e-003
5.10000000000000e+008	4.20216470116314e-005,8.68239388573445e-003	4.74765396254768e-003,-2.90434994728887e-003
5.20000000000000e+008	4.36858346370938e-005,8.85264014126282e-003	4.74731831068124e-003,-2.96129724323878e-003
5.30000000000000e+008	4.53823326840175e-005,9.02288565255680e-003	4.74697614155450e-003,-3.01824447477377e-003
5.40000000000000e+008	4.71111409273395e-005,9.19313042332055e-003	4.74662745518186e-003,-3.07519164103984e-003
5.50000000000000e+008	4.88722591377118e-005,9.36337445368179e-003	4.74627225157796e-003,-3.13213874116219e-003
5.60000000000000e+008	5.06656870815007e-005,9.53361774523285e-003	4.74591053075775e-003,-3.18908577424713e-003
5.70000000000000e+008	5.24914245207875e-005,9.70386029843353e-003	4.74554229273644e-003,-3.24603273938369e-003
5.80000000000000e+008	5.43494712133682e-005,9.87410211420348e-003	4.74516753752954e-003,-3.30297963564514e-003
5.90000000000000e+008	5.62398269127539e-005,1.00443431876804e-002	4.74478626515282e-003,-3.35992646209028e-003
6.00000000000000e+008	5.81624913681707e-005,1.02145835192475e-002	4.74439847562233e-003,-3.41687321776474e-003
6.10000000000000e+008	6.01174643245598e-005,1.03848231075166e-002	4.74400416895441e-003,-3.47381990170193e-003
6.20000000000000e+008	6.21047455225776e-005,1.05550619484601e-002	4.74360334516568e-003,-3.53076651292416e-003
6.30000000000000e+008	6.41243346985959e-005,1.07253000382460e-002	4.74319600427303e-003,-3.58771305044342e-003
6.40000000000000e+008	6.61762315847019e-005,1.08955373742004e-002	4.74278214629362e-003,-3.64465951326224e-003
6.50000000000000e+008	6.82604359086984e-005,1.10657739514441e-002	4.74236177124489e-003,-3.70160590037438e-003
6.60000000000000e+008	7.03769473941036e-005,1.12360097670902e-002	4.74193487914458e-003,-3.75855221076555e-003
6.70000000000000e+008	7.25257657601518e-005,1.14062448140115e-002	4.74150147001068e-003,-3.81549844341396e-003
6.80000000000000e+008	7.47068907217926e-005,1.15764790908369e-002	4.74106154386147e-003,-3.87244459729090e-003
6.90000000000000e+008	7.69203219896921e-005,1.17467125864284e-002	4.74061510071549e-003,-3.92939067136121e-003
7.00000000000000e+008	7.91660592702322e-005,1.19169453011264e-002	4.74016214059158e-003,-3.98633666458379e-003
7.10000000000000e+008	8.14441022655109e-005,1.20871772251469e-002	4.73970266350886e-003,-4.04328257591199e-003
7.20000000000000e+008	8.37544506733425e-005,1.22574083549390e-002	4.73923666948668e-003,-4.10022840429398e-003
7.30000000000000e+008	8.60971041872578e-005,1.24276386830005e-002	4.73876415854473e-003,-4.15717414867314e-003
7.40000000000000e+008	8.84720624965038e-005,1.25978682006883e-002	4.73828513070292e-003,-4.21411980798837e-003
7.50000000000000e+008	9.08793252860445e-005,1.27680969070318e-002	4.73779958598148e-003,-4.27106538117438e-003
7.60000000000000e+008	9.33188922365604e-005,1.29383247897858e-002	4.73730752440088e-003,-4.32801086716197e-003
7.70000000000000e+008	9.57907630244490e-005,1.31085518456037e-002	4.73680894598189e-003,-4.38495626487830e-003
7.80000000000000e+008	9.82949373218244e-005,1.32787780633220e-002	4.73630385074554e-003,-4.44190157324710e-003
7.90000000000000e+008	1.00831414796518e-004,1.34490034402241e-002	4.73579223871316e-003,-4.49884679118891e-003
8.00000000000000e+008	1.03400195112079e-004,1.36192279641586e-002	4.73527410990633e-003,-4.55579191762126e-003
8.10000000000000e+008	1.06001277927773e-004,1.37894516329030e-002	4.73474946434691e-003,-4.61273695145886e-003
8.20000000000000e+008	1.08634662898583e-004,1.39596744324156e-002	4.73421830205705e-003,-4.66968189161380e-003
8.30000000000000e+008	1.11300349675211e-004,1.41298963608057e-002	4.73368062305916e-003,-4.72662673699568e-003
8.40000000000000e+008	1.13998337904076e-004,1.43001174075996e-002	4.73313642737593e-003,-4.78357148651174e-003
8.50000000000000e+008	1.16728627227313e-004,1.44703375669387e-002	4.73258571503033e-003,-4.84051613906705e-003
8.60000000000000e+008	1.19491217282778e-004,1.46405568253856e-002	4.73202848604561e-003,-4.89746069356461e-003
8.70000000000000e+008	1.22286107704043e-004,1.48107751784955e-002	4.73146474044527e-003,-4.95440514890546e-003
8.80000000000000e+008	1.25113298120400e-004,1.49809926185873e-002	4.73089447825312e-003,-5.01134950398881e-003
8.90000000000000e+008	1.27972788156857e-004,1.51512091360472e-002	4.73031769949323e-003,-5.06829375771214e-003
9.00000000000000e+008	1.30864577434143e-004,1.53214247253318e-002	4.72973440418993e-003,-5.12523790897126e-003
9.10000000000000e+008	1.33788665568704e-004,1.54916393743322e-002	4.72914459236785e-003,-5.18218195666049e-003
9.20000000000000e+008	1.36745052172706e-004,1.56618530749587e-002	4.72854826405188e-003,-5.23912589967265e-003
9.30000000000000e+008	1.39733736854034e-004,1.58320658209781e-002	4.72794541926719e-003,-5.29606973689917e-003
9.40000000000000e+008	1.42754719216290e-004,1.60022776008947e-002	4.72733605803922e-003,-5.35301346723019e-003
9.50000000000000e+008	1.45807998858797e-004,1.61724884073596e-002	4.72672018039371e-003,-5.40995708955462e-003
9.60000000000000e+008	1.48893575376598e-004,1.63426982316617e-002	4.72609778635663e-003,-5.46690060276017e-003
9.70000000000000e+008	1.52011448360455e-004,1.65129070661201e-002	4.72546887595428e-003,-5.52384400573345e-003
9.80000000000000e+008	1.55161617396848e-004,1.66831148999543e-002	4.72483344921317e-003,-5.58078729736001e-003
9.90000000000000e+008	1.58344082067980e-004,1.68533217267012e-002	4.72419150616015e-003,-5.63773047652440e-003
1.00000000000000e+009	1.61558841951771e-004,1.70235275342092e-002	4.72354304682231e-003,-5.69467354211022e-003
