<Qucs Dataset 0.0.20>
<indep frequency 101>
  +7.00000000000000000000e+07
  +8.23000000000000000000e+07
  +9.46000000000000000000e+07
  +1.06900000000000000000e+08
  +1.19200000000000000000e+08
  +1.31500000000000000000e+08
  +1.43800000000000000000e+08
  +1.56100000000000000000e+08
  +1.68400000000000000000e+08
  +1.80700000000000000000e+08
  +1.93000000000000000000e+08
  +2.05300000000000000000e+08
  +2.17600000000000000000e+08
  +2.29900000000000000000e+08
  +2.42200000000000000000e+08
  +2.54500000000000000000e+08
  +2.66800000000000000000e+08
  +2.79100000000000000000e+08
  +2.91400000000000000000e+08
  +3.03700000000000000000e+08
  +3.16000000000000000000e+08
  +3.28300000000000000000e+08
  +3.40600000000000000000e+08
  +3.52900000000000000000e+08
  +3.65200000000000000000e+08
  +3.77500000000000000000e+08
  +3.89800000000000000000e+08
  +4.02100000000000000000e+08
  +4.14400000000000000000e+08
  +4.26700000000000000000e+08
  +4.39000000000000000000e+08
  +4.51300000000000000000e+08
  +4.63600000000000000000e+08
  +4.75900000000000000000e+08
  +4.88200000000000000000e+08
  +5.00500000000000000000e+08
  +5.12800000000000000000e+08
  +5.25100000000000000000e+08
  +5.37400000000000000000e+08
  +5.49700000000000000000e+08
  +5.62000000000000000000e+08
  +5.74300000000000000000e+08
  +5.86600000000000000000e+08
  +5.98900000000000000000e+08
  +6.11200000000000000000e+08
  +6.23500000000000000000e+08
  +6.35800000000000000000e+08
  +6.48100000000000000000e+08
  +6.60400000000000000000e+08
  +6.72700000000000000000e+08
  +6.85000000000000000000e+08
  +6.97300000000000000000e+08
  +7.09600000000000000000e+08
  +7.21900000000000000000e+08
  +7.34200000000000000000e+08
  +7.46500000000000000000e+08
  +7.58800000000000000000e+08
  +7.71100000000000000000e+08
  +7.83400000000000000000e+08
  +7.95700000000000000000e+08
  +8.08000000000000000000e+08
  +8.20300000000000000000e+08
  +8.32600000000000000000e+08
  +8.44900000000000000000e+08
  +8.57200000000000000000e+08
  +8.69500000000000000000e+08
  +8.81800000000000000000e+08
  +8.94100000000000000000e+08
  +9.06400000000000000000e+08
  +9.18700000000000000000e+08
  +9.31000000000000000000e+08
  +9.43300000000000000000e+08
  +9.55600000000000000000e+08
  +9.67900000000000000000e+08
  +9.80200000000000000000e+08
  +9.92500000000000000000e+08
  +1.00480000000000000000e+09
  +1.01710000000000000000e+09
  +1.02940000000000000000e+09
  +1.04170000000000000000e+09
  +1.05400000000000000000e+09
  +1.06630000000000000000e+09
  +1.07860000000000000000e+09
  +1.09090000000000000000e+09
  +1.10320000000000000000e+09
  +1.11550000000000000000e+09
  +1.12780000000000000000e+09
  +1.14010000000000000000e+09
  +1.15240000000000000000e+09
  +1.16470000000000000000e+09
  +1.17700000000000000000e+09
  +1.18930000000000000000e+09
  +1.20160000000000000000e+09
  +1.21390000000000000000e+09
  +1.22620000000000000000e+09
  +1.23850000000000000000e+09
  +1.25080000000000000000e+09
  +1.26310000000000000000e+09
  +1.27540000000000000000e+09
  +1.28770000000000000000e+09
  +1.30000000000000000000e+09
</indep>
<dep Rn frequency>
  +2.05141732522259161442e+01
  +1.75055062302963868603e+01
  +1.42551035127727434570e+01
  +1.11602664593053049202e+01
  +8.56363940561655923034e+00
  +6.86999642698761370241e+00
  +6.46410647428134055303e+00
  +7.79048492036896167434e+00
  +1.13296745770532449882e+01
  +1.75762107954334183546e+01
  +2.70526607669569472137e+01
  +4.03674982804278670301e+01
  +5.80983100952237521142e+01
  +8.08390741821608571627e+01
  +1.09281830372970432563e+02
  +1.44214534245615254804e+02
  +1.86286174319211539796e+02
  +2.36258338596340763615e+02
  +2.94951037254928792208e+02
  +3.63186968583651037079e+02
  +4.41811302157489478759e+02
  +5.31806665550352818173e+02
  +6.34071748308975884356e+02
  +7.49555930114980014878e+02
  +8.79290902464184910059e+02
  +1.02434997147216722624e+03
  +1.18568040744772065409e+03
  +1.36438825333177192078e+03
  +1.56161850005152882659e+03
  +1.77846974087226999472e+03
  +2.01609613081381598931e+03
  +2.27555133565422738684e+03
  +2.55860069603582223863e+03
  +2.86553785664875294970e+03
  +3.19871849432427825377e+03
  +3.55925792490894127695e+03
  +3.94834672350733717394e+03
  +4.36700170286674983799e+03
  +4.81642201700026089384e+03
  +5.29904866677383415663e+03
  +5.81565834513787649485e+03
  +6.36694603428293430625e+03
  +6.95465273511207306001e+03
  +7.58010954549543930625e+03
  +8.24559399424920775346e+03
  +8.95267377736810703936e+03
  +9.70342181057955531287e+03
  +1.04971116092978609231e+04
  +1.13357766531282268261e+04
  +1.22219260942678320134e+04
  +1.31575526213395933155e+04
  +1.41448199133753914793e+04
  +1.51885775902651257638e+04
  +1.62879129036818994791e+04
  +1.74429371378456307866e+04
  +1.86547741808845967171e+04
  +1.99247791076154971961e+04
  +2.12586994390654617746e+04
  +2.26551038221070957661e+04
  +2.41148030577897043258e+04
  +2.56359637034922961902e+04
  +2.72221471721749257995e+04
  +2.88883342318858194631e+04
  +3.06219333233784491313e+04
  +3.24213568347739383171e+04
  +3.42972216455420202692e+04
  +3.62495372012454099604e+04
  +3.82775179995117214276e+04
  +4.03375125479541457025e+04
  +4.24286866544423028245e+04
  +4.45926593182328288094e+04
  +4.68315622586501049227e+04
  +4.91476014404857924092e+04
  +5.15422525702123239171e+04
  +5.40159644938145211199e+04
  +5.65636944210642614053e+04
  +5.91964960666246042820e+04
  +6.19195128122603273368e+04
  +6.47295345234130654717e+04
  +6.76259074005355068948e+04
  +7.06085044801350159105e+04
  +7.36650627249841345474e+04
  +7.67964504319281841163e+04
  +8.00423470051265030634e+04
  +8.33825490860957361292e+04
  +8.68178669623350579059e+04
  +9.03539360907623486128e+04
  +9.39890158786458923714e+04
  +9.77061266180596430786e+04
  +1.01522874815134608070e+05
  +1.05443469416260515573e+05
  +1.09449225477092812071e+05
  +1.13549641988855291856e+05
  +1.17757807931674396968e+05
  +1.22051193207623189664e+05
  +1.26428232944368050084e+05
  +1.30934919072694290662e+05
  +1.35548376793980627554e+05
  +1.40264818393402179936e+05
  +1.45059477215052640531e+05
  +1.49940238714125094702e+05
</dep>
<dep Fmin frequency>
  +1.45189017351677240875e+00
  +1.45492088932881080687e+00
  +1.45781590754484469130e+00
  +1.45910667042677344440e+00
  +1.45956520167269232502e+00
  +1.46007769425049604983e+00
  +1.46011938228430659947e+00
  +1.46028061059461555793e+00
  +1.46024812754340338472e+00
  +1.45995659997212801073e+00
  +1.45949400471389933998e+00
  +1.45916175593728181248e+00
  +1.45896069446865017660e+00
  +1.45862794681368890259e+00
  +1.45822081628331323699e+00
  +1.45787169578603181819e+00
  +1.45753732358863175023e+00
  +1.45721003271524818246e+00
  +1.45683822338980739630e+00
  +1.45652715181182412785e+00
  +1.45646226069061190955e+00
  +1.45633896292241615811e+00
  +1.45614995876792807650e+00
  +1.45603001934387688010e+00
  +1.45591871691754271012e+00
  +1.45584657480728885126e+00
  +1.45564556084575302819e+00
  +1.45544361817398804071e+00
  +1.45558706946175098196e+00
  +1.45561656032855513132e+00
  +1.45553685748474515016e+00
  +1.45545873964820238200e+00
  +1.45572184420720618370e+00
  +1.45593646427088785344e+00
  +1.45612428149605377392e+00
  +1.45627757445217387300e+00
  +1.45678192795587890807e+00
  +1.45720293379395093858e+00
  +1.45753148328381021415e+00
  +1.45776448616927423174e+00
  +1.45794029572164340891e+00
  +1.45818156636860951636e+00
  +1.45823597773768565133e+00
  +1.45811502550327265482e+00
  +1.45871242226854214152e+00
  +1.45933161773826736152e+00
  +1.45988128974485631417e+00
  +1.46036007557621272390e+00
  +1.46077748387873107561e+00
  +1.46111460249990932070e+00
  +1.46138820710609218523e+00
  +1.46160070312353185251e+00
  +1.46233533410541816089e+00
  +1.46318341757080094823e+00
  +1.46399292430588179315e+00
  +1.46478253602554842061e+00
  +1.46553407064920504510e+00
  +1.46610455466013411829e+00
  +1.46661350974387683088e+00
  +1.46711172341292650501e+00
  +1.46787293676134722453e+00
  +1.46876075321402144169e+00
  +1.46957458301113552679e+00
  +1.47033586757766299158e+00
  +1.47103293986231054014e+00
  +1.47173917761883688016e+00
  +1.47240060217306711898e+00
  +1.47292143289677435192e+00
  +1.47436840200288443725e+00
  +1.47669149275446320857e+00
  +1.47899010089565852155e+00
  +1.48124689912047924345e+00
  +1.48344443029599748485e+00
  +1.48555984432101562120e+00
  +1.48761162880479735904e+00
  +1.48973759194299515407e+00
  +1.49198582950694969007e+00
  +1.49446201815683665792e+00
  +1.49697590877451691682e+00
  +1.49944818041707828016e+00
  +1.50168604952253947893e+00
  +1.50401239180749657365e+00
  +1.50642243861589975040e+00
  +1.50864062531178189097e+00
  +1.51094383386961927940e+00
  +1.51364222314401009051e+00
  +1.51622602180510002157e+00
  +1.51873117579604266503e+00
  +1.52140619149833677959e+00
  +1.52399337662728173726e+00
  +1.52646284535781662228e+00
  +1.52894391600188539471e+00
  +1.53143189003797397518e+00
  +1.53412035168896676574e+00
  +1.53680748739687444981e+00
  +1.53948243059749967365e+00
  +1.54210079752779360973e+00
  +1.54468234673292670323e+00
  +1.54722651187957493946e+00
  +1.54971471180220210506e+00
  +1.55214568887376103135e+00
</dep>
<dep Sopt frequency>
  +4.14488145521969331142e-01+j2.33724137797478248579e-01
  +3.34683227966775576068e-01+j2.52265232019347918069e-01
  +2.36474999414238912232e-01+j2.48845968978291809393e-01
  +1.25664830280141248675e-01+j2.15299411993165656920e-01
  +1.39435793519622850539e-02+j1.39897680873497715082e-01
  -7.99348761764506754446e-02+j2.01963134335303266809e-02
  -1.33519429484542567765e-01-j1.37195896413906281985e-01
  -1.30661464837664831329e-01-j3.08370941282251453952e-01
  -7.14623815556908181801e-02-j4.66140753105970417902e-01
  +2.72584072429642165769e-02-j5.88387068814503200187e-01
  +1.43369710640994879602e-01-j6.68373629971538596450e-01
  +2.59378169897235832941e-01-j7.11053782082566976364e-01
  +3.64975219209097256901e-01-j7.25660043846950486568e-01
  +4.56285556739865871823e-01-j7.21598473791864702953e-01
  +5.33212157219176474676e-01-j7.06197431955934318282e-01
  +5.97261521076046797418e-01-j6.84476360089307123147e-01
  +6.50288898419861483013e-01-j6.59680314547095414390e-01
  +6.94247037907252506628e-01-j6.33824101089388247665e-01
  +7.30846071279926068343e-01-j6.08097947063534149947e-01
  +7.61492277502120118449e-01-j5.83162982008077590557e-01
  +7.87316981950722305506e-01-j5.59367613320850276537e-01
  +8.09239726646612700378e-01-j5.36878949167940322518e-01
  +8.27970450745610153653e-01-j5.15747133529675161334e-01
  +8.44070327566876832392e-01-j4.95961635989997928764e-01
  +8.58004462946355017650e-01-j4.77455979547756814707e-01
  +8.70137286499350515179e-01-j4.60154957374240336510e-01
  +8.80759985228241726318e-01-j4.43982521497734428095e-01
  +8.90112985468897721653e-01-j4.28846551712750101437e-01
  +8.98389682757459784312e-01-j4.14658614623541255106e-01
  +9.05748900721041083628e-01-j4.01352857588611888762e-01
  +9.12321375905775999726e-01-j3.88857393960417185852e-01
  +9.18216080370080178774e-01-j3.77101958962405003906e-01
  +9.23519519319456749784e-01-j3.66035984734050745537e-01
  +9.28310934077151928001e-01-j3.55598581934060908871e-01
  +9.32656864205581359606e-01-j3.45737884614114310278e-01
  +9.36610534630075930451e-01-j3.36410331768037806910e-01
  +9.40215854870746992056e-01-j3.27577396918896923683e-01
  +9.43514763961487590294e-01-j3.19200266575610458464e-01
  +9.46541366819324880844e-01-j3.11245267643590672879e-01
  +9.49325616264289906532e-01-j3.03682225040747655331e-01
  +9.51892763233253114130e-01-j2.96482386967112765408e-01
  +9.54264833488067565348e-01-j2.89619074734176862318e-01
  +9.56461526300259268218e-01-j2.83072056734832877556e-01
  +9.58499965544771015402e-01-j2.76819808650576204556e-01
  +9.60393866908155313666e-01-j2.70842170278182969856e-01
  +9.62158092653288110618e-01-j2.65120983019176581497e-01
  +9.63804642798854693808e-01-j2.59639697768141552991e-01
  +9.65343379717015226404e-01-j2.54384952125871810491e-01
  +9.66783799174681379718e-01-j2.49342507053736589517e-01
  +9.68134478274975673884e-01-j2.44498715833536911513e-01
  +9.69402748061563901416e-01-j2.39842615462998093312e-01
  +9.70595298651651838817e-01-j2.35363427198675922991e-01
  +9.71717692212190398138e-01-j2.31051351435536844736e-01
  +9.72775629289194698757e-01-j2.26897177114988551905e-01
  +9.73774033308440478685e-01-j2.22892904765318533578e-01
  +9.74717443841851660657e-01-j2.19029106681529778244e-01
  +9.75609875853188923678e-01-j2.15298576851340656146e-01
  +9.76455141492009959236e-01-j2.11695576853482142488e-01
  +9.77256402459430129070e-01-j2.08213159180468510012e-01
  +9.78016652828728405566e-01-j2.04845320942533604125e-01
  +9.78738446596312039460e-01-j2.01586568174504265905e-01
  +9.79424515347549817790e-01-j1.98431517140356478146e-01
  +9.80077557139261923425e-01-j1.95375047478065388962e-01
  +9.80699426620702419122e-01-j1.92412587626308945188e-01
  +9.81292075287546250451e-01-j1.89539799750467641282e-01
  +9.81857407771233203775e-01-j1.86753056586954041540e-01
  +9.82397107877948871923e-01-j1.84048237518122548284e-01
  +9.82912739092530851615e-01-j1.81421438878643592751e-01
  +9.83403493542716500286e-01-j1.78870385444806490050e-01
  +9.83871159311585530283e-01-j1.76391677793961615395e-01
  +9.84319061891569258016e-01-j1.73981601295564614063e-01
  +9.84748323555675764140e-01-j1.71637260594643598077e-01
  +9.85159985971180152120e-01-j1.69355969109648923920e-01
  +9.85555016528551486310e-01-j1.67135253898138075312e-01
  +9.85934297524947766966e-01-j1.64972694219809812299e-01
  +9.86298597124425246996e-01-j1.62866028123368866698e-01
  +9.86648736413621829655e-01-j1.60813104330417872001e-01
  +9.86985436242416747099e-01-j1.58811892192230269538e-01
  +9.87309410184413316358e-01-j1.56860432677287969794e-01
  +9.87621307391589486890e-01-j1.54956846055767205605e-01
  +9.87921763023706267504e-01-j1.53099360100237391613e-01
  +9.88211225642092738752e-01-j1.51286276318942286556e-01
  +9.88490235459701382936e-01-j1.49516013667436137302e-01
  +9.88759456201980579948e-01-j1.47787197145237469975e-01
  +9.89019230354158840335e-01-j1.46098286144321298785e-01
  +9.89269940765931776738e-01-j1.44447879940804824184e-01
  +9.89512114577214552114e-01-j1.42834774692846194766e-01
  +9.89746122462139887865e-01-j1.41257670365107113053e-01
  +9.89972246877848238711e-01-j1.39715229557359155166e-01
  +9.90190916798114662001e-01-j1.38206396169119366535e-01
  +9.90402466913965162654e-01-j1.36730074221466213480e-01
  +9.90607164420855279552e-01-j1.35285265255535858131e-01
  +9.90805316578881267731e-01-j1.33870945470937835475e-01
  +9.90997196444575068064e-01-j1.32486189808232956988e-01
  +9.91183057240982434699e-01-j1.31129992472365869416e-01
  +9.91363150544415816512e-01-j1.29801474884648382346e-01
  +9.91537778577083139808e-01-j1.28499892527987130686e-01
  +9.91707122637680682509e-01-j1.27224330481877395682e-01
  +9.91871381596561518812e-01-j1.25973942637171237857e-01
  +9.92030755709280009924e-01-j1.24748112746932246497e-01
  +9.92185444213178446837e-01-j1.23546105126761646131e-01
</dep>
<dep F frequency>
  +1.63268077337124051240e+00
  +1.58824660908778025892e+00
  +1.54229639758305658859e+00
  +1.50134943010411525677e+00
  +1.47249063101714705581e+00
  +1.46448880336025677451e+00
  +1.48474589046938421077e+00
  +1.54244111009156337211e+00
  +1.64698080872479968306e+00
  +1.80804705944220822644e+00
  +2.03605005026440677440e+00
  +2.34365859634057116523e+00
  +2.74220162162624614410e+00
  +3.24319872174137380227e+00
  +3.86067247422617843000e+00
  +4.61071435164611465041e+00
  +5.50596274148103237422e+00
  +6.56163961606018197870e+00
  +7.79415659897906376585e+00
  +9.21999119105793418782e+00
  +1.08561240113131614038e+01
  +1.27221265778679164526e+01
  +1.48359029863861042742e+01
  +1.72165552704264790407e+01
  +1.98846696882988176469e+01
  +2.28617664950442076588e+01
  +2.61665716039860960507e+01
  +2.98212661953903612755e+01
  +3.38489517760189215778e+01
  +3.82712911179491612756e+01
  +4.31113472995165523116e+01
  +4.83901084338631832793e+01
  +5.41436175318874219897e+01
  +6.03767224952120429293e+01
  +6.71372221949885528147e+01
  +7.44472597346484832315e+01
  +8.23308509658254479291e+01
  +9.08077925292464698259e+01
  +9.99019764349735055475e+01
  +1.09662728099717298846e+02
  +1.20105237939551358295e+02
  +1.31243115372874001423e+02
  +1.43111223405534389030e+02
  +1.55736132628093173480e+02
  +1.69164298311775866068e+02
  +1.83426539559230860732e+02
  +1.98564376582329487064e+02
  +2.14562555124468246959e+02
  +2.31461912288822560413e+02
  +2.49312848757965554114e+02
  +2.68155355269403855800e+02
  +2.88032821455674252320e+02
  +3.09043473920489191187e+02
  +3.31167970449695928892e+02
  +3.54408037870948589898e+02
  +3.78785894336061176091e+02
  +4.04328555006702003993e+02
  +4.31151896712051097893e+02
  +4.59226558174239016807e+02
  +4.88568585217631948581e+02
  +5.19140793533888427191e+02
  +5.51014726576455700524e+02
  +5.84492385059464709229e+02
  +6.19319086190855159657e+02
  +6.55462506193912645358e+02
  +6.93136745176206204633e+02
  +7.32341555115513642704e+02
  +7.73060650133904232462e+02
  +8.14413577722513309709e+02
  +8.56383856692974404723e+02
  +8.99810750096635160844e+02
  +9.44736971448306803723e+02
  +9.91206728302874807923e+02
  +1.03924952435873228751e+03
  +1.08887419294339929365e+03
  +1.13997911228880161616e+03
  +1.19278669457224009420e+03
  +1.24740031514903512289e+03
  +1.30375499113490491254e+03
  +1.36183730189262360000e+03
  +1.42164437573176155638e+03
  +1.48292960043766743183e+03
  +1.54571038953943389060e+03
  +1.61078448613379100607e+03
  +1.67774548079946634971e+03
  +1.74660970097009612800e+03
  +1.81748997553745198275e+03
  +1.89035114072592295997e+03
  +1.96485188203383017935e+03
  +2.04134584012895243177e+03
  +2.11991742416418401262e+03
  +2.20019119702972420782e+03
  +2.28235793825335122165e+03
  +2.36668065404169055910e+03
  +2.45270645950468042429e+03
  +2.54040389975763855546e+03
  +2.63069664794455002266e+03
  +2.72312506106607133916e+03
  +2.81761291516945402691e+03
  +2.91366297372170674862e+03
  +3.01143356948994915001e+03
</dep>
<dep S[2,2] frequency>
  -8.41314965162426042777e-02-j3.24536535616572474616e-01
  -1.56071209344595729362e-01-j2.40277281402358072748e-01
  -2.09156695702223616173e-01-j1.51475638358233022362e-01
  -2.45671060549589259647e-01-j5.85677726668895615170e-02
  -2.63585465820194320141e-01+j3.72393694763760718658e-02
  -2.59131797247696582520e-01+j1.29386237069713583292e-01
  -2.37036621309925005230e-01+j2.08383022250365257388e-01
  -2.08429555599604632299e-01+j2.69740355163382627968e-01
  -1.83334319720591665259e-01+j3.18928688510953683988e-01
  -1.62994705323093208582e-01+j3.64510148816236223546e-01
  -1.43886675102413763572e-01+j4.11189309491184429302e-01
  -1.22646763848916262596e-01+j4.59545589830143375032e-01
  -9.65386471059733186628e-02+j5.07974527973586886809e-01
  -6.49586955002142835136e-02+j5.54613412410435380195e-01
  -2.83414870074125968546e-02+j5.97952277059752845823e-01
  +1.24548108948589475453e-02+j6.36951822842153125848e-01
  +5.65325514745874113665e-02+j6.70728418476957632954e-01
  +1.02735494045139014174e-01+j6.98918730999294135486e-01
  +1.49962390086932628730e-01+j7.21496364473391049721e-01
  +1.97223195421035946140e-01+j7.38649667709839863328e-01
  +2.43696462348973769130e-01+j7.50745061847655881238e-01
  +2.88816430642756083458e-01+j7.58409686041200514772e-01
  +3.32145836955276996250e-01+j7.62190153604502373952e-01
  +3.73460005703038777636e-01+j7.62691480349274697481e-01
  +4.12475108859624517432e-01+j7.60317573739291097112e-01
  +4.49096345156085152706e-01+j7.55559742814310708603e-01
  +4.83333323406661963251e-01+j7.48913952817597095013e-01
  +5.15245947516223656848e-01+j7.40750140707826632003e-01
  +5.44919094454340502409e-01+j7.31389641700633696964e-01
  +5.72450776297038999019e-01+j7.21118491596713040437e-01
  +5.97965624991580235736e-01+j7.10172704170251800626e-01
