<Qucs Dataset 0.0.20>
<indep frequency 41>
  +1.08000000000000000000e+08
  +1.08300000000000000000e+08
  +1.08600000000000000000e+08
  +1.08900000000000000000e+08
  +1.09200000000000000000e+08
  +1.09500000000000000000e+08
  +1.09800000000000000000e+08
  +1.10100000000000000000e+08
  +1.10400000000000000000e+08
  +1.10700000000000000000e+08
  +1.11000000000000000000e+08
  +1.11300000000000000000e+08
  +1.11600000000000000000e+08
  +1.11900000000000000000e+08
  +1.12200000000000000000e+08
  +1.12500000000000000000e+08
  +1.12800000000000000000e+08
  +1.13100000000000000000e+08
  +1.13400000000000000000e+08
  +1.13700000000000000000e+08
  +1.14000000000000000000e+08
  +1.14300000000000000000e+08
  +1.14600000000000000000e+08
  +1.14900000000000000000e+08
  +1.15200000000000000000e+08
  +1.15500000000000000000e+08
  +1.15800000000000000000e+08
  +1.16100000000000000000e+08
  +1.16400000000000000000e+08
  +1.16700000000000000000e+08
  +1.17000000000000000000e+08
  +1.17300000000000000000e+08
  +1.17600000000000000000e+08
  +1.17900000000000000000e+08
  +1.18200000000000000000e+08
  +1.18500000000000000000e+08
  +1.18800000000000000000e+08
  +1.19100000000000000000e+08
  +1.19400000000000000000e+08
  +1.19700000000000000000e+08
  +1.20000000000000000000e+08
</indep>
<dep S[1,1] frequency>
  +4.67757795573322088245e-01-j1.38847846999067159324e-01
  +4.77269562139522041111e-01-j1.51261782209942630129e-01
  +4.86160388915803154397e-01-j1.63776534103296067535e-01
  +4.94446671037643836755e-01-j1.76361919768944497289e-01
  +5.02145727409332942592e-01-j1.88990048964853746272e-01
  +5.09275592070165483705e-01-j2.01635254830591886810e-01
  +5.15854825531843252939e-01-j2.14274012820069359453e-01
  +5.21902345533819977952e-01-j2.26884850619292421925e-01
  +5.27437276435033797206e-01-j2.39448251501690329013e-01
  +5.32478816290873235850e-01-j2.51946553267831330203e-01
  +5.37046120545421779013e-01-j2.64363844624379895620e-01
  +5.41158201193938315221e-01-j2.76685860583074649810e-01
  +5.44833840231737087656e-01-j2.88899878207467430968e-01
  +5.48091516196175021491e-01-j3.00994613804798472056e-01
  +5.50949342623404447750e-01-j3.12960122453094513606e-01
  +5.53425017274438602044e-01-j3.24787700569568182907e-01
  +5.55535781032137632174e-01-j3.36469792064605643933e-01
  +5.57298385427872911002e-01-j3.47999898485102265866e-01
  +5.58729067820422975466e-01-j3.59372493430090089728e-01
  +5.59843533317412545003e-01-j3.70582941419018097040e-01
  +5.60656942599473517852e-01-j3.81627421306753478181e-01
  +5.61183904876895622849e-01-j3.92502854267979151004e-01
  +5.61438475277174386946e-01-j4.03206836315212591160e-01
  +5.61434156027994957228e-01-j4.13737575267787538458e-01
  +5.61183900863442497453e-01-j4.24093832052139907418e-01
  +5.60700122140753598465e-01-j4.34274866185425489906e-01
  +5.59994700210779905447e-01-j4.44280385273444988758e-01
  +5.59078994636964976550e-01-j4.54110498339051260608e-01
  +5.57963856905357102889e-01-j4.63765672787598171034e-01
  +5.56659644311690238183e-01-j4.73246694810659618291e-01
  +5.55176234751244668253e-01-j4.82554633027465762485e-01
  +5.53523042173116985865e-01-j4.91690805164545940986e-01
  +5.51709032492836315420e-01-j5.00656747577406413541e-01
  +5.49742739786215461884e-01-j5.09454187423107884847e-01
  +5.47632282613306764496e-01-j5.18085017299073191666e-01
  +5.45385380344114323314e-01-j5.26551272170815432005e-01
  +5.43009369378374406878e-01-j5.34855108419405089748e-01
  +5.40511219169419909747e-01-j5.42998784847981807999e-01
  +5.37897547978037571248e-01-j5.50984645495441349716e-01
  +5.35174638296102345159e-01-j5.58815104114231075982e-01
  +5.32348451891613061449e-01-j5.66492630178013545361e-01
</dep>
<dep S[2,2] frequency>
  +8.89595659838209873449e-02+j2.73414545872229242107e-02
  +1.04868400234718855968e-01+j3.25828920551096690161e-02
  +1.20830629750162482638e-01+j3.71338795750705275012e-02
  +1.36809883421923461633e-01+j4.10024128155596079282e-02
  +1.52771131939561460866e-01+j4.41987481999324138826e-02
  +1.68680836284732821317e-01+j4.67352261543867442128e-02
  +1.84507073476761151998e-01+j4.86260861535191546423e-02
  +2.00219639636744189959e-01+j4.98872764998463669173e-02
  +2.15790130809350916286e-01+j5.05362616129617636673e-02
  +2.31192002308133082167e-01+j5.05918294001397317317e-02
  +2.46400607628083995193e-01+j5.00739010432662556838e-02
  +2.61393218196691923261e-01+j4.90033452766533983436e-02
  +2.76149025411942805608e-01+j4.74017989563256803009e-02
  +2.90649126544327007782e-01+j4.52914954413640158393e-02
  +3.04876496162779897503e-01+j4.26951020307001494203e-02
  +3.18815944785475147150e-01+j3.96355674295546522856e-02
  +3.32454066459982655601e-01+j3.61359799645651902367e-02
  +3.45779176948519784141e-01+j3.22194370296594589931e-02
  +3.58781244137870936051e-01+j2.79089260282877615893e-02
  +3.71451812215263021955e-01+j2.32272168845425452943e-02
  +3.83783921055813548318e-01+j1.81967660263018249367e-02
  +3.95772022158937086811e-01+j1.28396315985210840438e-02
  +4.07411892354295923635e-01+j7.17739954349794206934e-03
  +4.18700546376418847316e-01+j1.23112008631465208452e-03
  +4.29636149284156942940e-01-j4.97874591335656369040e-03
  +4.40217929579487909919e-01-j1.14323713394638426522e-02
  +4.50446093761971200209e-01-j1.81105985639167244017e-02
  +4.60321742942393752340e-01-j2.49949672170635128765e-02
  +4.69846792032835913755e-01-j3.20677346546393016169e-02
  +4.79023891931966705471e-01-j3.93118897899408237251e-02
  +4.87856355033835953350e-01-j4.67111609488117807132e-02
  +4.96348084306778902786e-01-j5.42500183856849949038e-02
  +5.04503506115861588555e-01-j6.19136720732704759484e-02
  +5.12327506897544693309e-01-j6.96880653481083411904e-02
  +5.19825373738939999768e-01-j7.75598649601283440802e-02
  +5.27002738865334885432e-01-j8.55164480380750102739e-02
  +5.33865527998396038889e-01-j9.35458864449849603062e-02
  +5.40419912513013800393e-01-j1.01636928959656258620e-01
  +5.46672265292379999657e-01-j1.09778981682166598688e-01
  +5.52629120158274256269e-01-j1.17962087024181760953e-01
  +5.58297134735806777073e-01-j1.26176901608873515137e-01
</dep>
