!  INFINEON TECHNOLOGIES Small Signal Semiconductors
! BFR360F , Si-NPN RF-Transistor T571A in TSFP3
!  Vce=3 V,  Ic=4 mA
! Common Emitter S-Parameters:              29. May 2001
#  GHz  S  MA  R  50
! f           S11            S21            S12            S22
! GHz      Mag   Ang      Mag   Ang      Mag   Ang      Mag   Ang
 0.010  0.8900   -3.0  12.599  178.1  0.0019   89.4  1.0046   -0.6
 0.020  0.9049   -1.2  12.479  178.0  0.0033   94.3  1.0029   -1.9
 0.050  0.8990   -7.5  12.454  174.5  0.0089   90.1  0.9895   -4.5
 0.100  0.8842  -14.2  12.306  169.7  0.0182   84.2  0.9821   -8.9
 0.150  0.8733  -22.2  12.150  164.1  0.0273   77.4  0.9626  -13.2
 0.200  0.8585  -28.8  11.887  159.2  0.0358   75.6  0.9432  -17.2
 0.250  0.8306  -35.3  11.544  154.5  0.0425   71.4  0.9142  -21.1
 0.300  0.8084  -42.2  11.166  149.8  0.0500   68.5  0.8857  -24.6
 0.400  0.7569  -53.9  10.401  141.4  0.0620   63.5  0.8216  -31.0
 0.500  0.7063  -64.8   9.573  134.2  0.0713   59.6  0.7585  -35.8
 0.600  0.6598  -75.3   8.811  127.7  0.0791   56.2  0.7001  -40.5
 0.700  0.6228  -84.0   8.108  122.5  0.0858   53.5  0.6470  -43.8
 0.800  0.5866  -91.8   7.468  117.6  0.0914   51.9  0.5994  -46.7
 0.900  0.5569  -99.7   6.891  113.6  0.0945   50.4  0.5550  -49.3
 1.000  0.5329 -105.6   6.373  110.1  0.0991   49.8  0.5231  -50.5
 1.100  0.5114 -112.7   5.941  106.4  0.1026   49.0  0.4892  -52.7
 1.200  0.4983 -118.2   5.558  103.7  0.1059   48.5  0.4597  -54.5
 1.300  0.4832 -123.4   5.223  101.0  0.1092   48.7  0.4381  -55.6
 1.400  0.4697 -128.1   4.882   98.5  0.1114   48.7  0.4193  -56.7
 1.500  0.4627 -132.8   4.623   96.0  0.1149   49.4  0.4010  -57.7
 1.600  0.4508 -137.3   4.363   93.9  0.1175   49.4  0.3821  -58.6
 1.700  0.4505 -141.2   4.138   91.9  0.1202   49.7  0.3646  -59.8
 1.800  0.4457 -145.1   3.945   89.8  0.1227   50.3  0.3522  -60.6
 1.900  0.4383 -147.8   3.752   88.1  0.1251   50.7  0.3452  -61.4
 2.000  0.4354 -151.0   3.591   86.5  0.1283   51.5  0.3338  -62.3
 2.200  0.4284 -156.5   3.293   83.2  0.1343   52.9  0.3199  -62.7
 2.400  0.4279 -161.3   3.036   80.4  0.1401   54.0  0.3033  -65.1
 2.600  0.4242 -165.6   2.825   77.7  0.1461   55.4  0.2980  -65.4
 2.800  0.4235 -169.4   2.650   75.3  0.1524   56.5  0.2880  -67.1
 3.000  0.4189 -172.8   2.492   72.9  0.1596   57.8  0.2889  -66.5
 3.500  0.4163  179.2   2.186   67.5  0.1784   60.8  0.2873  -70.4
 4.000  0.4196  170.9   1.964   62.8  0.2003   62.3  0.2815  -73.3
 4.500  0.4312  165.5   1.794   58.1  0.2200   63.5  0.2797  -78.3
 5.000  0.4400  158.4   1.654   53.5  0.2435   64.6  0.2742  -84.4
 5.500  0.4577  151.0   1.527   48.8  0.2675   64.7  0.2562  -88.5
 6.000  0.4835  142.8   1.392   45.2  0.2875   64.8  0.2369  -91.2
!
!                INFINEON TECHNOLOGIES, Munich
