!  INFINEON TECHNOLOGIES Small Signal Semiconductors
! BFR360F , Si-NPN RF-Transistor T571A in TSFP3
!  Vce=3 V,  Ic=3 mA
! Common Emitter S-Parameters:              29. May 2001
#  GHz  S  MA  R  50
! f           S11            S21            S12            S22
! GHz      Mag   Ang      Mag   Ang      Mag   Ang      Mag   Ang
 0.010  0.9126   -2.8   9.801  178.3  0.0019   84.2  1.0072   -0.5
 0.020  0.9273   -0.8   9.720  178.4  0.0032   97.0  1.0026   -1.6
 0.050  0.9249   -6.2   9.728  175.4  0.0094   87.8  0.9917   -3.7
 0.100  0.9115  -11.7   9.649  171.5  0.0188   84.0  0.9850   -7.4
 0.150  0.9055  -18.6   9.570  166.6  0.0279   80.2  0.9731  -11.0
 0.200  0.8911  -24.2   9.424  162.4  0.0367   77.8  0.9604  -14.4
 0.250  0.8746  -29.7   9.237  158.2  0.0441   73.6  0.9395  -17.8
 0.300  0.8552  -35.8   9.016  154.0  0.0519   71.3  0.9182  -20.9
 0.400  0.8144  -46.1   8.575  146.3  0.0657   65.8  0.8690  -26.8
 0.500  0.7701  -56.1   8.044  139.5  0.0770   61.5  0.8167  -31.4
 0.600  0.7268  -65.8   7.544  133.1  0.0870   57.8  0.7667  -36.1
 0.700  0.6916  -74.1   7.045  127.8  0.0947   54.7  0.7175  -39.6
 0.800  0.6522  -81.6   6.575  122.8  0.1006   52.4  0.6723  -42.8
 0.900  0.6185  -89.3   6.138  118.4  0.1064   50.3  0.6290  -45.7
 1.000  0.5925  -95.0   5.720  114.7  0.1107   48.8  0.5949  -47.3
 1.100  0.5666 -102.2   5.375  110.7  0.1150   47.6  0.5604  -49.7
 1.200  0.5482 -107.8   5.055  107.8  0.1181   46.7  0.5291  -51.7
 1.300  0.5312 -113.1   4.781  104.8  0.1215   46.1  0.5049  -53.2
 1.400  0.5140 -118.0   4.482  102.0  0.1234   45.8  0.4838  -54.5
 1.500  0.5022 -122.9   4.267   99.4  0.1265   45.8  0.4637  -55.7
 1.600  0.4883 -127.6   4.036   96.9  0.1291   45.3  0.4423  -56.8
 1.700  0.4846 -131.9   3.843   94.7  0.1307   45.5  0.4228  -58.2
 1.800  0.4765 -136.1   3.672   92.4  0.1335   45.9  0.4081  -59.0
 1.900  0.4699 -139.1   3.498   90.6  0.1350   45.8  0.3993  -59.9
 2.000  0.4644 -142.3   3.353   88.8  0.1372   46.5  0.3866  -60.8
 2.200  0.4526 -148.4   3.084   85.2  0.1418   47.5  0.3698  -61.6
 2.400  0.4495 -153.7   2.847   82.0  0.1454   48.5  0.3507  -64.0
 2.600  0.4441 -158.5   2.655   79.1  0.1499   49.8  0.3428  -64.5
 2.800  0.4422 -162.9   2.495   76.5  0.1546   51.1  0.3310  -66.2
 3.000  0.4368 -166.3   2.348   73.9  0.1605   52.7  0.3301  -65.8
 3.500  0.4319 -175.1   2.067   68.1  0.1754   56.2  0.3259  -69.7
 4.000  0.4331  176.3   1.861   63.1  0.1939   58.7  0.3184  -72.7
 4.500  0.4442  170.0   1.704   58.1  0.2120   60.7  0.3156  -77.6
 5.000  0.4536  162.3   1.573   53.3  0.2333   62.6  0.3095  -83.4
 5.500  0.4687  154.3   1.454   48.4  0.2562   63.4  0.2910  -87.6
 6.000  0.4949  145.8   1.325   44.7  0.2766   64.2  0.2703  -90.6
!
!                INFINEON TECHNOLOGIES, Munich
