!  INFINEON TECHNOLOGIES Small Signal Semiconductors
! BFR360F , Si-NPN RF-Transistor T571A in TSFP3
!  Vce=3 V,  Ic=2.5 mA
! Common Emitter S-Parameters:              29. May 2001
#  GHz  S  MA  R  50
! f           S11            S21            S12            S22
! GHz      Mag   Ang      Mag   Ang      Mag   Ang      Mag   Ang
 0.010  0.9254   -2.7   8.324  178.4  0.0020   92.2  1.0072   -0.4
 0.020  0.9325   -0.3   8.204  178.7  0.0033   86.4  0.9947   -1.2
 0.050  0.9374   -5.5   8.270  175.8  0.0093   91.3  0.9928   -3.3
 0.100  0.9248  -10.5   8.217  172.4  0.0193   86.0  0.9902   -6.6
 0.150  0.9221  -16.7   8.171  167.9  0.0281   81.0  0.9789   -9.8
 0.200  0.9105  -21.8   8.071  164.1  0.0371   79.8  0.9684  -12.8
 0.250  0.8941  -26.7   7.942  160.3  0.0451   75.0  0.9516  -15.9
 0.300  0.8794  -32.4   7.790  156.4  0.0533   72.5  0.9343  -18.8
 0.400  0.8450  -41.7   7.482  149.2  0.0678   67.5  0.8938  -24.3
 0.500  0.8051  -51.1   7.100  142.6  0.0802   63.1  0.8485  -28.8
 0.600  0.7667  -60.2   6.737  136.3  0.0916   59.0  0.8041  -33.3
 0.700  0.7311  -68.3   6.339  131.1  0.1009   56.1  0.7596  -36.9
 0.800  0.6936  -75.5   5.969  126.0  0.1068   53.0  0.7164  -40.2
 0.900  0.6604  -83.0   5.615  121.6  0.1132   50.7  0.6745  -43.1
 1.000  0.6353  -88.9   5.263  117.8  0.1187   49.1  0.6413  -45.0
 1.100  0.6043  -95.9   4.976  113.6  0.1233   47.2  0.6061  -47.6
 1.200  0.5871 -101.2   4.702  110.5  0.1268   46.2  0.5743  -49.7
 1.300  0.5659 -106.5   4.464  107.5  0.1309   45.3  0.5493  -51.3
 1.400  0.5475 -111.6   4.193  104.4  0.1325   44.4  0.5273  -52.8
 1.500  0.5331 -116.6   4.008  101.6  0.1352   44.1  0.5060  -54.1
 1.600  0.5172 -121.4   3.801   99.1  0.1381   43.4  0.4843  -55.4
 1.700  0.5120 -125.9   3.626   96.7  0.1394   43.1  0.4629  -56.8
 1.800  0.5013 -130.2   3.474   94.2  0.1416   43.1  0.4473  -57.7
 1.900  0.4931 -133.4   3.313   92.3  0.1426   43.1  0.4374  -58.7
 2.000  0.4861 -136.8   3.184   90.3  0.1445   43.6  0.4232  -59.7
 2.200  0.4714 -143.0   2.931   86.5  0.1482   44.2  0.4050  -60.6
 2.400  0.4671 -148.6   2.709   83.2  0.1507   45.1  0.3841  -63.1
 2.600  0.4601 -153.7   2.532   80.1  0.1541   46.3  0.3752  -63.8
 2.800  0.4565 -158.1   2.382   77.3  0.1575   47.4  0.3621  -65.5
 3.000  0.4504 -162.0   2.245   74.6  0.1616   49.0  0.3604  -65.3
 3.500  0.4444 -171.2   1.980   68.5  0.1744   52.9  0.3542  -69.1
 4.000  0.4450  179.9   1.786   63.3  0.1903   55.8  0.3453  -72.3
 4.500  0.4540  172.9   1.639   58.1  0.2062   58.4  0.3413  -77.0
 5.000  0.4639  165.0   1.514   53.2  0.2260   61.1  0.3351  -82.8
 5.500  0.4780  156.6   1.401   48.1  0.2478   62.4  0.3162  -87.1
 6.000  0.5025  147.7   1.278   44.3  0.2678   63.6  0.2943  -90.2
!
!                INFINEON TECHNOLOGIES, Munich
