!  INFINEON TECHNOLOGIES Small Signal Semiconductors
! BFR360F , Si-NPN RF-Transistor T571A in TSFP3
!  Vce=3 V,  Ic=2 mA
! Common Emitter S-Parameters:              29. May 2001
#  GHz  S  MA  R  50
! f           S11            S21            S12            S22
! GHz      Mag   Ang      Mag   Ang      Mag   Ang      Mag   Ang
 0.010  0.9369   -2.5   6.780  178.5  0.0019   87.3  1.0072   -0.4
 0.020  0.9559   -0.3   6.756  178.8  0.0033   96.7  0.9923   -1.1
 0.050  0.9514   -5.0   6.747  176.4  0.0093   90.1  0.9939   -2.9
 0.100  0.9388   -9.2   6.713  173.4  0.0188   86.7  0.9899   -5.7
 0.150  0.9372  -14.8   6.696  169.4  0.0284   81.3  0.9849   -8.5
 0.200  0.9295  -19.1   6.635  165.9  0.0376   80.1  0.9761  -11.2
 0.250  0.9160  -23.5   6.553  162.5  0.0456   76.6  0.9630  -13.9
 0.300  0.9024  -28.5   6.458  158.9  0.0550   74.1  0.9510  -16.5
 0.400  0.8764  -37.1   6.269  152.3  0.0702   69.2  0.9186  -21.5
 0.500  0.8420  -45.7   6.013  146.1  0.0835   65.3  0.8812  -25.8
 0.600  0.8097  -54.2   5.769  140.1  0.0957   61.1  0.8439  -30.1
 0.700  0.7775  -61.7   5.490  135.0  0.1064   57.8  0.8050  -33.6
 0.800  0.7419  -68.6   5.222  129.9  0.1150   54.5  0.7662  -36.9
 0.900  0.7096  -75.8   4.957  125.4  0.1220   51.8  0.7271  -40.0
 1.000  0.6846  -81.7   4.680  121.5  0.1283   49.8  0.6953  -42.0
 1.100  0.6526  -88.4   4.458  117.1  0.1337   47.6  0.6607  -44.7
 1.200  0.6342  -93.7   4.236  114.0  0.1378   45.7  0.6300  -47.0
 1.300  0.6130  -99.1   4.046  110.7  0.1422   44.6  0.6041  -48.8
 1.400  0.5927 -104.2   3.816  107.5  0.1444   43.4  0.5812  -50.4
 1.500  0.5758 -109.1   3.664  104.5  0.1472   42.7  0.5596  -51.9
 1.600  0.5563 -114.0   3.486  101.8  0.1503   41.8  0.5373  -53.3
 1.700  0.5500 -118.5   3.335   99.3  0.1515   41.1  0.5139  -54.9
 1.800  0.5367 -123.1   3.205   96.7  0.1527   40.8  0.4976  -55.9
 1.900  0.5256 -126.3   3.064   94.5  0.1542   40.4  0.4861  -57.0
 2.000  0.5166 -129.8   2.950   92.3  0.1557   40.5  0.4715  -58.1
 2.200  0.5005 -136.3   2.728   88.3  0.1581   40.6  0.4506  -59.2
 2.400  0.4924 -142.2   2.527   84.7  0.1595   41.0  0.4285  -61.8
 2.600  0.4828 -147.5   2.364   81.5  0.1610   41.8  0.4170  -62.6
 2.800  0.4789 -152.2   2.229   78.4  0.1628   42.7  0.4026  -64.4
 3.000  0.4711 -156.5   2.105   75.5  0.1658   44.3  0.3994  -64.4
 3.500  0.4628 -166.3   1.862   69.1  0.1744   48.3  0.3911  -68.4
 4.000  0.4608 -175.8   1.685   63.5  0.1865   51.7  0.3809  -71.7
 4.500  0.4703  177.0   1.548   58.1  0.1987   55.2  0.3764  -76.4
 5.000  0.4781  168.4   1.435   53.0  0.2167   58.7  0.3696  -82.1
 5.500  0.4910  159.6   1.328   47.8  0.2369   60.9  0.3503  -86.6
 6.000  0.5154  150.3   1.211   43.9  0.2565   62.9  0.3273  -90.1
!
!                INFINEON TECHNOLOGIES, Munich
