<Qucs Dataset 0.0.20>
<indep frequency 101>
  +7.00000000000000000000e+07
  +7.06000000000000000000e+07
  +7.12000000000000000000e+07
  +7.18000000000000000000e+07
  +7.24000000000000000000e+07
  +7.30000000000000000000e+07
  +7.36000000000000000000e+07
  +7.42000000000000000000e+07
  +7.48000000000000000000e+07
  +7.54000000000000000000e+07
  +7.60000000000000000000e+07
  +7.66000000000000000000e+07
  +7.72000000000000000000e+07
  +7.78000000000000000000e+07
  +7.84000000000000000000e+07
  +7.90000000000000000000e+07
  +7.96000000000000000000e+07
  +8.02000000000000000000e+07
  +8.08000000000000000000e+07
  +8.14000000000000000000e+07
  +8.20000000000000000000e+07
  +8.26000000000000000000e+07
  +8.32000000000000000000e+07
  +8.38000000000000000000e+07
  +8.44000000000000000000e+07
  +8.50000000000000000000e+07
  +8.56000000000000000000e+07
  +8.62000000000000000000e+07
  +8.68000000000000000000e+07
  +8.74000000000000000000e+07
  +8.80000000000000000000e+07
  +8.86000000000000000000e+07
  +8.92000000000000000000e+07
  +8.98000000000000000000e+07
  +9.04000000000000000000e+07
  +9.10000000000000000000e+07
  +9.16000000000000000000e+07
  +9.22000000000000000000e+07
  +9.28000000000000000000e+07
  +9.34000000000000000000e+07
  +9.40000000000000000000e+07
  +9.46000000000000000000e+07
  +9.52000000000000000000e+07
  +9.58000000000000000000e+07
  +9.64000000000000000000e+07
  +9.70000000000000000000e+07
  +9.76000000000000000000e+07
  +9.82000000000000000000e+07
  +9.88000000000000000000e+07
  +9.94000000000000000000e+07
  +1.00000000000000000000e+08
  +1.00600000000000000000e+08
  +1.01200000000000000000e+08
  +1.01800000000000000000e+08
  +1.02400000000000000000e+08
  +1.03000000000000000000e+08
  +1.03600000000000000000e+08
  +1.04200000000000000000e+08
  +1.04800000000000000000e+08
  +1.05400000000000000000e+08
  +1.06000000000000000000e+08
  +1.06600000000000000000e+08
  +1.07200000000000000000e+08
  +1.07800000000000000000e+08
  +1.08400000000000000000e+08
  +1.09000000000000000000e+08
  +1.09600000000000000000e+08
  +1.10200000000000000000e+08
  +1.10800000000000000000e+08
  +1.11400000000000000000e+08
  +1.12000000000000000000e+08
  +1.12600000000000000000e+08
  +1.13200000000000000000e+08
  +1.13800000000000000000e+08
  +1.14400000000000000000e+08
  +1.15000000000000000000e+08
  +1.15600000000000000000e+08
  +1.16200000000000000000e+08
  +1.16800000000000000000e+08
  +1.17400000000000000000e+08
  +1.18000000000000000000e+08
  +1.18600000000000000000e+08
  +1.19200000000000000000e+08
  +1.19800000000000000000e+08
  +1.20400000000000000000e+08
  +1.21000000000000000000e+08
  +1.21600000000000000000e+08
  +1.22200000000000000000e+08
  +1.22800000000000000000e+08
  +1.23400000000000000000e+08
  +1.24000000000000000000e+08
  +1.24600000000000000000e+08
  +1.25200000000000000000e+08
  +1.25800000000000000000e+08
  +1.26400000000000000000e+08
  +1.27000000000000000000e+08
  +1.27600000000000000000e+08
  +1.28200000000000000000e+08
  +1.28800000000000000000e+08
  +1.29400000000000000000e+08
  +1.30000000000000000000e+08
</indep>
<dep Rn frequency>
  +4.94406611855059964000e+04
  +5.00177500930565656745e+04
  +5.05976329222156782635e+04
  +5.11803640249396703439e+04
  +5.17659980034294567304e+04
  +5.23545896874860191019e+04
  +5.29461941133399159298e+04
  +5.35408665038826729869e+04
  +5.41386622502349055139e+04
  +5.47396368945841022651e+04
  +5.53438461142309388379e+04
  +5.59513457067838171497e+04
  +5.65621915764422737993e+04
  +5.71764397213156917132e+04
  +5.77941462217223233893e+04
  +5.84153672294183270424e+04
  +5.90401589577073682449e+04
  +5.96685776723840172053e+04
  +6.03006796834652923280e+04
  +6.09365213376692190650e+04
  +6.15761590115958824754e+04
  +6.22196491055756632704e+04
  +6.28670480381439701887e+04
  +6.35184122411086136708e+04
  +6.41737981551750635845e+04
  +6.48332622260956704849e+04
  +6.54968609013152672560e+04
  +6.61646506270799291087e+04
  +6.68366878459829604253e+04
  +6.75130289949206053279e+04
  +6.81937305034330347553e+04
  +6.88788487924042419763e+04
  +6.95684402731010195566e+04
  +7.02625613465265487321e+04
  +7.09612684030690725194e+04
  +7.16646178224262985168e+04
  +7.23726659737865993520e+04
  +7.30854692162484134315e+04
  +7.38030838994638470467e+04
  +7.45255663644866726827e+04
  +7.52529729448144789785e+04
  +7.59853599676058220211e+04
  +7.67227837550635595107e+04
  +7.74653006259684916586e+04
  +7.82129668973526277114e+04
  +7.89658388863015425159e+04
  +7.97239729118724208092e+04
  +8.04874252971217210870e+04
  +8.12562523712299880572e+04
  +8.20305104717147187330e+04
  +8.28102559467255050549e+04
  +8.35955451574114122195e+04
  +8.43864344803527783370e+04
  +8.51829803100524441106e+04
  +8.59852390614784089848e+04
  +8.67932671726510598091e+04
  +8.76071211072714067996e+04
  +8.84268573573823814513e+04
  +8.92525324460606207140e+04
  +9.00842029301304282853e+04
  +9.09219254029007279314e+04
  +9.17657564969146042131e+04
  +9.26157528867120417999e+04
  +9.34719712916017160751e+04
  +9.43344684784343990032e+04
  +9.52033012643826223211e+04
  +9.60785265197140106466e+04
  +9.69602011705640470609e+04
  +9.78483822016998892650e+04
  +9.87431266592762840446e+04
  +9.96444916535807715263e+04
  +1.00552534361763915513e+05
  +1.01467312030555156525e+05
  +1.02388881978962599533e+05
  +1.03317301600953127490e+05
  +1.04252628368113146280e+05
  +1.05194919832289218903e+05
  +1.06144233628203845001e+05
  +1.07100627476049907273e+05
  +1.08064159184058851679e+05
  +1.09034886651046050247e+05
  +1.10012867868925764924e+05
  +1.10998160925204821979e+05
  +1.11990824005441958434e+05
  +1.12990915395685529802e+05
  +1.13998493484877253650e+05
  +1.15013616767231083941e+05
  +1.16036343844578528660e+05
  +1.17066733428688239655e+05
  +1.18104844343552147620e+05
  +1.19150735527643497335e+05
  +1.20204466036142956000e+05
  +1.21266095043136214372e+05
  +1.22335681843777769245e+05
  +1.23413285856427813997e+05
  +1.24498966624755092198e+05
  +1.25592783819811462308e+05
  +1.26694797242073487723e+05
  +1.27805066823457178543e+05
  +1.28923652629298245301e+05
  +1.30050614860304907779e+05
</dep>
<dep Fmin frequency>
  +2.77081128666575023090e+03
  +2.78662031261219226508e+03
  +2.80221564908033997199e+03
  +2.81759995795715576605e+03
  +2.83277590137099650747e+03
  +2.84774613928539565677e+03
  +2.86251332724942039931e+03
  +2.87708011429707084972e+03
  +2.89144914098864319385e+03
  +2.90562303758707912493e+03
  +2.91960442236270500871e+03
  +2.93339590001993838086e+03
  +2.94700006023981268299e+03
  +2.96041947633238441995e+03
  +2.97365670399341343000e+03
  +2.98671428015980382042e+03
  +2.99959472195865055255e+03
  +3.01230052574485989680e+03
  +3.02483416622255799666e+03
  +3.03719809564579918515e+03
  +3.04939474309405159147e+03
  +3.06142651381844461866e+03
  +3.07329578865468556614e+03
  +3.08500492349889145771e+03
  +3.09655624884270810071e+03
  +3.10795206936418571786e+03
  +3.11919466357128294476e+03
  +3.13028628349464315761e+03
  +3.14122915442686144161e+03
  +3.15202547470524996243e+03
  +3.16267741553551013567e+03
  +3.17318712085365723397e+03
  +3.18355670722384184046e+03
  +3.19378826376968390832e+03
  +3.20388385213696028586e+03
  +3.21384550648555295993e+03
  +3.22367523350870396825e+03
  +3.23337501247761611012e+03
  +3.24294679530979556148e+03
  +3.25239250665922691041e+03
  +3.26171404402703501546e+03
  +3.27091327789092065359e+03
  +3.27999205185208302282e+03
  +3.28895218279821756369e+03
  +3.29779546108133718008e+03
  +3.30652365070923906387e+03
  +3.31513848954942295677e+03
  +3.32364168954446358839e+03
  +3.33203493693780455942e+03
  +3.34031989250898550381e+03
  +3.34849819181745260721e+03
  +3.35657144545412347725e+03
  +3.36454123929986053554e+03
  +3.37240913479013261167e+03
  +3.38017666918521535990e+03
  +3.38784535584513832873e+03
  +3.39541668450895394926e+03
  +3.40289212157754855070e+03
  +3.41027311039963069561e+03
  +3.41756107156022335403e+03
  +3.42475740317136114754e+03
  +3.43186348116436647615e+03
  +3.43888065958340939687e+03
  +3.44581027087997654235e+03
  +3.45265362620773657909e+03
  +3.45941201571768806389e+03
  +3.46608670885305946285e+03
  +3.47267895464382581849e+03
  +3.47918998200049054503e+03
  +3.48562100000688587897e+03
  +3.49197319821184510147e+03
  +3.49824774691938091564e+03
  +3.50444579747728721486e+03
  +3.51056848256397734076e+03
  +3.51661691647331872446e+03
  +3.52259219539737614468e+03
  +3.52849539770691535523e+03
  +3.53432758422949109445e+03
  +3.54008979852505262897e+03
  +3.54578306715892995271e+03
  +3.55140839997216380652e+03
  +3.55696679034896078520e+03
  +3.56245921548141632229e+03
  +3.56788663663112311042e+03
  +3.57324999938797918730e+03
  +3.57855023392578004859e+03
  +3.58378825525486990955e+03
  +3.58896496347149832218e+03
  +3.59408124400415726996e+03
  +3.59913796785664180788e+03
  +3.60413599184790245999e+03
  +3.60907615884868027933e+03
  +3.61395929801489728561e+03
  +3.61878622501775680576e+03
  +3.62355774227065694504e+03
  +3.62827463915273574457e+03
  +3.63293769222927221563e+03
  +3.63754766546873861444e+03
  +3.64210531045669677042e+03
  +3.64661136660640249829e+03
  +3.65106656136621450059e+03
</dep>
<dep Sopt frequency>
  +7.85167029955949336006e-02-j3.24693253985473662127e-01
  +8.00507740976102305508e-02-j3.27125889130385816284e-01
  +8.15961195528153715451e-02-j3.29549258432506098071e-01
  +8.31526755889144403300e-02-j3.31963286337524865477e-01
  +8.47203777652827255684e-02-j3.34367897612327213963e-01
  +8.62991609669342824018e-02-j3.36763017358572558368e-01
  +8.78889593990776485377e-02-j3.39148571026278378149e-01
  +8.94897065822445186845e-02-j3.41524484427413843601e-01
  +9.11013353479734749873e-02-j3.43890683749488945686e-01
  +9.27237778350303576413e-02-j3.46247095569142182558e-01
  +9.43569654861506207366e-02-j3.48593646865722528450e-01
  +9.60008290452886436928e-02-j3.50930265034859190099e-01
  +9.76552985553616748060e-02-j3.53256877902015042903e-01
  +9.93203033564729886873e-02-j3.55573413736024745990e-01
  +1.00995772084604487628e-01-j3.57879801262604047007e-01
  +1.02681632670765743409e-01-j3.60175969677836715910e-01
  +1.04377812340589390394e-01-j3.62461848661623009527e-01
  +1.06084237614362544844e-01-j3.64737368391096550280e-01
  +1.07800834307484785790e-01-j3.67002459553995352692e-01
  +1.09527527531342039335e-01-j3.69257053361989884266e-01
  +1.11264241694590565457e-01-j3.71501081563955060094e-01
  +1.13010900504839348346e-01-j3.73734476459190445574e-01
  +1.14767426970724492619e-01-j3.75957170910577731515e-01
  +1.16533743404368908547e-01-j3.78169098357671151778e-01
  +1.18309771424216961244e-01-j3.80370192829718067884e-01
  +1.20095431958241113946e-01-j3.82560388958602948239e-01
  +1.21890645247508741522e-01-j3.84739621991708191651e-01
  +1.23695330850106685605e-01-j3.86907827804694182117e-01
  +1.25509407645415016486e-01-j3.89064942914179534572e-01
  +1.27332793838723756785e-01-j3.91210904490332411765e-01
  +1.29165406966186585569e-01-j3.93345650369357091591e-01
  +1.31007163900105971788e-01-j3.95469119065870566843e-01
  +1.32857980854542923055e-01-j3.97581249785174117850e-01
  +1.34717773391245854153e-01-j3.99681982435402205489e-01
  +1.36586456425894259281e-01-j4.01771257639550627427e-01
  +1.38463944234647223785e-01-j4.03849016747379829795e-01
  +1.40350150460997830093e-01-j4.05915201847182549599e-01
  +1.42244988122920995588e-01-j4.07969755777416731579e-01
  +1.44148369620314187323e-01-j4.10012622138196003441e-01
  +1.46060206742722520357e-01-j4.12043745302631936323e-01
  +1.47980410677345852744e-01-j4.14063070428025925551e-01
  +1.49908892017317080247e-01-j4.16070543466903197682e-01
  +1.51845560770253545924e-01-j4.18066111177884836003e-01
  +1.53790326367068880264e-01-j4.20049721136396325694e-01
  +1.55743097671044966601e-01-j4.22021321745203070730e-01
  +1.57703782987155649575e-01-j4.23980862244770662084e-01
  +1.59672290071638162123e-01-j4.25928292723444124057e-01
  +1.61648526141806553325e-01-j4.27863564127448137153e-01
  +1.63632397886100428019e-01-j4.29786628270692361298e-01
  +1.65623811474364723839e-01-j4.31697437844385245587e-01
  +1.67622672568355363110e-01-j4.33595946426456435585e-01
  +1.69628886332463757469e-01-j4.35482108490769681541e-01
  +1.71642357444654225507e-01-j4.37355879416136683613e-01
  +1.73662990107611880930e-01-j4.39217215495119828184e-01
  +1.75690688060091138034e-01-j4.41066073942622483006e-01
  +1.77725354588461004202e-01-j4.42902412904262021698e-01
  +1.79766892538443745497e-01-j4.44726191464526743324e-01
  +1.81815204327035045972e-01-j4.46537369654701421506e-01
  +1.83870191954607326013e-01-j4.48335908460577026169e-01
  +1.85931757017183924008e-01-j4.50121769829918139116e-01
  +1.87999800718882448258e-01-j4.51894916679710212382e-01
  +1.90074223884519333261e-01-j4.53655312903158192128e-01
  +1.92154926972370576621e-01-j4.55402923376456658655e-01
  +1.94241810087082245051e-01-j4.57137713965310943376e-01
  +1.96334772992723977092e-01-j4.58859651531217049847e-01
  +1.98433715125982457206e-01-j4.60568703937494439149e-01
  +2.00538535609484369626e-01-j4.62264840055070014291e-01
  +2.02649133265246750302e-01-j4.63948029768008973761e-01
  +2.04765406628245466569e-01-j4.65618243978791923610e-01
  +2.06887253960099770644e-01-j4.67275454613339802368e-01
  +2.09014573262861380609e-01-j4.68919634625777514980e-01
  +2.11147262292906784387e-01-j4.70550758002939828462e-01
  +2.13285218574924440027e-01-j4.72168799768616198609e-01
  +2.15428339415990349748e-01-j4.73773735987533639591e-01
  +2.17576521919727261523e-01-j4.75365543769077192326e-01
  +2.19729663000540365037e-01-j4.76944201270742995646e-01
  +2.21887659397923736604e-01-j4.78509687701328456644e-01
  +2.24050407690830871710e-01-j4.80061983323853469496e-01
  +2.26217804312104336928e-01-j4.81601069458214958718e-01
  +2.28389745562956686387e-01-j4.83126928483576245643e-01
  +2.30566127627497591268e-01-j4.84639543840482467374e-01
  +2.32746846587301992049e-01-j4.86138900032710541410e-01
  +2.34931798436011585185e-01-j4.87624982628851788569e-01
  +2.37120879093963038420e-01-j4.89097778263619831218e-01
  +2.39313984422840325683e-01-j4.90557274638895868257e-01
  +2.41511010240340606714e-01-j4.92003460524501001760e-01
  +2.43711852334851208912e-01-j4.93436325758699223520e-01
  +2.45916406480131161105e-01-j4.94855861248437556288e-01
  +2.48124568449988508467e-01-j4.96262058969312913614e-01
  +2.50336234032951909789e-01-j4.97654911965275392749e-01
  +2.52551299046927801850e-01-j4.99034414348064725431e-01
  +2.54769659353836996907e-01-j5.00400561296381884979e-01
  +2.56991210874229658589e-01-j5.01753349054799624440e-01
  +2.59215849601863668195e-01-j5.03092774932403674626e-01
  +2.61443471618251987998e-01-j5.04418837301181199884e-01
  +2.63673973107165393603e-01-j5.05731535594143855050e-01
  +2.65907250369087466702e-01-j5.07030870303194047821e-01
  +2.68143199835617296323e-01-j5.08316842976737626181e-01
  +2.70381718083814170939e-01-j5.09589456217038661023e-01
  +2.72622701850477211494e-01-j5.10848713677322985305e-01
  +2.74866048046357613899e-01-j5.12094620058632821191e-01
</dep>
<dep F frequency>
  +3.11872286335665148727e+03
  +3.14298580934157098454e+03
  +3.16715146608644772641e+03
  +3.19122291916541553292e+03
  +3.21520325933894173431e+03
  +3.23909558029434538184e+03
  +3.26290297653334164352e+03
  +3.28662854139954515631e+03
  +3.31027536523927392409e+03
  +3.33384653368910858262e+03
  +3.35734512608401291800e+03
  +3.38077421397998659813e+03
  +3.40413685978546300248e+03
  +3.42743611549590423238e+03
  +3.45067502152629322154e+03
  +3.47385660563637520681e+03
  +3.49698388194379276683e+03
  +3.52005985002039642495e+03
  +3.54308749406721744890e+03
  +3.56606978216394327319e+03
  +3.58900966558855589028e+03
  +3.61191007820345930668e+03
  +3.63477393590419796965e+03
  +3.65760413612724323684e+03
  +3.68040355741347138974e+03
  +3.70317505902397397222e+03
  +3.72592148060530598741e+03
  +3.74864564190100009000e+03
  +3.77135034250672106282e+03
  +3.79403836166628161664e+03
  +3.81671245810607251769e+03
  +3.83937536990538455939e+03
  +3.86202981440048142758e+03
  +3.88467848812010606707e+03
  +3.90732406675044103395e+03
  +3.92996920512754968513e+03
  +3.95261653725545329507e+03
  +3.97526867634800191809e+03
  +3.99792821489306379590e+03
  +4.02059772473717612229e+03
  +4.04327975718947664063e+03
  +4.06597684314322714272e+03
  +4.08869149321378472450e+03
  +4.11142619789164746180e+03
  +4.13418342770943763753e+03
  +4.15696563342168974486e+03
  +4.17977524619631367386e+03
  +4.20261467781685678347e+03
  +4.22548632089451166394e+03
  +4.24839254908898601570e+03
  +4.27133571733746248356e+03
  +4.29431816209080807312e+03
  +4.31734220155628372595e+03
  +4.34041013594606374681e+03
  +4.36352424773095935961e+03
  +4.38668680189858969243e+03
  +4.40990004621563275578e+03
  +4.43316621149335969676e+03
  +4.45648751185621404147e+03
  +4.47986614501267285959e+03
  +4.50330429252825251751e+03
  +4.52680412009992778621e+03
  +4.55036777783179513790e+03
  +4.57399740051160097210e+03
  +4.59769510788758452691e+03
  +4.62146300494566548878e+03
  +4.64530318218633237848e+03
  +4.66921771590120988549e+03
  +4.69320866844890406355e+03
  +4.71727808852996713540e+03
  +4.74142801146076999430e+03
  +4.76566045944599045470e+03
  +4.78997744184959628910e+03
  +4.81438095546420117898e+03
  +4.83887298477852982614e+03
  +4.86345550224290673214e+03
  +4.88813046853266860126e+03
  +4.91289983280927754095e+03
  +4.93776553297911414120e+03
  +4.96272949594982856070e+03
  +4.98779363788418322656e+03
  +5.01295986445116341201e+03
  +5.03823007107461944543e+03
  +5.06360614317884483171e+03
  +5.08908995643166144873e+03
  +5.11468337698438153893e+03
  +5.14038826170907850610e+03
  +5.16620645843271540798e+03
  +5.19213980616846856719e+03
  +5.21819013534396799514e+03
  +5.24435926802650556056e+03
  +5.27064901814524455403e+03
  +5.29706119171039790672e+03
  +5.32359758702925410034e+03
  +5.35025999491929087526e+03
  +5.37705019891805841326e+03
  +5.40396997549015395634e+03
  +5.43102109423102319852e+03
  +5.45820531806782855710e+03
  +5.48552440345719605830e+03
  +5.51298010057997726108e+03
</dep>
<dep S[2,2] frequency>
  -3.03849922428026053556e-01+j5.94151575416410338004e-02
  -3.04292535515577944327e-01+j6.37682406747660524005e-02
  -3.04695211368442575584e-01+j6.81041846816392570929e-02
  -3.05058622111407329314e-01+j7.24229023472207911194e-02
  -3.05383426634033172675e-01+j7.67243142462142035942e-02
  -3.05670270807765154242e-01+j8.10083483760994649270e-02
  -3.05919787705855650284e-01+j8.52749398034644279232e-02
  -3.06132597825479135789e-01+j8.95240303234153267375e-02
  -3.06309309311456168246e-01+j9.37555681318180123007e-02
  -3.06450518181053344069e-01+j9.79695075101045531607e-02
  -3.06556808549373616124e-01+j1.02165808522361067912e-01
  -3.06628752854882835610e-01+j1.06344436724396002036e-01
  -3.06666912084660181481e-01+j1.10505362884484176211e-01
  -3.06671835999003439266e-01+j1.14648562715465557327e-01
  -3.06644063355045237707e-01+j1.18774016617877453683e-01
  -3.06584122129062941475e-01+j1.22881709433793256947e-01
  -3.06492529737212526797e-01+j1.26971630211040659164e-01
  -3.06369793254426092677e-01+j1.31043771977467832235e-01
  -3.06216409631245356504e-01+j1.35098131524932135727e-01
  -3.06032865908390516729e-01+j1.39134709202685197260e-01
  -3.05819639428880685195e-01+j1.43153508719833427731e-01
  -3.05577198047543685533e-01+j1.47154536956554837790e-01
  -3.05306000337776883846e-01+j1.51137803783759377962e-01
  -3.05006495795429433127e-01+j1.55103321890888351531e-01
  -3.04679125039705067657e-01+j1.59051106621548560272e-01
  -3.04324320010984750162e-01+j1.62981175816688778069e-01
  -3.03942504165498728064e-01+j1.66893549665031254436e-01
  -3.03534092666774890645e-01+j1.70788250560476945195e-01
  -3.03099492573814077723e-01+j1.74665302966213659142e-01
  -3.02639103025950262360e-01+j1.78524733285258113691e-01
  -3.02153315424358304142e-01+j1.82366569737180767019e-01
