! Infineon Technologies  Discrete & RF Semiconductors
! BFP460
! VCE =  2.0 V,  IC =  5.0 mA
! Common Emitter S-Parameters:                            Jan 2016
# GHz  S  MA  R  50
!  f         S11            S21            S12            S22
! GHz     MAG   ANG      MAG   ANG      MAG   ANG      MAG   ANG
 0.030  0.8692   -6.0  16.327  176.3  0.0063   86.0  0.9858   -3.9
 0.035  0.8686   -6.9  16.312  175.5  0.0073   85.7  0.9848   -4.5
 0.040  0.8683   -7.8  16.301  174.7  0.0083   85.4  0.9840   -5.2
 0.045  0.8682   -8.6  16.257  173.7  0.0094   84.7  0.9832   -5.8
 0.050  0.8683   -9.5  16.217  172.7  0.0105   84.1  0.9826   -6.5
 0.055  0.8662  -10.6  16.200  172.2  0.0114   84.0  0.9816   -7.1
 0.060  0.8644  -11.7  16.184  171.7  0.0124   84.0  0.9807   -7.8
 0.065  0.8628  -12.7  16.230  170.9  0.0134   83.3  0.9794   -8.4
 0.070  0.8615  -13.8  16.279  170.2  0.0145   82.7  0.9782   -9.1
 0.075  0.8623  -14.8  16.233  169.8  0.0155   82.1  0.9767   -9.7
 0.080  0.8634  -15.7  16.189  169.3  0.0166   81.6  0.9754  -10.4
 0.085  0.8615  -16.6  16.164  168.6  0.0175   81.1  0.9735  -11.0
 0.090  0.8598  -17.6  16.141  167.9  0.0185   80.6  0.9718  -11.7
 0.095  0.8585  -18.6  16.067  167.3  0.0194   80.0  0.9699  -12.3
 0.100  0.8575  -19.6  15.995  166.7  0.0204   79.5  0.9682  -12.9
 0.105  0.8573  -20.5  15.983  166.1  0.0214   79.0  0.9661  -13.5
 0.110  0.8573  -21.4  15.972  165.5  0.0224   78.5  0.9642  -14.2
 0.115  0.8553  -22.3  15.947  164.8  0.0233   77.9  0.9619  -14.8
 0.120  0.8535  -23.3  15.924  164.1  0.0243   77.4  0.9598  -15.5
 0.125  0.8508  -24.2  15.877  163.5  0.0252   76.8  0.9573  -16.1
 0.130  0.8483  -25.2  15.831  162.9  0.0262   76.3  0.9550  -16.7
 0.135  0.8470  -26.1  15.805  162.3  0.0271   75.8  0.9525  -17.3
 0.140  0.8460  -27.1  15.782  161.6  0.0281   75.4  0.9502  -17.9
 0.145  0.8434  -28.0  15.712  160.9  0.0290   74.9  0.9475  -18.5
 0.150  0.8410  -29.0  15.645  160.2  0.0300   74.4  0.9449  -19.1
 0.155  0.8381  -29.9  15.590  159.6  0.0309   73.8  0.9415  -19.7
 0.160  0.8353  -30.8  15.537  159.0  0.0317   73.3  0.9382  -20.2
 0.165  0.8328  -31.7  15.486  158.5  0.0326   72.8  0.9350  -20.8
 0.170  0.8304  -32.5  15.436  157.9  0.0335   72.3  0.9319  -21.4
 0.175  0.8283  -33.4  15.388  157.3  0.0343   71.8  0.9289  -22.0
 0.180  0.8264  -34.3  15.341  156.7  0.0352   71.4  0.9260  -22.6
 0.185  0.8246  -35.3  15.296  156.1  0.0361   70.9  0.9231  -23.2
 0.190  0.8231  -36.2  15.253  155.5  0.0369   70.5  0.9204  -23.8
 0.195  0.8218  -37.1  15.211  154.9  0.0378   70.2  0.9178  -24.4
 0.200  0.8207  -38.0  15.171  154.3  0.0387   69.8  0.9153  -25.0
 0.220  0.8095  -41.4  14.920  152.1  0.0418   67.9  0.9008  -27.1
 0.240  0.8013  -44.9  14.692  149.9  0.0450   66.2  0.8875  -29.4
 0.260  0.7925  -48.3  14.450  147.7  0.0480   64.6  0.8734  -31.5
 0.280  0.7828  -51.4  14.191  145.6  0.0507   63.0  0.8581  -33.5
 0.300  0.7755  -54.7  13.952  143.5  0.0535   61.6  0.8439  -35.6
 0.320  0.7638  -57.8  13.679  141.6  0.0560   60.1  0.8282  -37.4
 0.340  0.7544  -61.0  13.422  139.6  0.0584   58.7  0.8133  -39.3
 0.360  0.7447  -64.0  13.164  137.7  0.0607   57.4  0.7983  -41.1
 0.380  0.7343  -66.9  12.902  136.0  0.0629   56.2  0.7831  -42.8
 0.400  0.7258  -69.8  12.653  134.1  0.0650   55.0  0.7685  -44.5
 0.420  0.7154  -72.5  12.391  132.5  0.0669   53.8  0.7537  -46.1
 0.440  0.7067  -75.2  12.139  130.9  0.0688   52.6  0.7395  -47.7
 0.450  0.7029  -76.6  12.017  130.0  0.0698   52.1  0.7326  -48.5
 0.460  0.6979  -77.8  11.892  129.3  0.0706   51.6  0.7254  -49.2
 0.480  0.6888  -80.3  11.648  127.8  0.0722   50.6  0.7114  -50.6
 0.500  0.6810  -82.9  11.412  126.3  0.0738   49.7  0.6978  -52.1
 0.520  0.6711  -85.1  11.179  125.0  0.0751   48.8  0.6846  -53.3
 0.540  0.6623  -87.5  10.951  123.7  0.0764   47.9  0.6717  -54.5
 0.560  0.6546  -89.8  10.730  122.3  0.0778   47.1  0.6592  -55.8
 0.580  0.6481  -92.2  10.515  120.9  0.0791   46.3  0.6470  -57.1
 0.600  0.6427  -94.7  10.307  119.4  0.0805   45.5  0.6351  -58.5
 0.620  0.6348  -96.7  10.105  118.3  0.0815   44.8  0.6237  -59.5
 0.640  0.6277  -98.7   9.906  117.2  0.0826   44.2  0.6125  -60.6
 0.660  0.6213 -100.7   9.711  116.1  0.0836   43.6  0.6015  -61.7
 0.680  0.6158 -102.8   9.520  114.9  0.0846   43.0  0.5907  -62.8
 0.700  0.6111 -104.9   9.334  113.6  0.0857   42.4  0.5802  -64.0
 0.720  0.6050 -106.7   9.160  112.7  0.0865   41.9  0.5706  -64.9
 0.740  0.5995 -108.5   8.989  111.7  0.0874   41.4  0.5611  -65.8
 0.760  0.5946 -110.3   8.820  110.7  0.0883   40.9  0.5518  -66.7
 0.780  0.5903 -112.2   8.654  109.7  0.0891   40.4  0.5426  -67.7
 0.800  0.5867 -114.1   8.491  108.6  0.0900   39.9  0.5336  -68.7
 0.820  0.5819 -115.7   8.346  107.8  0.0907   39.5  0.5254  -69.5
 0.840  0.5776 -117.4   8.204  106.9  0.0914   39.1  0.5174  -70.3
 0.860  0.5738 -119.0   8.063  106.1  0.0921   38.7  0.5094  -71.1
 0.880  0.5704 -120.7   7.924  105.1  0.0928   38.3  0.5016  -72.0
 0.900  0.5676 -122.4   7.787  104.2  0.0935   37.9  0.4939  -72.9
 0.920  0.5635 -123.9   7.660  103.4  0.0941   37.6  0.4870  -73.6
 0.940  0.5599 -125.3   7.535  102.6  0.0947   37.3  0.4801  -74.3
 0.960  0.5565 -126.8   7.412  101.8  0.0954   37.0  0.4734  -75.1
 0.980  0.5536 -128.4   7.289  101.0  0.0960   36.7  0.4667  -75.8
 1.000  0.5511 -129.9   7.169  100.1  0.0966   36.4  0.4601  -76.6
 1.020  0.5481 -131.2   7.059   99.4  0.0972   36.2  0.4543  -77.2
 1.040  0.5455 -132.5   6.950   98.7  0.0977   35.9  0.4485  -77.9
 1.060  0.5431 -133.8   6.842   98.0  0.0983   35.7  0.4428  -78.6
 1.080  0.5410 -135.2   6.736   97.3  0.0988   35.4  0.4372  -79.3
 1.100  0.5392 -136.5   6.630   96.5  0.0994   35.2  0.4316  -80.0
 1.120  0.5367 -137.7   6.535   95.9  0.0999   35.0  0.4266  -80.6
 1.140  0.5345 -139.0   6.441   95.2  0.1004   34.8  0.4216  -81.2
 1.160  0.5325 -140.3   6.348   94.6  0.1009   34.6  0.4166  -81.8
 1.180  0.5308 -141.5   6.255   93.9  0.1014   34.4  0.4117  -82.4
 1.200  0.5293 -142.8   6.164   93.2  0.1019   34.2  0.4069  -83.0
 1.220  0.5277 -143.9   6.081   92.6  0.1024   34.1  0.4026  -83.6
 1.240  0.5263 -145.1   5.999   92.0  0.1029   33.9  0.3983  -84.1
 1.260  0.5251 -146.3   5.917   91.4  0.1033   33.8  0.3941  -84.7
 1.280  0.5241 -147.4   5.836   90.8  0.1038   33.6  0.3899  -85.3
 1.300  0.5234 -148.6   5.756   90.1  0.1043   33.5  0.3858  -85.9
 1.320  0.5219 -149.6   5.683   89.5  0.1047   33.4  0.3820  -86.4
 1.340  0.5205 -150.7   5.611   89.0  0.1052   33.3  0.3781  -86.9
 1.360  0.5193 -151.7   5.539   88.4  0.1056   33.1  0.3744  -87.5
 1.380  0.5183 -152.8   5.468   87.8  0.1061   33.0  0.3706  -88.0
 1.400  0.5175 -153.8   5.397   87.2  0.1065   32.9  0.3669  -88.6
 1.420  0.5163 -154.8   5.332   86.7  0.1070   32.8  0.3637  -89.1
 1.440  0.5153 -155.8   5.268   86.1  0.1074   32.7  0.3605  -89.6
 1.460  0.5144 -156.8   5.205   85.6  0.1079   32.6  0.3573  -90.1
 1.480  0.5137 -157.8   5.142   85.0  0.1083   32.5  0.3542  -90.6
 1.500  0.5132 -158.8   5.079   84.4  0.1088   32.4  0.3511  -91.1
 1.520  0.5124 -159.8   5.020   83.9  0.1092   32.3  0.3481  -91.6
 1.540  0.5116 -160.7   4.962   83.4  0.1096   32.2  0.3452  -92.1
 1.560  0.5111 -161.7   4.904   82.9  0.1101   32.2  0.3423  -92.6
 1.580  0.5107 -162.6   4.847   82.3  0.1105   32.1  0.3394  -93.1
 1.600  0.5104 -163.6   4.790   81.8  0.1109   32.0  0.3366  -93.6
 1.620  0.5100 -164.5   4.740   81.3  0.1113   31.9  0.3341  -94.0
 1.640  0.5097 -165.3   4.689   80.8  0.1118   31.8  0.3317  -94.5
 1.660  0.5095 -166.2   4.640   80.3  0.1122   31.8  0.3292  -95.0
 1.680  0.5094 -167.0   4.590   79.8  0.1127   31.7  0.3268  -95.4
 1.700  0.5094 -167.9   4.541   79.3  0.1131   31.6  0.3244  -95.9
 1.720  0.5092 -168.7   4.494   78.8  0.1135   31.5  0.3222  -96.4
 1.740  0.5091 -169.5   4.448   78.4  0.1140   31.5  0.3199  -96.8
 1.760  0.5091 -170.4   4.401   77.9  0.1144   31.4  0.3177  -97.3
 1.780  0.5093 -171.2   4.356   77.4  0.1149   31.4  0.3156  -97.8
 1.800  0.5095 -172.0   4.310   76.9  0.1153   31.3  0.3134  -98.3
 1.820  0.5093 -172.8   4.269   76.5  0.1157   31.3  0.3114  -98.7
 1.840  0.5092 -173.6   4.228   76.0  0.1162   31.2  0.3094  -99.2
 1.860  0.5092 -174.3   4.187   75.5  0.1166   31.2  0.3074  -99.6
 1.880  0.5093 -175.1   4.147   75.1  0.1171   31.1  0.3054 -100.0
 1.900  0.5095 -175.9   4.107   74.6  0.1175   31.1  0.3035 -100.5
 1.920  0.5095 -176.7   4.069   74.1  0.1179   31.0  0.3017 -100.9
 1.940  0.5096 -177.5   4.031   73.7  0.1184   31.0  0.3000 -101.4
 1.960  0.5097 -178.3   3.993   73.2  0.1188   30.9  0.2983 -101.8
 1.980  0.5100 -179.1   3.955   72.7  0.1193   30.9  0.2966 -102.2
 2.000  0.5104 -179.9   3.918   72.2  0.1197   30.8  0.2949 -102.7
 2.020  0.5105  179.4   3.884   71.8  0.1201   30.7  0.2933 -103.1
 2.040  0.5106  178.7   3.849   71.4  0.1206   30.7  0.2917 -103.6
 2.060  0.5109  178.0   3.816   71.0  0.1210   30.6  0.2901 -104.0
 2.080  0.5112  177.2   3.782   70.5  0.1215   30.6  0.2886 -104.5
 2.100  0.5116  176.5   3.748   70.1  0.1219   30.5  0.2871 -104.9
 2.120  0.5120  175.8   3.715   69.7  0.1223   30.5  0.2856 -105.4
 2.140  0.5126  175.1   3.682   69.2  0.1228   30.4  0.2841 -105.9
 2.160  0.5132  174.4   3.649   68.7  0.1232   30.4  0.2826 -106.3
 2.180  0.5139  173.7   3.616   68.3  0.1237   30.3  0.2811 -106.8
 2.200  0.5147  173.0   3.584   67.8  0.1241   30.3  0.2797 -107.3
 2.220  0.5149  172.3   3.555   67.4  0.1245   30.3  0.2784 -107.8
 2.240  0.5153  171.7   3.527   67.0  0.1250   30.2  0.2771 -108.2
 2.260  0.5156  171.0   3.498   66.6  0.1254   30.2  0.2758 -108.7
 2.280  0.5161  170.4   3.470   66.2  0.1259   30.1  0.2746 -109.2
 2.300  0.5166  169.7   3.442   65.8  0.1263   30.1  0.2733 -109.6
 2.320  0.5172  169.1   3.414   65.4  0.1267   30.1  0.2721 -110.1
 2.340  0.5179  168.4   3.387   64.9  0.1272   30.0  0.2709 -110.6
 2.360  0.5186  167.8   3.359   64.5  0.1276   30.0  0.2697 -111.1
 2.380  0.5194  167.1   3.332   64.1  0.1281   29.9  0.2685 -111.6
 2.400  0.5202  166.5   3.305   63.6  0.1285   29.9  0.2674 -112.1
 2.420  0.5207  165.9   3.280   63.2  0.1289   29.8  0.2664 -112.6
 2.440  0.5212  165.3   3.255   62.8  0.1294   29.8  0.2654 -113.1
 2.460  0.5218  164.7   3.230   62.5  0.1298   29.7  0.2645 -113.5
 2.480  0.5224  164.1   3.205   62.1  0.1303   29.7  0.2635 -114.0
 2.500  0.5231  163.5   3.180   61.7  0.1307   29.6  0.2626 -114.5
 2.520  0.5239  162.9   3.156   61.3  0.1312   29.6  0.2617 -115.0
 2.540  0.5247  162.3   3.131   60.9  0.1316   29.5  0.2608 -115.5
 2.560  0.5256  161.7   3.107   60.5  0.1321   29.5  0.2600 -116.0
 2.580  0.5265  161.1   3.083   60.0  0.1325   29.4  0.2591 -116.5
 2.600  0.5275  160.5   3.059   59.6  0.1330   29.4  0.2583 -117.0
 2.620  0.5281  159.9   3.037   59.2  0.1334   29.4  0.2576 -117.5
 2.640  0.5287  159.4   3.016   58.9  0.1339   29.3  0.2569 -118.0
 2.660  0.5294  158.8   2.995   58.5  0.1343   29.3  0.2563 -118.5
 2.680  0.5302  158.3   2.973   58.1  0.1347   29.2  0.2556 -119.0
 2.700  0.5310  157.7   2.952   57.7  0.1351   29.2  0.2550 -119.5
 2.720  0.5318  157.2   2.931   57.3  0.1356   29.2  0.2544 -120.0
 2.740  0.5327  156.6   2.911   56.9  0.1360   29.1  0.2538 -120.5
 2.760  0.5337  156.1   2.890   56.5  0.1364   29.1  0.2533 -121.0
 2.780  0.5347  155.5   2.869   56.1  0.1369   29.0  0.2527 -121.5
 2.800  0.5357  155.0   2.849   55.7  0.1373   29.0  0.2522 -122.0
 2.820  0.5365  154.5   2.830   55.3  0.1377   28.9  0.2517 -122.5
 2.840  0.5373  153.9   2.811   55.0  0.1382   28.9  0.2513 -123.0
 2.860  0.5381  153.4   2.792   54.6  0.1386   28.8  0.2508 -123.5
 2.880  0.5390  152.9   2.773   54.2  0.1390   28.8  0.2504 -124.0
 2.900  0.5399  152.4   2.754   53.9  0.1394   28.7  0.2500 -124.5
 2.920  0.5409  151.9   2.735   53.5  0.1399   28.7  0.2496 -125.0
 2.940  0.5420  151.3   2.717   53.1  0.1403   28.6  0.2493 -125.5
 2.960  0.5430  150.8   2.698   52.7  0.1407   28.6  0.2489 -126.0
 2.980  0.5441  150.3   2.680   52.3  0.1412   28.5  0.2486 -126.5
 3.000  0.5453  149.8   2.662   51.9  0.1416   28.5  0.2483 -127.0
 3.100  0.5483  147.4   2.582   50.4  0.1438   28.2  0.2471 -129.3
 3.200  0.5523  145.0   2.503   48.7  0.1460   27.9  0.2463 -131.6
 3.300  0.5572  142.7   2.427   46.9  0.1482   27.6  0.2459 -133.9
 3.400  0.5630  140.4   2.353   45.1  0.1504   27.4  0.2460 -136.3
 3.500  0.5697  138.1   2.282   43.1  0.1526   27.1  0.2464 -138.6
 3.600  0.5744  136.0   2.220   41.6  0.1547   26.8  0.2465 -141.0
 3.700  0.5798  134.0   2.159   40.1  0.1568   26.5  0.2471 -143.4
 3.800  0.5860  132.0   2.100   38.5  0.1589   26.2  0.2481 -145.8
 3.900  0.5928  130.1   2.043   36.7  0.1611   25.9  0.2495 -148.2
 4.000  0.6003  128.2   1.988   34.9  0.1632   25.6  0.2514 -150.5
 4.100  0.6052  126.5   1.938   33.5  0.1653   25.3  0.2539 -152.8
 4.200  0.6106  124.9   1.890   32.1  0.1673   25.0  0.2569 -155.1
 4.300  0.6165  123.3   1.843   30.6  0.1694   24.7  0.2602 -157.3
 4.400  0.6229  121.7   1.797   29.0  0.1714   24.5  0.2639 -159.4
 4.500  0.6297  120.2   1.753   27.3  0.1735   24.2  0.2680 -161.5
 4.600  0.6334  118.8   1.714   26.1  0.1757   23.9  0.2716 -163.2
 4.700  0.6375  117.4   1.676   24.8  0.1778   23.7  0.2754 -164.8
 4.800  0.6419  116.1   1.639   23.4  0.1800   23.5  0.2794 -166.4
 4.900  0.6467  114.7   1.602   22.0  0.1821   23.2  0.2837 -167.9
 5.000  0.6519  113.4   1.567   20.5  0.1843   23.0  0.2881 -169.4
 5.100  0.6549  112.3   1.536   19.4  0.1869   22.7  0.2915 -170.6
 5.200  0.6581  111.1   1.507   18.2  0.1895   22.4  0.2950 -171.8
 5.300  0.6616  110.0   1.477   16.9  0.1921   22.1  0.2986 -173.0
 5.400  0.6653  108.9   1.449   15.6  0.1948   21.8  0.3023 -174.1
 5.500  0.6693  107.8   1.421   14.3  0.1974   21.5  0.3062 -175.2
 5.600  0.6718  106.9   1.397   13.2  0.2000   21.0  0.3105 -176.4
 5.700  0.6746  105.9   1.373   12.0  0.2027   20.6  0.3148 -177.5
 5.800  0.6775  105.0   1.350   10.8  0.2053   20.1  0.3193 -178.7
 5.900  0.6806  104.1   1.327    9.6  0.2080   19.7  0.3240 -179.7
 6.000  0.6838  103.2   1.305    8.3  0.2107   19.3  0.3287  179.2
 6.100  0.6844  102.3   1.284    7.2  0.2131   18.8  0.3327  178.4
 6.200  0.6852  101.4   1.264    6.1  0.2155   18.4  0.3367  177.5
 6.300  0.6862  100.5   1.244    5.0  0.2180   18.0  0.3408  176.7
 6.400  0.6873   99.6   1.225    3.8  0.2204   17.5  0.3450  176.0
 6.500  0.6886   98.7   1.206    2.6  0.2229   17.1  0.3492  175.2
 6.600  0.6883   97.7   1.190    1.6  0.2257   16.7  0.3508  174.7
 6.800  0.6882   95.8   1.159   -0.5  0.2314   15.9  0.3542  173.6
 7.000  0.6890   93.8   1.129   -2.7  0.2372   15.1  0.3577  172.6
 7.200  0.6915   91.4   1.104   -4.8  0.2437   13.9  0.3595  170.9
 7.400  0.6952   89.0   1.080   -7.1  0.2503   12.8  0.3617  169.2
 7.600  0.7000   86.4   1.057   -9.4  0.2568   11.5  0.3648  167.1
 7.800  0.7062   83.7   1.034  -11.9  0.2634   10.0  0.3691  164.6
 8.000  0.7140   81.1   1.014  -14.5  0.2701    8.6  0.3742  162.1
 8.200  0.7197   78.2   0.987  -16.8  0.2753    6.7  0.3782  158.9
 8.400  0.7273   75.4   0.961  -19.3  0.2807    5.0  0.3834  155.8
 8.600  0.7365   72.7   0.935  -21.7  0.2846    3.1  0.3885  152.1
 8.800  0.7474   70.1   0.908  -23.9  0.2871    1.3  0.3946  147.7
 9.000  0.7597   67.6   0.883  -26.3  0.2899   -0.6  0.4028  143.5
 9.200  0.7744   65.5   0.854  -28.2  0.2902   -2.1  0.4160  138.3
 9.400  0.7900   63.6   0.826  -30.2  0.2906   -3.6  0.4324  133.5
 9.600  0.8038   61.8   0.798  -31.9  0.2908   -4.8  0.4507  129.1
 9.800  0.8155   60.1   0.770  -33.5  0.2906   -5.7  0.4705  125.3
10.000  0.8279   58.5   0.742  -35.1  0.2905   -6.6  0.4922  121.7
!
!  f       NFmin   Gammaopt  rn/50
! GHz       dB    MAG  ANG    -
 0.100      0.77  0.36    1   0.17
 0.450      0.78  0.33   16   0.17
 0.900      0.80  0.34   31   0.17
 1.900      1.06  0.17   97   0.13
 3.500      1.24  0.33 -153   0.10
!
! (c) 2016  Infineon Technologies AG, Munich
