! Infineon Technologies  Discrete & RF Semiconductors
! BFP460
! VCE =  2.5 V,  IC =  4.0 mA
! Common Emitter S-Parameters:                            Jan 2016
# GHz  S  MA  R  50
!  f         S11            S21            S12            S22
! GHz     MAG   ANG      MAG   ANG      MAG   ANG      MAG   ANG
 0.030  0.8953   -5.0  13.417  176.8  0.0061   87.1  0.9899   -3.4
 0.035  0.8947   -5.8  13.409  176.1  0.0071   86.4  0.9893   -3.9
 0.040  0.8942   -6.7  13.403  175.3  0.0082   85.9  0.9888   -4.4
 0.045  0.8929   -7.4  13.368  174.5  0.0091   85.7  0.9880   -4.9
 0.050  0.8917   -8.1  13.335  173.6  0.0101   85.5  0.9873   -5.4
 0.055  0.8919   -9.2  13.327  173.2  0.0112   85.3  0.9867   -5.9
 0.060  0.8923  -10.2  13.320  172.7  0.0123   85.1  0.9861   -6.5
 0.065  0.8907  -11.1  13.363  172.0  0.0132   84.0  0.9852   -7.0
 0.070  0.8894  -12.0  13.408  171.3  0.0142   83.1  0.9844   -7.5
 0.075  0.8905  -12.7  13.372  171.0  0.0152   82.7  0.9833   -8.0
 0.080  0.8917  -13.4  13.336  170.6  0.0163   82.4  0.9823   -8.6
 0.085  0.8910  -14.2  13.327  170.0  0.0172   81.8  0.9808   -9.1
 0.090  0.8905  -15.0  13.319  169.4  0.0181   81.2  0.9794   -9.7
 0.095  0.8873  -15.8  13.264  168.9  0.0191   80.8  0.9781  -10.2
 0.100  0.8842  -16.6  13.211  168.3  0.0202   80.5  0.9769  -10.7
 0.105  0.8853  -17.5  13.204  167.8  0.0211   80.1  0.9754  -11.2
 0.110  0.8866  -18.4  13.199  167.3  0.0220   79.8  0.9740  -11.8
 0.115  0.8837  -19.2  13.191  166.7  0.0230   79.2  0.9723  -12.3
 0.120  0.8809  -20.1  13.185  166.1  0.0241   78.7  0.9707  -12.9
 0.125  0.8797  -20.8  13.156  165.6  0.0250   78.3  0.9688  -13.3
 0.130  0.8787  -21.5  13.129  165.0  0.0259   78.0  0.9670  -13.8
 0.135  0.8773  -22.3  13.117  164.4  0.0268   77.4  0.9653  -14.3
 0.140  0.8761  -23.2  13.107  163.8  0.0278   76.9  0.9636  -14.9
 0.145  0.8744  -24.0  13.057  163.2  0.0287   76.5  0.9616  -15.4
 0.150  0.8728  -24.8  13.008  162.6  0.0297   76.2  0.9596  -16.0
 0.155  0.8705  -25.6  12.974  162.1  0.0306   75.7  0.9570  -16.5
 0.160  0.8683  -26.4  12.942  161.6  0.0315   75.2  0.9545  -17.0
 0.165  0.8663  -27.2  12.911  161.0  0.0324   74.7  0.9521  -17.4
 0.170  0.8644  -28.0  12.880  160.5  0.0332   74.3  0.9498  -17.9
 0.175  0.8627  -28.8  12.851  160.0  0.0341   73.8  0.9475  -18.4
 0.180  0.8612  -29.6  12.823  159.4  0.0350   73.4  0.9453  -18.9
 0.185  0.8599  -30.4  12.796  158.9  0.0359   73.0  0.9431  -19.4
 0.190  0.8587  -31.2  12.770  158.4  0.0368   72.7  0.9410  -19.9
 0.195  0.8577  -32.0  12.746  157.8  0.0377   72.3  0.9390  -20.4
 0.200  0.8569  -32.8  12.722  157.3  0.0386   72.0  0.9371  -20.9
 0.220  0.8472  -35.8  12.562  155.3  0.0419   70.2  0.9259  -22.7
 0.240  0.8399  -38.8  12.417  153.2  0.0452   68.6  0.9157  -24.6
 0.260  0.8322  -41.8  12.259  151.3  0.0484   67.0  0.9045  -26.5
 0.280  0.8242  -44.7  12.086  149.4  0.0514   65.5  0.8922  -28.3
 0.300  0.8183  -47.7  11.927  147.4  0.0545   64.1  0.8808  -30.1
 0.320  0.8076  -50.5  11.743  145.6  0.0572   62.6  0.8678  -31.7
 0.340  0.7988  -53.3  11.570  143.7  0.0598   61.3  0.8556  -33.4
 0.360  0.7901  -56.0  11.392  141.9  0.0624   60.0  0.8430  -35.0
 0.380  0.7810  -58.6  11.207  140.2  0.0648   58.7  0.8297  -36.5
 0.400  0.7736  -61.3  11.032  138.4  0.0673   57.5  0.8171  -38.1
 0.420  0.7631  -63.8  10.843  136.8  0.0694   56.3  0.8042  -39.5
 0.440  0.7542  -66.4  10.662  135.2  0.0716   55.1  0.7919  -41.0
 0.450  0.7503  -67.7  10.575  134.4  0.0727   54.6  0.7859  -41.8
 0.460  0.7454  -68.9  10.482  133.7  0.0736   54.1  0.7794  -42.4
 0.480  0.7366  -71.2  10.302  132.2  0.0756   53.0  0.7668  -43.7
 0.500  0.7291  -73.6  10.128  130.7  0.0775   52.0  0.7545  -45.0
 0.520  0.7191  -75.8   9.949  129.4  0.0790   51.0  0.7423  -46.1
 0.540  0.7101  -78.0   9.775  128.1  0.0806   50.1  0.7303  -47.2
 0.560  0.7021  -80.2   9.607  126.7  0.0822   49.1  0.7187  -48.4
 0.580  0.6953  -82.5   9.444  125.3  0.0838   48.3  0.7073  -49.6
 0.600  0.6897  -84.9   9.288  123.8  0.0854   47.4  0.6963  -50.9
 0.620  0.6811  -86.8   9.124  122.7  0.0866   46.6  0.6852  -51.9
 0.640  0.6733  -88.8   8.963  121.5  0.0879   45.8  0.6744  -52.9
 0.660  0.6663  -90.8   8.806  120.3  0.0892   45.1  0.6637  -53.9
 0.680  0.6601  -92.8   8.654  119.1  0.0905   44.3  0.6533  -55.0
 0.700  0.6548  -94.9   8.505  117.8  0.0918   43.6  0.6431  -56.1
 0.720  0.6478  -96.7   8.362  116.8  0.0928   43.0  0.6334  -56.9
 0.740  0.6415  -98.5   8.221  115.8  0.0938   42.4  0.6239  -57.8
 0.760  0.6358 -100.3   8.083  114.7  0.0948   41.8  0.6145  -58.7
 0.780  0.6307 -102.2   7.948  113.6  0.0958   41.2  0.6052  -59.6
 0.800  0.6264 -104.1   7.816  112.5  0.0968   40.6  0.5961  -60.5
 0.820  0.6208 -105.7   7.693  111.6  0.0976   40.1  0.5877  -61.3
 0.840  0.6157 -107.3   7.571  110.7  0.0984   39.6  0.5794  -62.0
 0.860  0.6110 -109.0   7.452  109.8  0.0992   39.1  0.5712  -62.8
 0.880  0.6070 -110.7   7.334  108.8  0.1001   38.6  0.5631  -63.7
 0.900  0.6034 -112.4   7.219  107.8  0.1009   38.1  0.5551  -64.5
 0.920  0.5985 -113.9   7.109  107.0  0.1016   37.7  0.5479  -65.1
 0.940  0.5940 -115.4   7.001  106.2  0.1023   37.2  0.5407  -65.8
 0.960  0.5899 -117.0   6.894  105.4  0.1030   36.8  0.5336  -66.5
 0.980  0.5863 -118.5   6.789  104.5  0.1037   36.4  0.5266  -67.2
 1.000  0.5831 -120.1   6.685  103.6  0.1044   36.0  0.5197  -67.9
 1.020  0.5793 -121.5   6.589  102.9  0.1050   35.7  0.5134  -68.5
 1.040  0.5758 -122.9   6.493  102.1  0.1055   35.3  0.5072  -69.1
 1.060  0.5726 -124.3   6.399  101.3  0.1061   35.0  0.5011  -69.8
 1.080  0.5698 -125.7   6.307  100.5  0.1067   34.6  0.4950  -70.4
 1.100  0.5673 -127.1   6.215   99.7  0.1073   34.3  0.4890  -71.1
 1.120  0.5641 -128.4   6.131   99.0  0.1078   34.0  0.4836  -71.6
 1.140  0.5612 -129.6   6.047   98.3  0.1083   33.7  0.4781  -72.2
 1.160  0.5586 -130.9   5.965   97.6  0.1089   33.4  0.4728  -72.7
 1.180  0.5563 -132.2   5.883   96.9  0.1094   33.1  0.4675  -73.3
 1.200  0.5542 -133.5   5.803   96.1  0.1099   32.8  0.4622  -73.9
 1.220  0.5517 -134.7   5.728   95.5  0.1103   32.6  0.4574  -74.4
 1.240  0.5494 -135.9   5.654   94.8  0.1108   32.3  0.4526  -74.9
 1.260  0.5474 -137.1   5.581   94.2  0.1112   32.1  0.4479  -75.5
 1.280  0.5456 -138.4   5.508   93.5  0.1117   31.8  0.4432  -76.0
 1.300  0.5441 -139.6   5.436   92.8  0.1121   31.6  0.4385  -76.6
 1.320  0.5422 -140.7   5.370   92.2  0.1125   31.4  0.4342  -77.1
 1.340  0.5404 -141.8   5.305   91.6  0.1129   31.2  0.4300  -77.5
 1.360  0.5389 -142.9   5.240   91.0  0.1134   31.0  0.4258  -78.0
 1.380  0.5376 -144.1   5.176   90.4  0.1138   30.8  0.4216  -78.5
 1.400  0.5365 -145.2   5.112   89.7  0.1142   30.6  0.4175  -79.0
 1.420  0.5348 -146.3   5.052   89.1  0.1146   30.4  0.4139  -79.4
 1.440  0.5332 -147.3   4.993   88.5  0.1150   30.3  0.4103  -79.9
 1.460  0.5319 -148.4   4.935   87.9  0.1154   30.1  0.4067  -80.4
 1.480  0.5307 -149.5   4.876   87.3  0.1158   30.0  0.4032  -80.8
 1.500  0.5297 -150.6   4.819   86.7  0.1162   29.8  0.3997  -81.3
 1.520  0.5283 -151.6   4.766   86.2  0.1165   29.7  0.3963  -81.7
 1.540  0.5271 -152.6   4.714   85.6  0.1169   29.5  0.3929  -82.2
 1.560  0.5260 -153.6   4.662   85.1  0.1172   29.4  0.3896  -82.6
 1.580  0.5251 -154.6   4.610   84.5  0.1176   29.2  0.3862  -83.0
 1.600  0.5244 -155.6   4.559   83.9  0.1179   29.1  0.3829  -83.5
 1.620  0.5236 -156.5   4.512   83.4  0.1183   29.0  0.3801  -83.9
 1.640  0.5230 -157.4   4.465   82.9  0.1186   28.9  0.3773  -84.3
 1.660  0.5224 -158.4   4.419   82.4  0.1190   28.7  0.3745  -84.7
 1.680  0.5220 -159.3   4.373   81.8  0.1193   28.6  0.3717  -85.2
 1.700  0.5218 -160.2   4.327   81.3  0.1197   28.5  0.3690  -85.6
 1.720  0.5211 -161.1   4.284   80.8  0.1201   28.4  0.3664  -86.0
 1.740  0.5206 -162.0   4.241   80.3  0.1204   28.3  0.3638  -86.4
 1.760  0.5202 -162.9   4.198   79.8  0.1208   28.1  0.3613  -86.8
 1.780  0.5199 -163.8   4.156   79.2  0.1211   28.0  0.3587  -87.3
 1.800  0.5197 -164.7   4.114   78.7  0.1215   27.9  0.3562  -87.7
 1.820  0.5192 -165.5   4.075   78.2  0.1218   27.8  0.3538  -88.1
 1.840  0.5189 -166.4   4.037   77.7  0.1222   27.7  0.3515  -88.5
 1.860  0.5186 -167.2   3.999   77.2  0.1225   27.7  0.3492  -88.9
 1.880  0.5185 -168.1   3.961   76.7  0.1229   27.6  0.3469  -89.3
 1.900  0.5185 -168.9   3.924   76.2  0.1232   27.5  0.3446  -89.7
 1.920  0.5182 -169.7   3.889   75.7  0.1235   27.4  0.3425  -90.1
 1.940  0.5181 -170.5   3.854   75.3  0.1238   27.3  0.3404  -90.5
 1.960  0.5180 -171.4   3.819   74.8  0.1242   27.2  0.3383  -90.9
 1.980  0.5180 -172.2   3.784   74.3  0.1245   27.1  0.3362  -91.3
 2.000  0.5182 -173.0   3.750   73.8  0.1248   27.0  0.3342  -91.7
 2.020  0.5180 -173.8   3.718   73.4  0.1251   26.9  0.3323  -92.1
 2.040  0.5179 -174.5   3.685   72.9  0.1255   26.9  0.3304  -92.5
 2.060  0.5178 -175.3   3.653   72.5  0.1258   26.8  0.3285  -92.9
 2.080  0.5179 -176.0   3.622   72.0  0.1261   26.7  0.3267  -93.2
 2.100  0.5181 -176.8   3.590   71.6  0.1264   26.6  0.3249  -93.6
 2.120  0.5183 -177.6   3.559   71.1  0.1268   26.6  0.3230  -94.0
 2.140  0.5186 -178.3   3.528   70.6  0.1271   26.5  0.3212  -94.5
 2.160  0.5191 -179.1   3.497   70.1  0.1274   26.4  0.3194  -94.9
 2.180  0.5196 -179.8   3.466   69.6  0.1278   26.4  0.3177  -95.3
 2.200  0.5202  179.4   3.436   69.1  0.1281   26.3  0.3159  -95.7
 2.220  0.5203  178.7   3.409   68.7  0.1284   26.2  0.3143  -96.1
 2.240  0.5204  178.0   3.382   68.3  0.1288   26.2  0.3127  -96.5
 2.260  0.5207  177.2   3.355   67.9  0.1291   26.1  0.3111  -96.9
 2.280  0.5210  176.5   3.328   67.4  0.1294   26.1  0.3095  -97.3
 2.300  0.5214  175.8   3.302   67.0  0.1297   26.0  0.3079  -97.7
 2.320  0.5219  175.1   3.276   66.5  0.1301   25.9  0.3064  -98.2
 2.340  0.5225  174.3   3.250   66.1  0.1304   25.9  0.3049  -98.6
 2.360  0.5231  173.6   3.224   65.6  0.1307   25.8  0.3034  -99.0
 2.380  0.5239  172.9   3.198   65.2  0.1311   25.8  0.3019  -99.5
 2.400  0.5247  172.2   3.173   64.7  0.1314   25.7  0.3004  -99.9
 2.420  0.5251  171.5   3.149   64.3  0.1317   25.6  0.2991 -100.3
 2.440  0.5256  170.9   3.126   63.9  0.1320   25.6  0.2978 -100.8
 2.460  0.5261  170.2   3.102   63.5  0.1324   25.5  0.2965 -101.2
 2.480  0.5268  169.6   3.079   63.1  0.1327   25.5  0.2952 -101.7
 2.500  0.5275  168.9   3.056   62.6  0.1330   25.4  0.2939 -102.1
 2.520  0.5282  168.3   3.033   62.2  0.1333   25.4  0.2927 -102.6
 2.540  0.5290  167.6   3.010   61.8  0.1336   25.3  0.2915 -103.0
 2.560  0.5299  167.0   2.988   61.3  0.1340   25.3  0.2903 -103.5
 2.580  0.5309  166.3   2.965   60.9  0.1343   25.2  0.2891 -103.9
 2.600  0.5319  165.7   2.943   60.4  0.1346   25.2  0.2879 -104.4
 2.620  0.5323  165.1   2.922   60.0  0.1349   25.1  0.2869 -104.8
 2.640  0.5328  164.5   2.902   59.6  0.1352   25.1  0.2859 -105.3
 2.660  0.5333  163.9   2.882   59.3  0.1355   25.0  0.2850 -105.7
 2.680  0.5339  163.2   2.861   58.9  0.1358   25.0  0.2841 -106.2
 2.700  0.5345  162.6   2.841   58.5  0.1361   24.9  0.2831 -106.6
 2.720  0.5352  162.0   2.821   58.1  0.1365   24.9  0.2822 -107.1
 2.740  0.5360  161.4   2.802   57.7  0.1368   24.8  0.2813 -107.5
 2.760  0.5368  160.8   2.782   57.2  0.1371   24.8  0.2805 -108.0
 2.780  0.5377  160.2   2.762   56.8  0.1374   24.7  0.2796 -108.4
 2.800  0.5386  159.6   2.743   56.4  0.1377   24.7  0.2788 -108.9
 2.820  0.5393  159.0   2.725   56.0  0.1380   24.7  0.2780 -109.3
 2.840  0.5400  158.5   2.706   55.6  0.1383   24.6  0.2773 -109.8
 2.860  0.5407  157.9   2.688   55.3  0.1387   24.6  0.2765 -110.3
 2.880  0.5416  157.4   2.670   54.9  0.1390   24.6  0.2758 -110.7
 2.900  0.5424  156.8   2.652   54.5  0.1393   24.5  0.2751 -111.2
 2.920  0.5433  156.3   2.635   54.1  0.1396   24.5  0.2744 -111.6
 2.940  0.5443  155.7   2.617   53.7  0.1399   24.5  0.2737 -112.1
 2.960  0.5453  155.2   2.600   53.2  0.1403   24.5  0.2731 -112.6
 2.980  0.5464  154.6   2.582   52.8  0.1406   24.4  0.2724 -113.0
 3.000  0.5475  154.1   2.565   52.4  0.1409   24.4  0.2718 -113.5
 3.100  0.5501  151.5   2.488   50.8  0.1425   24.2  0.2693 -115.7
 3.200  0.5538  149.0   2.413   49.1  0.1441   24.0  0.2671 -117.9
 3.300  0.5586  146.5   2.340   47.2  0.1458   23.8  0.2654 -120.1
 3.400  0.5644  144.0   2.270   45.3  0.1474   23.6  0.2641 -122.4
 3.500  0.5713  141.6   2.203   43.2  0.1490   23.4  0.2632 -124.7
 3.600  0.5757  139.4   2.143   41.7  0.1506   23.2  0.2620 -127.0
 3.700  0.5810  137.2   2.085   40.1  0.1523   23.1  0.2611 -129.4
 3.800  0.5870  135.1   2.028   38.4  0.1539   22.9  0.2608 -131.8
 3.900  0.5939  133.0   1.974   36.6  0.1556   22.8  0.2609 -134.1
 4.000  0.6015  131.0   1.921   34.7  0.1572   22.6  0.2614 -136.5
 4.100  0.6061  129.2   1.873   33.3  0.1589   22.4  0.2627 -138.9
 4.200  0.6113  127.5   1.827   31.8  0.1606   22.3  0.2645 -141.3
 4.300  0.6170  125.8   1.782   30.2  0.1622   22.1  0.2667 -143.6
 4.400  0.6232  124.1   1.738   28.5  0.1639   22.0  0.2693 -145.9
 4.500  0.6300  122.5   1.696   26.8  0.1656   21.8  0.2724 -148.1
 4.600  0.6339  121.0   1.658   25.5  0.1675   21.7  0.2756 -150.0
 4.700  0.6383  119.6   1.621   24.2  0.1694   21.6  0.2791 -151.8
 4.800  0.6430  118.2   1.584   22.7  0.1713   21.6  0.2828 -153.5
 4.900  0.6481  116.8   1.549   21.3  0.1732   21.5  0.2868 -155.2
 5.000  0.6536  115.4   1.515   19.7  0.1751   21.4  0.2911 -156.9
 5.100  0.6567  114.2   1.485   18.5  0.1775   21.2  0.2946 -158.3
 5.200  0.6600  113.0   1.455   17.3  0.1799   21.0  0.2982 -159.6
 5.300  0.6636  111.9   1.426   16.0  0.1824   20.8  0.3020 -161.0
 5.400  0.6675  110.7   1.398   14.7  0.1848   20.7  0.3060 -162.2
 5.500  0.6717  109.6   1.371   13.3  0.1872   20.5  0.3101 -163.5
 5.600  0.6743  108.6   1.347   12.1  0.1898   20.2  0.3145 -164.9
 5.700  0.6772  107.6   1.324   10.9  0.1923   19.8  0.3191 -166.2
 5.800  0.6802  106.6   1.302    9.7  0.1949   19.5  0.3239 -167.5
 5.900  0.6835  105.7   1.280    8.4  0.1975   19.2  0.3288 -168.8
 6.000  0.6869  104.7   1.259    7.1  0.2001   18.9  0.3339 -170.0
 6.100  0.6876  103.8   1.238    6.0  0.2025   18.5  0.3383 -171.1
 6.200  0.6885  102.8   1.218    4.9  0.2049   18.2  0.3429 -172.1
 6.300  0.6895  101.9   1.199    3.7  0.2073   17.9  0.3476 -173.1
 6.400  0.6908  100.9   1.180    2.5  0.2098   17.5  0.3523 -174.1
 6.500  0.6922  100.0   1.161    1.3  0.2122   17.2  0.3572 -175.0
 6.600  0.6921   99.0   1.145    0.3  0.2150   16.9  0.3596 -175.7
 6.800  0.6925   96.9   1.114   -1.9  0.2208   16.2  0.3644 -177.0
 7.000  0.6938   94.9   1.084   -4.1  0.2265   15.6  0.3695 -178.3
 7.200  0.6964   92.5   1.059   -6.2  0.2332   14.6  0.3722  179.8
 7.400  0.7003   90.1   1.035   -8.4  0.2399   13.7  0.3752  178.0
 7.600  0.7053   87.5   1.012  -10.8  0.2467   12.5  0.3788  175.7
 7.800  0.7117   84.7   0.990  -13.2  0.2536   11.2  0.3832  173.0
 8.000  0.7197   82.0   0.969  -15.8  0.2606    9.9  0.3884  170.4
 8.200  0.7255   79.0   0.943  -18.1  0.2663    8.1  0.3922  167.1
 8.400  0.7332   76.1   0.918  -20.6  0.2722    6.4  0.3973  164.0
 8.600  0.7425   73.3   0.893  -23.0  0.2767    4.7  0.4018  160.1
 8.800  0.7532   70.7   0.867  -25.2  0.2798    2.8  0.4067  155.7
 9.000  0.7655   68.1   0.843  -27.5  0.2832    1.0  0.4140  151.4
 9.200  0.7798   66.0   0.815  -29.4  0.2841   -0.5  0.4254  145.9
 9.400  0.7952   63.9   0.787  -31.4  0.2853   -2.0  0.4405  140.8
 9.600  0.8086   62.1   0.760  -33.1  0.2860   -3.2  0.4580  136.1
 9.800  0.8199   60.4   0.733  -34.7  0.2864   -4.2  0.4773  131.9
10.000  0.8319   58.8   0.707  -36.4  0.2868   -5.2  0.4991  128.0
!
!  f       NFmin   Gammaopt  rn/50
! GHz       dB    MAG  ANG    -
 0.450      0.75  0.40   17   0.18
 0.900      0.77  0.41   35   0.18
 1.900      1.06  0.21   94   0.13
 3.500      1.30  0.35 -157   0.09
!
! (c) 2016  Infineon Technologies AG, Munich
