! Infineon Technologies  Discrete & RF Semiconductors
! BFP460
! VCE =  4.0 V,  IC =  45 mA
! Common Emitter S-Parameters:                            Jan 2016
# GHz  S  MA  R  50
!  f         S11            S21            S12            S22
! GHz     MAG   ANG      MAG   ANG      MAG   ANG      MAG   ANG
 0.030  0.4047  -22.9  62.595  168.6  0.0044   85.8  0.9120  -10.8
 0.035  0.4040  -26.8  62.084  166.7  0.0050   83.1  0.9077  -12.8
 0.040  0.4052  -30.6  61.641  164.8  0.0056   81.0  0.9046  -14.8
 0.045  0.4050  -34.0  60.936  163.0  0.0062   79.3  0.8976  -16.6
 0.050  0.4061  -37.3  60.295  161.1  0.0068   77.9  0.8916  -18.5
 0.055  0.4042  -41.1  59.709  159.6  0.0075   77.4  0.8840  -20.4
 0.060  0.4042  -45.0  59.167  158.0  0.0082   77.0  0.8773  -22.3
 0.065  0.4042  -48.7  58.592  156.3  0.0087   75.7  0.8681  -24.1
 0.070  0.4058  -52.3  58.071  154.5  0.0092   74.5  0.8598  -25.9
 0.075  0.4086  -55.2  57.330  153.1  0.0098   73.3  0.8495  -27.6
 0.080  0.4125  -58.0  56.624  151.7  0.0104   72.3  0.8399  -29.4
 0.085  0.4143  -61.3  55.821  150.2  0.0109   71.6  0.8288  -31.0
 0.090  0.4174  -64.5  55.059  148.6  0.0114   70.9  0.8184  -32.7
 0.095  0.4171  -67.0  54.177  147.3  0.0118   70.2  0.8076  -34.2
 0.100  0.4176  -69.4  53.326  145.9  0.0123   69.6  0.7973  -35.8
 0.105  0.4186  -72.1  52.612  144.6  0.0127   68.5  0.7857  -37.3
 0.110  0.4206  -74.8  51.926  143.3  0.0132   67.5  0.7747  -38.8
 0.115  0.4200  -77.4  51.112  142.0  0.0136   67.0  0.7633  -40.2
 0.120  0.4203  -80.0  50.324  140.7  0.0141   66.6  0.7523  -41.6
 0.125  0.4185  -82.3  49.549  139.6  0.0145   66.1  0.7408  -42.9
 0.130  0.4175  -84.7  48.793  138.4  0.0149   65.7  0.7298  -44.3
 0.135  0.4194  -87.0  48.049  137.3  0.0152   64.9  0.7189  -45.5
 0.140  0.4219  -89.3  47.325  136.1  0.0156   64.2  0.7084  -46.8
 0.145  0.4225  -91.4  46.510  135.0  0.0159   63.8  0.6974  -48.0
 0.150  0.4236  -93.4  45.712  133.9  0.0163   63.5  0.6868  -49.2
 0.155  0.4224  -95.1  45.007  133.1  0.0166   63.2  0.6763  -50.1
 0.160  0.4216  -96.9  44.309  132.4  0.0169   62.8  0.6660  -51.0
 0.165  0.4212  -98.6  43.620  131.6  0.0172   62.5  0.6559  -51.9
 0.170  0.4212 -100.3  42.940  130.7  0.0175   62.2  0.6460  -52.9
 0.175  0.4216 -102.1  42.269  129.9  0.0177   61.9  0.6362  -53.9
 0.180  0.4224 -103.8  41.607  129.0  0.0180   61.6  0.6267  -54.9
 0.185  0.4235 -105.5  40.956  128.1  0.0183   61.4  0.6174  -56.0
 0.190  0.4250 -107.2  40.315  127.2  0.0186   61.1  0.6082  -57.1
 0.195  0.4269 -108.9  39.686  126.2  0.0189   60.8  0.5993  -58.2
 0.200  0.4292 -110.6  39.068  125.2  0.0192   60.6  0.5907  -59.4
 0.220  0.4281 -115.7  36.832  122.8  0.0202   59.9  0.5585  -62.3
 0.240  0.4304 -120.7  34.671  120.0  0.0213   59.2  0.5279  -65.5
 0.260  0.4325 -125.1  32.746  117.6  0.0222   58.8  0.5006  -68.5
 0.280  0.4334 -129.0  31.017  115.6  0.0231   58.7  0.4759  -70.9
 0.300  0.4362 -132.8  29.330  113.4  0.0240   58.5  0.4522  -73.7
 0.320  0.4363 -135.8  27.928  111.8  0.0248   58.6  0.4324  -75.7
 0.340  0.4375 -138.8  26.550  110.1  0.0257   58.7  0.4133  -77.8
 0.360  0.4383 -141.6  25.310  108.6  0.0265   58.8  0.3961  -79.8
 0.380  0.4383 -144.1  24.199  107.3  0.0274   58.9  0.3808  -81.7
 0.400  0.4392 -146.6  23.103  105.8  0.0282   59.0  0.3659  -83.6
 0.420  0.4400 -148.6  22.185  104.7  0.0290   59.2  0.3533  -85.1
 0.440  0.4414 -150.7  21.275  103.6  0.0298   59.4  0.3410  -86.7
 0.450  0.4423 -151.7  20.823  103.0  0.0302   59.5  0.3350  -87.6
 0.460  0.4424 -152.6  20.446  102.6  0.0306   59.6  0.3298  -88.3
 0.480  0.4430 -154.3  19.695  101.6  0.0315   59.9  0.3197  -89.6
 0.500  0.4440 -156.0  18.950  100.6  0.0323   60.1  0.3097  -91.1
 0.520  0.4440 -157.5  18.356   99.9  0.0331   60.3  0.3018  -92.2
 0.540  0.4442 -158.9  17.766   99.1  0.0340   60.6  0.2941  -93.4
 0.560  0.4448 -160.4  17.179   98.3  0.0348   60.8  0.2865  -94.6
 0.580  0.4456 -161.8  16.597   97.4  0.0357   61.0  0.2790  -95.8
 0.600  0.4467 -163.3  16.018   96.4  0.0365   61.2  0.2717  -97.2
 0.620  0.4468 -164.4  15.582   95.8  0.0374   61.4  0.2661  -98.2
 0.640  0.4471 -165.6  15.147   95.2  0.0382   61.5  0.2606  -99.2
 0.660  0.4475 -166.7  14.714   94.5  0.0391   61.7  0.2552 -100.3
 0.680  0.4482 -167.9  14.284   93.8  0.0399   61.9  0.2498 -101.4
 0.700  0.4490 -169.0  13.856   93.0  0.0408   62.0  0.2446 -102.6
 0.720  0.4492 -170.0  13.523   92.5  0.0417   62.1  0.2406 -103.5
 0.740  0.4496 -170.9  13.191   91.9  0.0426   62.2  0.2366 -104.3
 0.760  0.4501 -171.9  12.860   91.3  0.0434   62.3  0.2327 -105.3
 0.780  0.4507 -172.8  12.531   90.7  0.0443   62.4  0.2288 -106.2
 0.800  0.4514 -173.8  12.204   90.0  0.0452   62.5  0.2250 -107.2
 0.820  0.4517 -174.6  11.944   89.5  0.0461   62.6  0.2220 -108.0
 0.840  0.4521 -175.4  11.684   89.1  0.0470   62.7  0.2191 -108.8
 0.860  0.4526 -176.3  11.425   88.6  0.0478   62.7  0.2162 -109.6
 0.880  0.4532 -177.1  11.167   88.0  0.0487   62.8  0.2133 -110.4
 0.900  0.4539 -177.9  10.910   87.5  0.0496   62.9  0.2105 -111.3
 0.920  0.4542 -178.6  10.699   87.1  0.0505   62.9  0.2082 -112.0
 0.940  0.4546 -179.4  10.488   86.6  0.0514   63.0  0.2060 -112.8
 0.960  0.4550  179.9  10.278   86.1  0.0523   63.0  0.2037 -113.5
 0.980  0.4555  179.1  10.069   85.6  0.0532   63.1  0.2015 -114.3
 1.000  0.4561  178.4   9.860   85.1  0.0541   63.1  0.1994 -115.1
 1.020  0.4563  177.7   9.685   84.7  0.0550   63.1  0.1977 -115.7
 1.040  0.4566  177.0   9.511   84.3  0.0559   63.1  0.1960 -116.4
 1.060  0.4570  176.4   9.337   83.8  0.0568   63.1  0.1944 -117.0
 1.080  0.4574  175.7   9.164   83.4  0.0577   63.1  0.1928 -117.7
 1.100  0.4579  175.0   8.991   82.9  0.0586   63.1  0.1912 -118.4
 1.120  0.4583  174.4   8.844   82.5  0.0595   63.1  0.1899 -119.0
 1.140  0.4588  173.7   8.698   82.1  0.0604   63.1  0.1885 -119.7
 1.160  0.4593  173.1   8.552   81.6  0.0613   63.0  0.1872 -120.3
 1.180  0.4599  172.4   8.407   81.2  0.0622   63.0  0.1860 -120.9
 1.200  0.4605  171.8   8.262   80.7  0.0631   63.0  0.1847 -121.6
 1.220  0.4610  171.3   8.137   80.3  0.0640   62.9  0.1838 -122.1
 1.240  0.4615  170.7   8.012   80.0  0.0649   62.9  0.1829 -122.7
 1.260  0.4620  170.2   7.888   79.6  0.0659   62.8  0.1820 -123.2
 1.280  0.4626  169.6   7.764   79.2  0.0668   62.8  0.1811 -123.7
 1.300  0.4632  169.1   7.640   78.8  0.0677   62.7  0.1802 -124.3
 1.320  0.4635  168.5   7.533   78.4  0.0686   62.6  0.1793 -124.8
 1.340  0.4639  168.0   7.427   78.1  0.0695   62.6  0.1785 -125.4
 1.360  0.4643  167.4   7.320   77.7  0.0704   62.5  0.1776 -126.0
 1.380  0.4647  166.9   7.215   77.3  0.0713   62.5  0.1768 -126.5
 1.400  0.4652  166.3   7.109   76.9  0.0722   62.4  0.1760 -127.1
 1.420  0.4658  165.8   7.016   76.5  0.0731   62.3  0.1755 -127.6
 1.440  0.4664  165.2   6.923   76.2  0.0740   62.2  0.1750 -128.1
 1.460  0.4671  164.7   6.830   75.8  0.0750   62.2  0.1745 -128.5
 1.480  0.4678  164.1   6.738   75.4  0.0759   62.1  0.1740 -129.0
 1.500  0.4685  163.6   6.646   75.0  0.0768   62.0  0.1735 -129.5
 1.520  0.4689  163.1   6.564   74.7  0.0777   61.9  0.1731 -130.0
 1.540  0.4694  162.6   6.482   74.3  0.0786   61.8  0.1726 -130.5
 1.560  0.4700  162.1   6.401   74.0  0.0794   61.7  0.1722 -130.9
 1.580  0.4705  161.6   6.319   73.7  0.0803   61.6  0.1718 -131.4
 1.600  0.4711  161.1   6.238   73.3  0.0812   61.5  0.1714 -131.9
 1.620  0.4714  160.6   6.167   73.0  0.0821   61.4  0.1711 -132.3
 1.640  0.4718  160.2   6.095   72.6  0.0830   61.3  0.1708 -132.8
 1.660  0.4721  159.7   6.024   72.2  0.0839   61.1  0.1705 -133.2
 1.680  0.4726  159.3   5.954   71.9  0.0848   61.0  0.1702 -133.7
 1.700  0.4730  158.8   5.883   71.5  0.0857   60.9  0.1699 -134.1
 1.720  0.4736  158.3   5.818   71.2  0.0866   60.8  0.1697 -134.6
 1.740  0.4743  157.9   5.753   70.8  0.0875   60.7  0.1695 -135.0
 1.760  0.4749  157.4   5.688   70.5  0.0885   60.5  0.1694 -135.5
 1.780  0.4757  157.0   5.623   70.2  0.0894   60.4  0.1692 -135.9
 1.800  0.4764  156.5   5.559   69.8  0.0903   60.3  0.1691 -136.4
 1.820  0.4769  156.0   5.502   69.5  0.0912   60.2  0.1690 -136.8
 1.840  0.4775  155.5   5.446   69.1  0.0921   60.1  0.1688 -137.3
 1.860  0.4781  155.1   5.389   68.8  0.0930   59.9  0.1687 -137.7
 1.880  0.4787  154.6   5.333   68.5  0.0939   59.8  0.1686 -138.2
 1.900  0.4794  154.1   5.277   68.1  0.0948   59.7  0.1685 -138.6
 1.920  0.4800  153.7   5.225   67.8  0.0957   59.6  0.1685 -139.0
 1.940  0.4806  153.2   5.173   67.4  0.0966   59.4  0.1685 -139.5
 1.960  0.4812  152.8   5.122   67.1  0.0974   59.3  0.1685 -139.9
 1.980  0.4819  152.3   5.070   66.8  0.0983   59.1  0.1685 -140.4
 2.000  0.4826  151.9   5.019   66.4  0.0992   59.0  0.1685 -140.8
 2.020  0.4833  151.5   4.973   66.1  0.1001   58.8  0.1686 -141.3
 2.040  0.4840  151.0   4.927   65.8  0.1010   58.7  0.1687 -141.7
 2.060  0.4848  150.6   4.881   65.4  0.1018   58.5  0.1688 -142.2
 2.080  0.4856  150.2   4.835   65.1  0.1027   58.4  0.1689 -142.6
 2.100  0.4864  149.8   4.790   64.8  0.1036   58.2  0.1690 -143.1
 2.120  0.4872  149.4   4.745   64.4  0.1045   58.1  0.1691 -143.5
 2.140  0.4881  148.9   4.699   64.1  0.1054   57.9  0.1692 -144.0
 2.160  0.4890  148.5   4.654   63.7  0.1062   57.8  0.1694 -144.4
 2.180  0.4899  148.1   4.610   63.4  0.1071   57.6  0.1695 -144.9
 2.200  0.4908  147.7   4.565   63.0  0.1080   57.5  0.1697 -145.3
 2.220  0.4916  147.3   4.527   62.7  0.1089   57.3  0.1699 -145.8
 2.240  0.4924  146.9   4.489   62.4  0.1097   57.2  0.1702 -146.3
 2.260  0.4932  146.5   4.451   62.1  0.1106   57.0  0.1704 -146.7
 2.280  0.4941  146.1   4.413   61.8  0.1114   56.9  0.1707 -147.2
 2.300  0.4949  145.7   4.376   61.5  0.1123   56.7  0.1710 -147.7
 2.320  0.4959  145.3   4.338   61.1  0.1132   56.6  0.1713 -148.1
 2.340  0.4968  144.9   4.301   60.8  0.1140   56.4  0.1716 -148.6
 2.360  0.4977  144.5   4.264   60.5  0.1149   56.3  0.1719 -149.1
 2.380  0.4987  144.1   4.227   60.1  0.1157   56.1  0.1723 -149.5
 2.400  0.4997  143.7   4.190   59.8  0.1166   56.0  0.1726 -150.0
 2.420  0.5005  143.3   4.157   59.5  0.1174   55.8  0.1730 -150.5
 2.440  0.5014  142.9   4.124   59.2  0.1183   55.6  0.1735 -150.9
 2.460  0.5023  142.5   4.091   58.9  0.1191   55.5  0.1740 -151.4
 2.480  0.5032  142.1   4.059   58.6  0.1200   55.3  0.1744 -151.9
 2.500  0.5041  141.7   4.026   58.3  0.1208   55.1  0.1749 -152.3
 2.520  0.5051  141.3   3.993   57.9  0.1217   55.0  0.1754 -152.8
 2.540  0.5060  141.0   3.961   57.6  0.1225   54.8  0.1759 -153.2
 2.560  0.5070  140.6   3.929   57.3  0.1234   54.6  0.1764 -153.7
 2.580  0.5081  140.2   3.897   56.9  0.1242   54.5  0.1770 -154.2
 2.600  0.5091  139.8   3.865   56.6  0.1251   54.3  0.1775 -154.6
 2.620  0.5100  139.4   3.837   56.3  0.1259   54.1  0.1781 -155.1
 2.640  0.5108  139.1   3.809   56.0  0.1267   53.9  0.1787 -155.5
 2.660  0.5117  138.7   3.781   55.7  0.1275   53.8  0.1794 -156.0
 2.680  0.5127  138.4   3.754   55.5  0.1284   53.6  0.1800 -156.4
 2.700  0.5136  138.0   3.726   55.2  0.1292   53.4  0.1807 -156.8
 2.720  0.5146  137.7   3.699   54.9  0.1300   53.3  0.1813 -157.3
 2.740  0.5155  137.3   3.671   54.5  0.1308   53.1  0.1820 -157.7
 2.760  0.5165  137.0   3.644   54.2  0.1317   52.9  0.1827 -158.1
 2.780  0.5176  136.6   3.617   53.9  0.1325   52.8  0.1834 -158.6
 2.800  0.5186  136.3   3.590   53.6  0.1333   52.6  0.1841 -159.0
 2.820  0.5195  136.0   3.565   53.3  0.1341   52.4  0.1848 -159.4
 2.840  0.5204  135.6   3.540   53.0  0.1349   52.2  0.1855 -159.8
 2.860  0.5213  135.3   3.515   52.7  0.1357   52.1  0.1862 -160.3
 2.880  0.5223  134.9   3.490   52.5  0.1365   51.9  0.1870 -160.7
 2.900  0.5232  134.6   3.466   52.2  0.1373   51.7  0.1877 -161.1
 2.920  0.5242  134.2   3.441   51.9  0.1381   51.6  0.1885 -161.5
 2.940  0.5252  133.9   3.417   51.5  0.1389   51.4  0.1892 -161.9
 2.960  0.5262  133.6   3.392   51.2  0.1397   51.2  0.1900 -162.3
 2.980  0.5272  133.2   3.368   50.9  0.1405   51.1  0.1908 -162.7
 3.000  0.5283  132.9   3.344   50.6  0.1413   50.9  0.1916 -163.1
 3.100  0.5325  131.2   3.242   49.3  0.1450   49.9  0.1954 -165.1
 3.200  0.5372  129.6   3.142   48.0  0.1488   49.0  0.1995 -166.9
 3.300  0.5424  127.9   3.044   46.5  0.1526   48.1  0.2038 -168.7
 3.400  0.5479  126.4   2.948   45.0  0.1564   47.2  0.2083 -170.5
 3.500  0.5539  124.8   2.854   43.3  0.1603   46.4  0.2129 -172.1
 3.600  0.5593  123.3   2.776   42.1  0.1636   45.4  0.2174 -174.1
 3.700  0.5651  121.9   2.700   40.8  0.1670   44.5  0.2222 -176.0
 3.800  0.5713  120.4   2.625   39.5  0.1704   43.7  0.2273 -177.9
 3.900  0.5778  119.1   2.552   38.0  0.1739   42.8  0.2325 -179.6
 4.000  0.5846  117.7   2.480   36.5  0.1774   42.0  0.2380  178.7
 4.100  0.5900  116.5   2.419   35.3  0.1804   41.2  0.2438  176.9
 4.200  0.5958  115.3   2.358   34.1  0.1835   40.4  0.2498  175.2
 4.300  0.6017  114.1   2.299   32.8  0.1865   39.6  0.2560  173.5
 4.400  0.6079  112.9   2.242   31.4  0.1897   38.8  0.2625  172.0
 4.500  0.6144  111.8   2.185   30.0  0.1928   38.1  0.2691  170.5
 4.600  0.6185  110.7   2.137   28.9  0.1958   37.3  0.2739  169.3
 4.700  0.6229  109.6   2.090   27.8  0.1987   36.6  0.2788  168.1
 4.800  0.6275  108.5   2.043   26.6  0.2018   35.9  0.2838  166.9
 4.900  0.6323  107.4   1.998   25.4  0.2048   35.2  0.2890  165.8
 5.000  0.6373  106.3   1.953   24.1  0.2079   34.5  0.2942  164.7
 5.100  0.6402  105.4   1.916   23.1  0.2111   33.7  0.2974  163.8
 5.200  0.6433  104.4   1.880   22.1  0.2143   33.0  0.3006  162.9
 5.300  0.6466  103.5   1.845   21.0  0.2176   32.2  0.3039  162.0
 5.400  0.6500  102.6   1.810   19.9  0.2209   31.5  0.3073  161.1
 5.500  0.6536  101.7   1.776   18.7  0.2242   30.8  0.3108  160.3
 5.600  0.6557  100.9   1.747   17.7  0.2271   30.0  0.3145  159.5
 5.700  0.6578  100.1   1.718   16.6  0.2301   29.1  0.3182  158.6
 5.800  0.6601   99.3   1.690   15.5  0.2331   28.3  0.3220  157.8
 5.900  0.6626   98.6   1.662   14.4  0.2362   27.6  0.3259  157.1
 6.000  0.6651   97.8   1.635   13.2  0.2393   26.8  0.3298  156.3
 6.100  0.6657   97.0   1.610   12.2  0.2419   26.0  0.3323  155.8
 6.200  0.6664   96.2   1.585   11.2  0.2445   25.3  0.3349  155.3
 6.300  0.6672   95.5   1.561   10.2  0.2472   24.5  0.3375  154.8
 6.400  0.6681   94.7   1.537    9.1  0.2499   23.8  0.3401  154.3
 6.500  0.6692   93.9   1.514    8.0  0.2527   23.1  0.3428  153.8
 6.600  0.6686   93.0   1.495    7.0  0.2556   22.4  0.3425  153.4
 6.800  0.6680   91.1   1.457    5.0  0.2616   21.0  0.3419  152.7
 7.000  0.6680   89.3   1.422    2.9  0.2678   19.6  0.3414  151.9
 7.200  0.6697   87.1   1.392    0.8  0.2743   17.9  0.3411  150.5
 7.400  0.6724   85.0   1.364   -1.4  0.2810   16.4  0.3410  149.0
 7.600  0.6763   82.6   1.336   -3.7  0.2873   14.6  0.3427  147.2
 7.800  0.6816   80.1   1.308   -6.1  0.2933   12.7  0.3465  144.9
 8.000  0.6882   77.7   1.283   -8.7  0.2997   10.9  0.3508  142.7
 8.200  0.6936   75.1   1.250  -11.0  0.3038    8.7  0.3553  139.8
 8.400  0.7005   72.6   1.219  -13.5  0.3083    6.5  0.3606  137.1
 8.600  0.7097   70.1   1.186  -15.9  0.3111    4.5  0.3674  133.6
 8.800  0.7211   67.8   1.153  -18.2  0.3122    2.4  0.3765  129.5
 9.000  0.7337   65.6   1.121  -20.6  0.3137    0.3  0.3873  125.7
 9.200  0.7502   63.8   1.085  -22.4  0.3126   -1.3  0.4043  121.1
 9.400  0.7674   62.0   1.049  -24.4  0.3117   -2.9  0.4236  116.9
 9.600  0.7826   60.4   1.015  -26.1  0.3108   -4.2  0.4436  113.3
 9.800  0.7958   58.9   0.980  -27.6  0.3095   -5.2  0.4636  110.1
10.000  0.8095   57.5   0.947  -29.2  0.3084   -6.2  0.4849  107.2
!
!  f       NFmin   Gammaopt  rn/50
! GHz       dB    MAG  ANG    -
 0.450      1.77  0.29 -170   0.13
 0.900      1.79  0.27 -162   0.14
 1.900      1.89  0.36 -141   0.15
 3.500      1.72  0.59 -117   0.24
!
! (c) 2016  Infineon Technologies AG, Munich
