! Infineon Technologies  Discrete & RF Semiconductors
! BFP460
! VCE =  4.0 V,  IC =  8.0 mA
! Common Emitter S-Parameters:                            Jan 2016
# GHz  S  MA  R  50
!  f         S11            S21            S12            S22
! GHz     MAG   ANG      MAG   ANG      MAG   ANG      MAG   ANG
 0.030  0.8135   -7.4  23.937  174.6  0.0056   82.6  0.9770   -5.2
 0.035  0.8121   -8.6  23.889  173.7  0.0065   82.7  0.9757   -5.9
 0.040  0.8110   -9.8  23.848  172.7  0.0074   82.7  0.9745   -6.7
 0.045  0.8092  -11.0  23.737  171.8  0.0083   82.8  0.9729   -7.4
 0.050  0.8077  -12.3  23.633  170.8  0.0093   82.9  0.9715   -8.1
 0.055  0.8063  -13.7  23.593  170.2  0.0102   81.8  0.9699   -8.9
 0.060  0.8055  -15.2  23.556  169.5  0.0111   80.9  0.9685   -9.7
 0.065  0.8030  -16.4  23.578  168.5  0.0119   79.9  0.9662  -10.5
 0.070  0.8008  -17.6  23.606  167.6  0.0127   79.1  0.9642  -11.4
 0.075  0.8011  -18.8  23.515  167.1  0.0136   78.9  0.9619  -12.2
 0.080  0.8017  -19.9  23.426  166.5  0.0145   78.8  0.9597  -13.0
 0.085  0.7996  -21.1  23.360  165.6  0.0153   78.0  0.9565  -13.7
 0.090  0.7978  -22.4  23.300  164.7  0.0162   77.2  0.9535  -14.5
 0.095  0.7968  -23.4  23.158  164.0  0.0169   76.9  0.9507  -15.3
 0.100  0.7961  -24.5  23.020  163.3  0.0177   76.6  0.9480  -16.1
 0.105  0.7941  -25.7  22.965  162.6  0.0186   75.9  0.9446  -16.8
 0.110  0.7925  -27.0  22.913  161.8  0.0195   75.3  0.9414  -17.6
 0.115  0.7895  -28.2  22.841  161.0  0.0203   74.8  0.9379  -18.4
 0.120  0.7868  -29.4  22.774  160.2  0.0211   74.4  0.9346  -19.2
 0.125  0.7837  -30.5  22.671  159.5  0.0218   73.8  0.9307  -19.9
 0.130  0.7809  -31.6  22.572  158.8  0.0226   73.2  0.9270  -20.6
 0.135  0.7785  -32.8  22.493  158.0  0.0234   72.6  0.9233  -21.3
 0.140  0.7765  -34.0  22.418  157.2  0.0242   72.1  0.9197  -22.1
 0.145  0.7730  -35.1  22.284  156.4  0.0250   71.5  0.9157  -22.8
 0.150  0.7699  -36.3  22.154  155.6  0.0258   71.0  0.9118  -23.6
 0.155  0.7661  -37.4  22.035  155.0  0.0265   70.4  0.9068  -24.2
 0.160  0.7625  -38.4  21.919  154.3  0.0272   69.9  0.9020  -24.9
 0.165  0.7592  -39.5  21.806  153.6  0.0278   69.3  0.8972  -25.6
 0.170  0.7561  -40.6  21.696  153.0  0.0285   68.8  0.8926  -26.2
 0.175  0.7533  -41.7  21.588  152.3  0.0292   68.4  0.8881  -26.9
 0.180  0.7508  -42.8  21.484  151.6  0.0299   67.9  0.8838  -27.6
 0.185  0.7486  -43.9  21.383  150.9  0.0306   67.5  0.8795  -28.3
 0.190  0.7466  -45.0  21.285  150.2  0.0313   67.1  0.8754  -29.0
 0.195  0.7450  -46.1  21.191  149.5  0.0320   66.7  0.8714  -29.7
 0.200  0.7436  -47.2  21.099  148.8  0.0327   66.3  0.8676  -30.4
 0.220  0.7300  -51.2  20.587  146.4  0.0351   64.4  0.8475  -32.8
 0.240  0.7200  -55.3  20.114  143.8  0.0376   62.7  0.8290  -35.3
 0.260  0.7091  -59.2  19.635  141.4  0.0398   61.2  0.8100  -37.7
 0.280  0.6968  -62.9  19.140  139.2  0.0418   59.7  0.7901  -39.9
 0.300  0.6876  -66.8  18.677  136.8  0.0439   58.4  0.7715  -42.2
 0.320  0.6748  -70.2  18.182  134.8  0.0456   57.1  0.7520  -44.1
 0.340  0.6644  -73.6  17.710  132.8  0.0473   55.9  0.7334  -46.1
 0.360  0.6542  -76.9  17.250  130.8  0.0489   54.7  0.7152  -47.9
 0.380  0.6437  -80.0  16.796  129.1  0.0504   53.6  0.6974  -49.7
 0.400  0.6352  -83.2  16.359  127.2  0.0519   52.6  0.6802  -51.5
 0.420  0.6248  -86.1  15.931  125.6  0.0532   51.7  0.6636  -53.0
 0.440  0.6161  -89.1  15.516  124.0  0.0545   50.8  0.6474  -54.6
 0.450  0.6124  -90.6  15.314  123.1  0.0551   50.4  0.6395  -55.4
 0.460  0.6078  -91.9  15.117  122.4  0.0557   50.0  0.6318  -56.1
 0.480  0.5996  -94.5  14.731  121.0  0.0568   49.3  0.6166  -57.4
 0.500  0.5926  -97.2  14.354  119.5  0.0579   48.6  0.6018  -58.9
 0.520  0.5843  -99.5  14.008  118.3  0.0588   48.0  0.5885  -60.0
 0.540  0.5769 -101.8  13.668  117.1  0.0597   47.5  0.5753  -61.1
 0.560  0.5705 -104.2  13.334  115.9  0.0606   46.9  0.5625  -62.3
 0.580  0.5651 -106.6  13.007  114.5  0.0616   46.4  0.5498  -63.6
 0.600  0.5607 -109.1  12.688  113.1  0.0625   45.9  0.5375  -64.9
 0.620  0.5544 -111.1  12.404  112.1  0.0633   45.5  0.5265  -65.8
 0.640  0.5487 -113.1  12.123  111.1  0.0641   45.1  0.5157  -66.8
 0.660  0.5438 -115.1  11.846  110.1  0.0648   44.7  0.5051  -67.8
 0.680  0.5395 -117.2  11.574  109.0  0.0656   44.4  0.4946  -68.9
 0.700  0.5360 -119.3  11.306  107.8  0.0664   44.0  0.4843  -70.0
 0.720  0.5315 -121.0  11.072  107.0  0.0671   43.7  0.4755  -70.8
 0.740  0.5275 -122.7  10.841  106.1  0.0678   43.5  0.4668  -71.6
 0.760  0.5239 -124.5  10.612  105.2  0.0684   43.2  0.4582  -72.5
 0.780  0.5209 -126.3  10.386  104.2  0.0691   42.9  0.4497  -73.4
 0.800  0.5184 -128.1  10.163  103.2  0.0698   42.7  0.4413  -74.3
 0.820  0.5150 -129.7   9.973  102.5  0.0704   42.6  0.4340  -75.0
 0.840  0.5120 -131.3   9.784  101.7  0.0710   42.4  0.4268  -75.7
 0.860  0.5095 -132.9   9.597  101.0  0.0716   42.3  0.4197  -76.5
 0.880  0.5073 -134.5   9.412  100.1  0.0722   42.1  0.4127  -77.3
 0.900  0.5055 -136.1   9.229   99.3  0.0728   42.0  0.4057  -78.1
 0.920  0.5028 -137.4   9.068   98.6  0.0734   41.9  0.3997  -78.7
 0.940  0.5004 -138.8   8.907   98.0  0.0740   41.8  0.3938  -79.4
 0.960  0.4983 -140.1   8.749   97.3  0.0746   41.7  0.3879  -80.0
 0.980  0.4965 -141.5   8.591   96.6  0.0752   41.6  0.3821  -80.7
 1.000  0.4949 -142.9   8.435   95.8  0.0758   41.5  0.3763  -81.4
 1.020  0.4929 -144.1   8.298   95.2  0.0764   41.4  0.3714  -82.0
 1.040  0.4912 -145.4   8.161   94.6  0.0769   41.4  0.3665  -82.6
 1.060  0.4897 -146.6   8.026   93.9  0.0775   41.3  0.3617  -83.2
 1.080  0.4884 -147.8   7.891   93.3  0.0780   41.3  0.3569  -83.8
 1.100  0.4874 -149.1   7.758   92.6  0.0786   41.2  0.3522  -84.5
 1.120  0.4860 -150.2   7.640   92.0  0.0792   41.2  0.3480  -85.0
 1.140  0.4847 -151.4   7.524   91.5  0.0798   41.1  0.3439  -85.5
 1.160  0.4837 -152.5   7.408   90.9  0.0803   41.1  0.3397  -86.1
 1.180  0.4829 -153.7   7.292   90.2  0.0809   41.0  0.3357  -86.6
 1.200  0.4822 -154.8   7.178   89.6  0.0815   41.0  0.3316  -87.2
 1.220  0.4813 -155.8   7.077   89.1  0.0821   41.0  0.3281  -87.7
 1.240  0.4806 -156.8   6.976   88.6  0.0826   41.0  0.3246  -88.2
 1.260  0.4801 -157.9   6.876   88.0  0.0832   40.9  0.3212  -88.8
 1.280  0.4797 -158.9   6.776   87.5  0.0837   40.9  0.3178  -89.3
 1.300  0.4794 -159.9   6.677   86.9  0.0843   40.9  0.3144  -89.9
 1.320  0.4787 -160.9   6.589   86.4  0.0849   40.9  0.3113  -90.4
 1.340  0.4780 -161.8   6.501   85.9  0.0855   40.9  0.3083  -90.8
 1.360  0.4776 -162.8   6.413   85.4  0.0860   40.9  0.3052  -91.3
 1.380  0.4772 -163.7   6.326   84.8  0.0866   40.9  0.3022  -91.8
 1.400  0.4770 -164.7   6.240   84.3  0.0872   40.9  0.2992  -92.3
 1.420  0.4766 -165.6   6.162   83.8  0.0878   40.9  0.2967  -92.7
 1.440  0.4763 -166.5   6.085   83.3  0.0884   40.9  0.2942  -93.2
 1.460  0.4761 -167.5   6.009   82.8  0.0889   40.8  0.2918  -93.7
 1.480  0.4760 -168.4   5.933   82.3  0.0895   40.8  0.2893  -94.1
 1.500  0.4761 -169.3   5.857   81.8  0.0901   40.8  0.2869  -94.6
 1.520  0.4758 -170.1   5.787   81.4  0.0907   40.8  0.2846  -95.0
 1.540  0.4756 -170.9   5.718   80.9  0.0912   40.8  0.2822  -95.5
 1.560  0.4755 -171.8   5.649   80.5  0.0918   40.8  0.2799  -96.0
 1.580  0.4755 -172.6   5.581   80.0  0.0923   40.8  0.2777  -96.4
 1.600  0.4756 -173.4   5.513   79.5  0.0929   40.8  0.2754  -96.9
 1.620  0.4755 -174.2   5.453   79.1  0.0935   40.8  0.2735  -97.3
 1.640  0.4755 -175.0   5.392   78.6  0.0941   40.8  0.2716  -97.8
 1.660  0.4755 -175.7   5.333   78.2  0.0947   40.8  0.2697  -98.2
 1.680  0.4757 -176.5   5.273   77.7  0.0953   40.8  0.2678  -98.6
 1.700  0.4759 -177.3   5.214   77.2  0.0959   40.8  0.2659  -99.1
 1.720  0.4759 -178.0   5.159   76.8  0.0965   40.8  0.2642  -99.5
 1.740  0.4761 -178.7   5.104   76.4  0.0971   40.8  0.2626 -100.0
 1.760  0.4763 -179.5   5.049   76.0  0.0977   40.7  0.2609 -100.4
 1.780  0.4765  179.8   4.994   75.5  0.0983   40.7  0.2593 -100.8
 1.800  0.4769  179.1   4.940   75.1  0.0989   40.7  0.2577 -101.3
 1.820  0.4770  178.4   4.892   74.7  0.0995   40.7  0.2561 -101.7
 1.840  0.4772  177.7   4.844   74.2  0.1001   40.7  0.2545 -102.2
 1.860  0.4775  176.9   4.796   73.8  0.1007   40.7  0.2530 -102.6
 1.880  0.4778  176.2   4.748   73.4  0.1013   40.7  0.2514 -103.0
 1.900  0.4782  175.5   4.701   72.9  0.1019   40.7  0.2499 -103.5
 1.920  0.4785  174.8   4.656   72.5  0.1025   40.7  0.2486 -103.9
 1.940  0.4789  174.1   4.611   72.1  0.1031   40.7  0.2473 -104.4
 1.960  0.4793  173.4   4.566   71.7  0.1038   40.6  0.2460 -104.8
 1.980  0.4798  172.7   4.522   71.2  0.1044   40.6  0.2447 -105.3
 2.000  0.4804  172.0   4.478   70.8  0.1050   40.6  0.2434 -105.7
 2.020  0.4808  171.4   4.438   70.4  0.1056   40.6  0.2422 -106.1
 2.040  0.4812  170.7   4.398   70.1  0.1062   40.5  0.2411 -106.6
 2.060  0.4817  170.1   4.359   69.7  0.1068   40.5  0.2399 -107.0
 2.080  0.4823  169.5   4.320   69.3  0.1074   40.5  0.2388 -107.4
 2.100  0.4829  168.8   4.280   68.9  0.1080   40.4  0.2377 -107.9
 2.120  0.4836  168.2   4.241   68.5  0.1087   40.4  0.2366 -108.3
 2.140  0.4843  167.6   4.203   68.1  0.1093   40.4  0.2355 -108.8
 2.160  0.4851  166.9   4.164   67.7  0.1099   40.4  0.2344 -109.3
 2.180  0.4860  166.3   4.126   67.2  0.1105   40.3  0.2333 -109.7
 2.200  0.4869  165.7   4.088   66.8  0.1111   40.3  0.2323 -110.2
 2.220  0.4874  165.1   4.054   66.4  0.1117   40.2  0.2313 -110.7
 2.240  0.4880  164.5   4.021   66.1  0.1123   40.2  0.2304 -111.1
 2.260  0.4886  163.9   3.988   65.7  0.1129   40.1  0.2295 -111.6
 2.280  0.4893  163.4   3.955   65.3  0.1135   40.1  0.2286 -112.1
 2.300  0.4900  162.8   3.922   64.9  0.1141   40.0  0.2277 -112.6
 2.320  0.4907  162.2   3.889   64.5  0.1148   40.0  0.2268 -113.0
 2.340  0.4916  161.6   3.856   64.1  0.1154   39.9  0.2260 -113.5
 2.360  0.4924  161.0   3.824   63.7  0.1160   39.9  0.2251 -114.0
 2.380  0.4933  160.5   3.792   63.3  0.1166   39.8  0.2243 -114.5
 2.400  0.4943  159.9   3.760   62.9  0.1172   39.8  0.2235 -115.0
 2.420  0.4950  159.3   3.731   62.6  0.1178   39.7  0.2228 -115.5
 2.440  0.4958  158.8   3.702   62.2  0.1184   39.7  0.2222 -116.0
 2.460  0.4966  158.2   3.674   61.8  0.1191   39.6  0.2215 -116.5
 2.480  0.4975  157.7   3.645   61.5  0.1197   39.6  0.2209 -117.0
 2.500  0.4984  157.1   3.617   61.1  0.1203   39.5  0.2203 -117.6
 2.520  0.4993  156.6   3.589   60.7  0.1209   39.4  0.2197 -118.1
 2.540  0.5003  156.0   3.561   60.4  0.1215   39.4  0.2191 -118.6
 2.560  0.5014  155.5   3.533   60.0  0.1222   39.3  0.2186 -119.1
 2.580  0.5025  154.9   3.506   59.6  0.1228   39.3  0.2180 -119.7
 2.600  0.5036  154.4   3.478   59.2  0.1234   39.2  0.2175 -120.2
 2.620  0.5042  153.9   3.453   58.9  0.1240   39.1  0.2171 -120.7
 2.640  0.5049  153.4   3.428   58.5  0.1246   39.1  0.2167 -121.2
 2.660  0.5056  152.9   3.403   58.2  0.1252   39.0  0.2163 -121.7
 2.680  0.5063  152.4   3.379   57.8  0.1258   39.0  0.2160 -122.3
 2.700  0.5071  151.9   3.354   57.5  0.1264   38.9  0.2156 -122.8
 2.720  0.5079  151.4   3.330   57.1  0.1270   38.8  0.2153 -123.3
 2.740  0.5087  151.0   3.306   56.7  0.1276   38.8  0.2150 -123.8
 2.760  0.5096  150.5   3.282   56.4  0.1282   38.7  0.2147 -124.3
 2.780  0.5105  150.0   3.258   56.0  0.1288   38.7  0.2144 -124.9
 2.800  0.5115  149.5   3.234   55.6  0.1294   38.6  0.2142 -125.4
 2.820  0.5124  149.0   3.212   55.3  0.1300   38.5  0.2140 -125.9
 2.840  0.5133  148.5   3.190   54.9  0.1306   38.4  0.2138 -126.4
 2.860  0.5143  148.1   3.168   54.6  0.1312   38.4  0.2136 -126.9
 2.880  0.5153  147.6   3.146   54.3  0.1318   38.3  0.2135 -127.4
 2.900  0.5163  147.1   3.125   53.9  0.1324   38.2  0.2133 -127.9
 2.920  0.5174  146.7   3.103   53.6  0.1331   38.1  0.2132 -128.4
 2.940  0.5185  146.2   3.082   53.2  0.1337   38.0  0.2131 -128.9
 2.960  0.5196  145.7   3.060   52.8  0.1343   38.0  0.2130 -129.4
 2.980  0.5208  145.3   3.039   52.5  0.1349   37.9  0.2130 -129.9
 3.000  0.5220  144.8   3.018   52.1  0.1355   37.8  0.2129 -130.4
 3.100  0.5259  142.6   2.927   50.7  0.1384   37.3  0.2128 -132.8
 3.200  0.5305  140.5   2.838   49.1  0.1414   36.9  0.2131 -135.3
 3.300  0.5358  138.4   2.751   47.5  0.1443   36.4  0.2137 -137.7
 3.400  0.5419  136.3   2.666   45.8  0.1472   36.0  0.2148 -140.1
 3.500  0.5486  134.3   2.584   43.9  0.1502   35.6  0.2162 -142.5
 3.600  0.5537  132.4   2.514   42.5  0.1529   35.1  0.2172 -145.0
 3.700  0.5595  130.5   2.445   41.1  0.1556   34.5  0.2187 -147.5
 3.800  0.5658  128.7   2.378   39.5  0.1584   34.0  0.2205 -150.0
 3.900  0.5727  126.9   2.313   37.9  0.1611   33.6  0.2228 -152.4
 4.000  0.5801  125.2   2.250   36.2  0.1639   33.1  0.2254 -154.8
 4.100  0.5854  123.7   2.194   34.9  0.1665   32.6  0.2286 -157.2
 4.200  0.5912  122.1   2.140   33.5  0.1690   32.1  0.2322 -159.5
 4.300  0.5973  120.7   2.086   32.1  0.1716   31.6  0.2361 -161.7
 4.400  0.6039  119.2   2.034   30.6  0.1742   31.2  0.2404 -163.9
 4.500  0.6108  117.8   1.984   29.0  0.1768   30.7  0.2450 -166.0
 4.600  0.6149  116.5   1.940   27.8  0.1794   30.3  0.2488 -167.7
 4.700  0.6193  115.2   1.897   26.5  0.1820   29.8  0.2528 -169.3
 4.800  0.6241  114.0   1.855   25.2  0.1846   29.4  0.2570 -170.8
 4.900  0.6291  112.7   1.814   23.8  0.1872   29.0  0.2614 -172.3
 5.000  0.6344  111.5   1.774   22.4  0.1898   28.6  0.2660 -173.8
 5.100  0.6373  110.4   1.740   21.3  0.1927   28.1  0.2692 -175.0
 5.200  0.6404  109.3   1.706   20.2  0.1956   27.6  0.2726 -176.1
 5.300  0.6437  108.3   1.673   19.0  0.1986   27.1  0.2760 -177.2
 5.400  0.6472  107.2   1.641   17.8  0.2015   26.6  0.2796 -178.3
 5.500  0.6510  106.2   1.610   16.5  0.2045   26.1  0.2832 -179.4
 5.600  0.6537  105.3   1.583   15.4  0.2073   25.5  0.2873  179.5
 5.700  0.6567  104.4   1.556   14.3  0.2101   24.9  0.2914  178.4
 5.800  0.6597  103.5   1.530   13.1  0.2129   24.3  0.2957  177.3
 5.900  0.6629  102.7   1.505   11.9  0.2157   23.7  0.3000  176.3
 6.000  0.6663  101.8   1.480   10.6  0.2186   23.2  0.3045  175.3
 6.100  0.6669  101.0   1.457    9.5  0.2211   22.6  0.3081  174.6
 6.200  0.6677  100.1   1.434    8.5  0.2236   22.0  0.3118  173.8
 6.300  0.6686   99.3   1.412    7.3  0.2262   21.4  0.3156  173.2
 6.400  0.6697   98.4   1.390    6.2  0.2287   20.9  0.3194  172.5
 6.500  0.6709   97.6   1.369    5.0  0.2313   20.3  0.3232  171.8
 6.600  0.6705   96.6   1.351    4.0  0.2342   19.8  0.3243  171.4
 6.800  0.6704   94.7   1.315    1.9  0.2399   18.7  0.3266  170.5
 7.000  0.6710   92.7   1.282   -0.3  0.2458   17.7  0.3289  169.7
 7.200  0.6734   90.4   1.253   -2.5  0.2523   16.3  0.3301  168.2
 7.400  0.6769   88.0   1.227   -4.7  0.2589   15.0  0.3315  166.7
 7.600  0.6816   85.6   1.200   -7.1  0.2653   13.6  0.3340  164.6
 7.800  0.6878   83.0   1.175   -9.6  0.2716   11.9  0.3379  162.1
 8.000  0.6953   80.5   1.152  -12.2  0.2782   10.4  0.3425  159.7
 8.200  0.7012   77.7   1.122  -14.6  0.2830    8.4  0.3464  156.6
 8.400  0.7088   75.0   1.093  -17.1  0.2881    6.5  0.3514  153.6
 8.600  0.7184   72.3   1.064  -19.5  0.2917    4.6  0.3566  149.8
 8.800  0.7299   69.8   1.034  -21.8  0.2939    2.6  0.3631  145.4
 9.000  0.7428   67.4   1.005  -24.2  0.2964    0.7  0.3716  141.2
 9.200  0.7587   65.4   0.972  -26.1  0.2964   -0.8  0.3855  135.9
 9.400  0.7754   63.5   0.940  -28.1  0.2965   -2.3  0.4026  131.0
 9.600  0.7902   61.8   0.909  -30.0  0.2965   -3.6  0.4213  126.7
 9.800  0.8028   60.2   0.878  -31.6  0.2960   -4.5  0.4413  122.9
10.000  0.8160   58.7   0.847  -33.3  0.2957   -5.5  0.4631  119.4
!
!  f       NFmin   Gammaopt  rn/50
! GHz       dB    MAG  ANG    -
 0.450      0.89  0.20   13   0.14
 1.900      1.10  0.09  121   0.12
 3.500      1.17  0.33 -142   0.11
!
! (c) 2016  Infineon Technologies AG, Munich
