! Infineon Technologies  Discrete & RF Semiconductors
! BFP460
! VCE =  4.0 V,  IC =  60 mA
! Common Emitter S-Parameters:                            Jan 2016
# GHz  S  MA  R  50
!  f         S11            S21            S12            S22
! GHz     MAG   ANG      MAG   ANG      MAG   ANG      MAG   ANG
 0.030  0.3266  -29.6  65.546  168.1  0.0041   85.7  0.8905  -11.0
 0.035  0.3272  -34.0  64.979  166.1  0.0047   83.2  0.8864  -13.1
 0.040  0.3298  -38.4  64.492  164.1  0.0054   81.3  0.8835  -15.3
 0.045  0.3298  -42.7  63.702  162.1  0.0059   79.3  0.8762  -17.3
 0.050  0.3316  -47.0  62.989  160.1  0.0065   77.6  0.8699  -19.3
 0.055  0.3360  -51.2  62.317  158.4  0.0071   76.5  0.8613  -21.3
 0.060  0.3422  -55.2  61.700  156.7  0.0078   75.5  0.8538  -23.4
 0.065  0.3441  -59.3  60.996  154.9  0.0082   74.1  0.8434  -25.3
 0.070  0.3478  -63.4  60.355  153.0  0.0087   72.9  0.8340  -27.2
 0.075  0.3524  -66.6  59.507  151.5  0.0092   72.4  0.8229  -29.0
 0.080  0.3580  -69.7  58.700  150.0  0.0097   72.0  0.8127  -30.9
 0.085  0.3625  -73.3  57.760  148.4  0.0101   71.1  0.8005  -32.6
 0.090  0.3683  -76.8  56.868  146.7  0.0106   70.3  0.7890  -34.3
 0.095  0.3687  -79.4  55.877  145.3  0.0110   69.7  0.7772  -35.9
 0.100  0.3698  -81.9  54.920  143.9  0.0115   69.1  0.7660  -37.6
 0.105  0.3742  -84.7  54.094  142.5  0.0118   68.2  0.7537  -39.1
 0.110  0.3795  -87.5  53.300  141.1  0.0122   67.3  0.7419  -40.6
 0.115  0.3814  -90.4  52.375  139.8  0.0126   66.7  0.7297  -42.0
 0.120  0.3843  -93.2  51.476  138.5  0.0130   66.1  0.7180  -43.5
 0.125  0.3861  -95.5  50.597  137.4  0.0133   65.6  0.7060  -44.8
 0.130  0.3886  -97.8  49.738  136.2  0.0137   65.2  0.6943  -46.2
 0.135  0.3919 -100.0  48.913  135.0  0.0140   64.7  0.6827  -47.4
 0.140  0.3957 -102.1  48.109  133.8  0.0144   64.3  0.6715  -48.7
 0.145  0.3969 -104.2  47.210  132.7  0.0147   64.0  0.6602  -49.9
 0.150  0.3986 -106.3  46.328  131.6  0.0150   63.7  0.6493  -51.2
 0.155  0.3990 -108.0  45.567  130.9  0.0153   63.4  0.6387  -52.1
 0.160  0.3998 -109.6  44.813  130.1  0.0156   63.1  0.6283  -52.9
 0.165  0.4008 -111.2  44.068  129.3  0.0158   62.8  0.6181  -53.9
 0.170  0.4023 -112.9  43.332  128.5  0.0161   62.5  0.6080  -54.8
 0.175  0.4040 -114.5  42.605  127.6  0.0164   62.2  0.5981  -55.8
 0.180  0.4060 -116.1  41.887  126.7  0.0167   62.0  0.5883  -56.8
 0.185  0.4084 -117.7  41.180  125.8  0.0170   61.7  0.5788  -57.8
 0.190  0.4111 -119.2  40.484  124.9  0.0172   61.5  0.5695  -58.9
 0.195  0.4140 -120.8  39.799  123.9  0.0175   61.2  0.5603  -60.0
 0.200  0.4173 -122.3  39.126  122.9  0.0178   61.0  0.5514  -61.2
 0.220  0.4201 -126.9  36.777  120.5  0.0187   60.7  0.5199  -63.9
 0.240  0.4255 -131.4  34.501  117.8  0.0196   60.4  0.4898  -67.0
 0.260  0.4301 -135.3  32.491  115.4  0.0204   60.3  0.4631  -69.8
 0.280  0.4329 -138.7  30.706  113.5  0.0213   60.3  0.4392  -72.2
 0.300  0.4373 -142.0  28.960  111.4  0.0222   60.3  0.4162  -74.9
 0.320  0.4391 -144.7  27.540  109.9  0.0230   60.4  0.3975  -76.7
 0.340  0.4418 -147.3  26.139  108.3  0.0239   60.5  0.3793  -78.7
 0.360  0.4438 -149.7  24.884  106.8  0.0247   60.7  0.3631  -80.6
 0.380  0.4450 -151.8  23.766  105.5  0.0256   61.0  0.3488  -82.3
 0.400  0.4468 -154.0  22.660  104.1  0.0264   61.3  0.3348  -84.1
 0.420  0.4482 -155.7  21.744  103.1  0.0272   61.6  0.3231  -85.5
 0.440  0.4500 -157.4  20.834  102.1  0.0281   61.8  0.3116  -87.0
 0.450  0.4511 -158.3  20.382  101.5  0.0285   61.9  0.3059  -87.8
 0.460  0.4514 -159.1  20.007  101.1  0.0289   62.0  0.3012  -88.4
 0.480  0.4523 -160.6  19.261  100.1  0.0298   62.3  0.2918  -89.7
 0.500  0.4535 -162.1  18.520   99.1  0.0306   62.6  0.2826  -91.1
 0.520  0.4540 -163.4  17.934   98.4  0.0315   62.8  0.2754  -92.1
 0.540  0.4548 -164.6  17.351   97.7  0.0323   63.0  0.2682  -93.2
 0.560  0.4557 -165.9  16.772   96.9  0.0332   63.2  0.2612  -94.4
 0.580  0.4569 -167.2  16.195   96.0  0.0340   63.4  0.2543  -95.6
 0.600  0.4583 -168.4  15.623   95.1  0.0349   63.6  0.2475  -96.9
 0.620  0.4587 -169.4  15.194   94.5  0.0358   63.8  0.2424  -97.8
 0.640  0.4592 -170.4  14.767   93.9  0.0367   63.9  0.2374  -98.7
 0.660  0.4599 -171.4  14.341   93.2  0.0375   64.1  0.2325  -99.7
 0.680  0.4607 -172.4  13.917   92.5  0.0384   64.3  0.2276 -100.7
 0.700  0.4617 -173.4  13.496   91.8  0.0393   64.4  0.2228 -101.8
 0.720  0.4623 -174.2  13.170   91.3  0.0402   64.5  0.2191 -102.6
 0.740  0.4630 -175.1  12.846   90.8  0.0411   64.6  0.2155 -103.4
 0.760  0.4637 -175.9  12.523   90.2  0.0420   64.7  0.2119 -104.3
 0.780  0.4646 -176.8  12.201   89.6  0.0429   64.7  0.2084 -105.2
 0.800  0.4656 -177.6  11.880   89.0  0.0438   64.8  0.2049 -106.1
 0.820  0.4658 -178.3  11.625   88.5  0.0447   64.9  0.2022 -106.8
 0.840  0.4661 -179.1  11.370   88.1  0.0456   64.9  0.1996 -107.6
 0.860  0.4665 -179.8  11.116   87.6  0.0465   65.0  0.1970 -108.4
 0.880  0.4670  179.4  10.863   87.0  0.0474   65.0  0.1944 -109.2
 0.900  0.4675  178.7  10.611   86.5  0.0483   65.1  0.1919 -110.0
 0.920  0.4679  178.0  10.404   86.1  0.0492   65.1  0.1898 -110.7
 0.940  0.4684  177.3  10.198   85.6  0.0501   65.1  0.1878 -111.4
 0.960  0.4689  176.7   9.992   85.2  0.0509   65.2  0.1858 -112.1
 0.980  0.4695  176.0   9.787   84.7  0.0518   65.2  0.1838 -112.8
 1.000  0.4702  175.3   9.583   84.2  0.0527   65.2  0.1819 -113.5
 1.020  0.4705  174.7   9.412   83.8  0.0536   65.2  0.1804 -114.1
 1.040  0.4710  174.1   9.242   83.4  0.0545   65.2  0.1790 -114.7
 1.060  0.4714  173.4   9.072   82.9  0.0555   65.1  0.1775 -115.3
 1.080  0.4719  172.8   8.903   82.5  0.0564   65.1  0.1761 -116.0
 1.100  0.4725  172.2   8.734   82.0  0.0573   65.1  0.1747 -116.6
 1.120  0.4728  171.6   8.591   81.6  0.0582   65.0  0.1735 -117.2
 1.140  0.4732  171.1   8.449   81.2  0.0591   65.0  0.1723 -117.8
 1.160  0.4737  170.5   8.307   80.8  0.0601   64.9  0.1712 -118.4
 1.180  0.4742  170.0   8.165   80.4  0.0610   64.9  0.1700 -119.0
 1.200  0.4747  169.4   8.024   80.0  0.0619   64.8  0.1689 -119.6
 1.220  0.4752  168.9   7.902   79.6  0.0628   64.7  0.1681 -120.1
 1.240  0.4757  168.3   7.781   79.2  0.0637   64.7  0.1673 -120.6
 1.260  0.4762  167.8   7.660   78.8  0.0646   64.6  0.1665 -121.1
 1.280  0.4768  167.2   7.539   78.4  0.0655   64.6  0.1658 -121.7
 1.300  0.4774  166.7   7.419   78.0  0.0664   64.5  0.1650 -122.2
 1.320  0.4777  166.2   7.315   77.6  0.0673   64.4  0.1643 -122.7
 1.340  0.4781  165.7   7.211   77.3  0.0682   64.3  0.1636 -123.2
 1.360  0.4785  165.1   7.107   76.9  0.0692   64.3  0.1629 -123.7
 1.380  0.4789  164.6   7.004   76.5  0.0701   64.2  0.1622 -124.3
 1.400  0.4794  164.1   6.901   76.1  0.0710   64.1  0.1615 -124.8
 1.420  0.4800  163.6   6.811   75.8  0.0719   64.0  0.1611 -125.3
 1.440  0.4807  163.1   6.721   75.4  0.0728   63.9  0.1607 -125.7
 1.460  0.4813  162.7   6.631   75.0  0.0737   63.8  0.1603 -126.2
 1.480  0.4821  162.2   6.541   74.7  0.0746   63.7  0.1599 -126.6
 1.500  0.4828  161.7   6.452   74.3  0.0755   63.6  0.1595 -127.1
 1.520  0.4834  161.2   6.372   74.0  0.0764   63.5  0.1591 -127.6
 1.540  0.4839  160.7   6.293   73.6  0.0773   63.4  0.1587 -128.1
 1.560  0.4846  160.3   6.214   73.2  0.0782   63.2  0.1584 -128.5
 1.580  0.4852  159.8   6.135   72.9  0.0791   63.1  0.1580 -129.0
 1.600  0.4859  159.3   6.056   72.5  0.0800   63.0  0.1577 -129.5
 1.620  0.4864  158.9   5.986   72.2  0.0809   62.9  0.1575 -129.9
 1.640  0.4869  158.4   5.917   71.8  0.0818   62.8  0.1572 -130.3
 1.660  0.4874  158.0   5.848   71.5  0.0828   62.6  0.1570 -130.8
 1.680  0.4879  157.5   5.779   71.2  0.0837   62.5  0.1568 -131.2
 1.700  0.4885  157.1   5.710   70.8  0.0846   62.4  0.1566 -131.6
 1.720  0.4889  156.7   5.647   70.5  0.0855   62.3  0.1565 -132.0
 1.740  0.4893  156.2   5.583   70.1  0.0864   62.2  0.1564 -132.5
 1.760  0.4898  155.8   5.520   69.8  0.0873   62.0  0.1563 -132.9
 1.780  0.4903  155.3   5.458   69.5  0.0882   61.9  0.1562 -133.4
 1.800  0.4908  154.9   5.395   69.1  0.0891   61.8  0.1561 -133.8
 1.820  0.4915  154.4   5.340   68.8  0.0900   61.7  0.1560 -134.2
 1.840  0.4921  154.0   5.285   68.4  0.0909   61.5  0.1559 -134.6
 1.860  0.4929  153.5   5.230   68.1  0.0918   61.4  0.1558 -135.1
 1.880  0.4936  153.1   5.175   67.8  0.0927   61.2  0.1558 -135.5
 1.900  0.4944  152.6   5.121   67.4  0.0936   61.1  0.1557 -135.9
 1.920  0.4949  152.2   5.070   67.1  0.0945   61.0  0.1557 -136.3
 1.940  0.4955  151.8   5.020   66.7  0.0954   60.8  0.1558 -136.8
 1.960  0.4961  151.3   4.970   66.3  0.0962   60.7  0.1559 -137.2
 1.980  0.4967  150.9   4.920   66.0  0.0971   60.5  0.1559 -137.7
 2.000  0.4974  150.5   4.870   65.6  0.0980   60.4  0.1560 -138.1
 2.020  0.4981  150.1   4.825   65.3  0.0989   60.2  0.1561 -138.6
 2.040  0.4988  149.7   4.781   65.0  0.0998   60.1  0.1562 -139.0
 2.060  0.4995  149.3   4.736   64.7  0.1007   59.9  0.1564 -139.5
 2.080  0.5003  148.9   4.692   64.4  0.1016   59.7  0.1565 -139.9
 2.100  0.5011  148.5   4.648   64.0  0.1024   59.6  0.1567 -140.4
 2.120  0.5019  148.1   4.604   63.7  0.1033   59.4  0.1568 -140.8
 2.140  0.5027  147.7   4.560   63.4  0.1042   59.3  0.1570 -141.3
 2.160  0.5036  147.3   4.517   63.0  0.1051   59.1  0.1572 -141.7
 2.180  0.5045  146.9   4.473   62.7  0.1060   58.9  0.1574 -142.2
 2.200  0.5054  146.5   4.430   62.3  0.1069   58.8  0.1576 -142.6
 2.220  0.5061  146.1   4.393   62.0  0.1077   58.6  0.1579 -143.1
 2.240  0.5068  145.7   4.356   61.7  0.1086   58.4  0.1581 -143.6
 2.260  0.5075  145.3   4.319   61.4  0.1094   58.3  0.1584 -144.0
 2.280  0.5083  144.9   4.283   61.1  0.1103   58.1  0.1587 -144.5
 2.300  0.5091  144.5   4.246   60.8  0.1111   57.9  0.1590 -145.0
 2.320  0.5099  144.1   4.210   60.4  0.1120   57.7  0.1593 -145.4
 2.340  0.5107  143.8   4.174   60.1  0.1128   57.6  0.1596 -145.9
 2.360  0.5115  143.4   4.138   59.8  0.1137   57.4  0.1599 -146.4
 2.380  0.5124  143.0   4.102   59.4  0.1145   57.3  0.1603 -146.8
 2.400  0.5133  142.6   4.066   59.1  0.1154   57.1  0.1606 -147.3
 2.420  0.5142  142.2   4.034   58.8  0.1162   56.9  0.1611 -147.8
 2.440  0.5151  141.8   4.002   58.5  0.1171   56.7  0.1615 -148.3
 2.460  0.5160  141.4   3.970   58.2  0.1179   56.6  0.1620 -148.7
 2.480  0.5169  141.1   3.938   57.9  0.1188   56.4  0.1625 -149.2
 2.500  0.5179  140.7   3.906   57.6  0.1196   56.2  0.1630 -149.7
 2.520  0.5188  140.3   3.874   57.2  0.1205   56.1  0.1635 -150.2
 2.540  0.5199  139.9   3.843   56.9  0.1213   55.9  0.1641 -150.6
 2.560  0.5209  139.5   3.811   56.6  0.1222   55.7  0.1646 -151.1
 2.580  0.5219  139.2   3.780   56.2  0.1230   55.6  0.1651 -151.5
 2.600  0.5230  138.8   3.749   55.9  0.1239   55.4  0.1657 -152.0
 2.620  0.5238  138.5   3.722   55.6  0.1247   55.2  0.1663 -152.5
 2.640  0.5247  138.1   3.695   55.3  0.1255   55.0  0.1670 -152.9
 2.660  0.5255  137.8   3.668   55.0  0.1263   54.9  0.1677 -153.4
 2.680  0.5264  137.4   3.641   54.7  0.1272   54.7  0.1683 -153.8
 2.700  0.5273  137.1   3.614   54.4  0.1280   54.5  0.1690 -154.2
 2.720  0.5282  136.7   3.587   54.1  0.1288   54.4  0.1697 -154.7
 2.740  0.5292  136.4   3.560   53.8  0.1296   54.2  0.1704 -155.1
 2.760  0.5301  136.1   3.534   53.5  0.1305   54.0  0.1711 -155.5
 2.780  0.5311  135.7   3.507   53.1  0.1313   53.9  0.1719 -156.0
 2.800  0.5321  135.4   3.481   52.8  0.1321   53.7  0.1726 -156.4
 2.820  0.5330  135.1   3.457   52.5  0.1329   53.5  0.1733 -156.8
 2.840  0.5339  134.7   3.433   52.2  0.1337   53.3  0.1740 -157.3
 2.860  0.5348  134.4   3.409   51.9  0.1345   53.1  0.1748 -157.7
 2.880  0.5357  134.1   3.385   51.7  0.1353   53.0  0.1755 -158.1
 2.900  0.5366  133.7   3.361   51.4  0.1361   52.8  0.1763 -158.5
 2.920  0.5376  133.4   3.338   51.1  0.1369   52.6  0.1770 -159.0
 2.940  0.5386  133.1   3.314   50.7  0.1377   52.4  0.1778 -159.4
 2.960  0.5396  132.8   3.291   50.4  0.1385   52.2  0.1786 -159.8
 2.980  0.5406  132.4   3.267   50.1  0.1393   52.1  0.1794 -160.2
 3.000  0.5416  132.1   3.244   49.8  0.1401   51.9  0.1802 -160.6
 3.100  0.5459  130.5   3.145   48.5  0.1438   50.9  0.1841 -162.6
 3.200  0.5506  128.9   3.048   47.2  0.1476   50.0  0.1882 -164.5
 3.300  0.5557  127.3   2.953   45.8  0.1514   49.1  0.1926 -166.4
 3.400  0.5612  125.7   2.859   44.2  0.1552   48.2  0.1971 -168.1
 3.500  0.5672  124.2   2.768   42.6  0.1591   47.4  0.2018 -169.8
 3.600  0.5723  122.7   2.693   41.4  0.1625   46.4  0.2063 -171.9
 3.700  0.5778  121.3   2.618   40.1  0.1659   45.5  0.2111 -173.8
 3.800  0.5837  119.9   2.546   38.7  0.1693   44.7  0.2161 -175.7
 3.900  0.5899  118.5   2.474   37.2  0.1728   43.8  0.2214 -177.5
 4.000  0.5964  117.1   2.405   35.7  0.1763   43.0  0.2268 -179.2
 4.100  0.6017  115.9   2.346   34.5  0.1793   42.1  0.2327  178.9
 4.200  0.6072  114.7   2.288   33.3  0.1824   41.3  0.2388  177.2
 4.300  0.6130  113.6   2.231   32.1  0.1855   40.5  0.2451  175.5
 4.400  0.6190  112.4   2.175   30.7  0.1886   39.7  0.2516  173.9
 4.500  0.6253  111.3   2.120   29.3  0.1918   38.9  0.2583  172.4
 4.600  0.6294  110.2   2.074   28.2  0.1948   38.2  0.2632  171.2
 4.700  0.6338  109.1   2.028   27.1  0.1978   37.4  0.2682  169.9
 4.800  0.6384  108.0   1.983   25.9  0.2008   36.7  0.2734  168.8
 4.900  0.6433  106.9   1.939   24.6  0.2039   36.1  0.2786  167.7
 5.000  0.6483  105.9   1.896   23.3  0.2070   35.4  0.2840  166.6
 5.100  0.6510  105.0   1.860   22.3  0.2102   34.6  0.2874  165.7
 5.200  0.6539  104.0   1.825   21.2  0.2134   33.9  0.2908  164.8
 5.300  0.6569  103.1   1.790   20.1  0.2167   33.1  0.2943  163.9
 5.400  0.6601  102.2   1.756   19.0  0.2200   32.4  0.2979  163.0
 5.500  0.6635  101.3   1.723   17.8  0.2233   31.7  0.3015  162.2
 5.600  0.6656  100.5   1.695   16.8  0.2263   30.8  0.3054  161.4
 5.700  0.6679   99.8   1.667   15.7  0.2293   30.0  0.3093  160.5
 5.800  0.6702   99.0   1.640   14.6  0.2323   29.2  0.3133  159.7
 5.900  0.6727   98.2   1.613   13.5  0.2354   28.4  0.3173  159.0
 6.000  0.6753   97.5   1.587   12.3  0.2386   27.6  0.3214  158.2
 6.100  0.6757   96.7   1.562   11.3  0.2412   26.8  0.3242  157.7
 6.200  0.6763   95.9   1.538   10.3  0.2439   26.0  0.3270  157.1
 6.300  0.6769   95.1   1.515    9.2  0.2466   25.3  0.3299  156.6
 6.400  0.6778   94.3   1.492    8.1  0.2493   24.5  0.3328  156.1
 6.500  0.6787   93.5   1.469    7.0  0.2521   23.8  0.3357  155.6
 6.600  0.6781   92.6   1.450    6.1  0.2551   23.1  0.3356  155.3
 6.800  0.6775   90.8   1.414    4.1  0.2611   21.7  0.3355  154.6
 7.000  0.6776   89.0   1.380    2.1  0.2673   20.4  0.3354  153.9
 7.200  0.6794   86.8   1.351   -0.0  0.2738   18.7  0.3353  152.5
 7.400  0.6822   84.7   1.323   -2.3  0.2805   17.1  0.3355  151.0
 7.600  0.6862   82.3   1.296   -4.6  0.2869   15.3  0.3373  149.1
 7.800  0.6917   79.8   1.269   -7.0  0.2930   13.4  0.3413  146.8
 8.000  0.6984   77.4   1.244   -9.5  0.2994   11.6  0.3457  144.6
 8.200  0.7035   74.8   1.212  -11.9  0.3036    9.4  0.3502  141.7
 8.400  0.7101   72.3   1.181  -14.4  0.3081    7.2  0.3556  139.0
 8.600  0.7190   69.8   1.150  -16.8  0.3111    5.2  0.3623  135.5
 8.800  0.7300   67.5   1.117  -19.0  0.3123    3.1  0.3711  131.3
 9.000  0.7421   65.3   1.086  -21.4  0.3139    1.0  0.3818  127.4
 9.200  0.7580   63.5   1.051  -23.2  0.3128   -0.6  0.3985  122.7
 9.400  0.7745   61.7   1.017  -25.2  0.3120   -2.2  0.4177  118.5
 9.600  0.7893   60.2   0.983  -26.9  0.3111   -3.5  0.4376  114.8
 9.800  0.8020   58.7   0.950  -28.4  0.3100   -4.5  0.4577  111.5
10.000  0.8152   57.3   0.918  -30.0  0.3090   -5.5  0.4791  108.5
!
!  f       NFmin   Gammaopt  rn/50
! GHz       dB    MAG  ANG    -
 0.450      2.02  0.36 -170   0.13
 0.900      2.06  0.34 -160   0.14
 1.900      2.16  0.44 -139   0.17
 3.500      1.86  0.70 -115   0.32
!
! (c) 2016  Infineon Technologies AG, Munich
