! Infineon Technologies  Discrete & RF Semiconductors
! BFP460
! VCE =  3.0 V,  IC =  50 mA
! Common Emitter S-Parameters:                            Jan 2016
# GHz  S  MA  R  50
!  f         S11            S21            S12            S22
! GHz     MAG   ANG      MAG   ANG      MAG   ANG      MAG   ANG
 0.030  0.3576  -27.6  65.383  168.2  0.0045   85.2  0.9019  -11.6
 0.035  0.3572  -31.9  64.830  166.2  0.0050   83.0  0.8971  -13.7
 0.040  0.3588  -36.1  64.356  164.2  0.0056   81.2  0.8936  -15.9
 0.045  0.3569  -40.0  63.560  162.3  0.0062   79.7  0.8862  -17.9
 0.050  0.3567  -44.0  62.837  160.3  0.0069   78.5  0.8798  -19.9
 0.055  0.3611  -48.1  62.179  158.6  0.0074   77.2  0.8707  -21.9
 0.060  0.3674  -52.1  61.575  156.9  0.0079   76.1  0.8627  -24.0
 0.065  0.3688  -56.0  60.889  155.1  0.0084   74.7  0.8525  -25.9
 0.070  0.3718  -59.8  60.266  153.2  0.0090   73.4  0.8433  -27.9
 0.075  0.3758  -63.2  59.427  151.7  0.0096   72.7  0.8323  -29.7
 0.080  0.3810  -66.5  58.628  150.2  0.0103   72.0  0.8222  -31.6
 0.085  0.3822  -69.7  57.708  148.6  0.0107   71.4  0.8102  -33.3
 0.090  0.3845  -72.9  56.834  147.0  0.0112   70.8  0.7990  -35.1
 0.095  0.3860  -75.7  55.851  145.6  0.0116   69.6  0.7871  -36.7
 0.100  0.3883  -78.4  54.901  144.2  0.0120   68.4  0.7758  -38.4
 0.105  0.3922  -81.1  54.088  142.8  0.0124   68.0  0.7636  -39.9
 0.110  0.3970  -83.8  53.307  141.4  0.0128   67.7  0.7520  -41.5
 0.115  0.3975  -86.7  52.390  140.1  0.0132   66.8  0.7401  -43.0
 0.120  0.3989  -89.5  51.500  138.8  0.0136   66.0  0.7287  -44.5
 0.125  0.4005  -91.8  50.633  137.7  0.0140   65.4  0.7167  -45.8
 0.130  0.4028  -94.1  49.786  136.5  0.0144   64.8  0.7051  -47.2
 0.135  0.4043  -96.4  48.966  135.3  0.0147   64.5  0.6936  -48.5
 0.140  0.4065  -98.7  48.167  134.1  0.0151   64.2  0.6824  -49.9
 0.145  0.4079 -100.8  47.279  133.0  0.0154   63.9  0.6711  -51.1
 0.150  0.4099 -102.8  46.409  131.9  0.0157   63.6  0.6602  -52.4
 0.155  0.4097 -104.5  45.652  131.2  0.0160   63.2  0.6496  -53.3
 0.160  0.4099 -106.1  44.902  130.4  0.0163   62.9  0.6392  -54.2
 0.165  0.4104 -107.8  44.161  129.6  0.0166   62.6  0.6290  -55.2
 0.170  0.4112 -109.4  43.429  128.8  0.0169   62.2  0.6190  -56.2
 0.175  0.4124 -111.1  42.705  127.9  0.0171   61.9  0.6091  -57.2
 0.180  0.4140 -112.7  41.992  127.0  0.0174   61.6  0.5994  -58.2
 0.185  0.4158 -114.3  41.289  126.1  0.0177   61.3  0.5900  -59.3
 0.190  0.4180 -115.9  40.597  125.2  0.0180   61.0  0.5808  -60.4
 0.195  0.4206 -117.5  39.916  124.2  0.0183   60.8  0.5718  -61.6
 0.200  0.4234 -119.1  39.247  123.2  0.0186   60.5  0.5630  -62.8
 0.220  0.4254 -123.9  36.911  120.8  0.0195   60.2  0.5313  -65.8
 0.240  0.4304 -128.6  34.646  118.2  0.0204   59.8  0.5012  -69.1
 0.260  0.4344 -132.6  32.642  115.8  0.0213   59.7  0.4746  -72.1
 0.280  0.4366 -136.1  30.862  113.9  0.0222   59.6  0.4507  -74.7
 0.300  0.4403 -139.5  29.122  111.7  0.0231   59.5  0.4278  -77.5
 0.320  0.4417 -142.3  27.698  110.2  0.0240   59.7  0.4090  -79.6
 0.340  0.4442 -145.1  26.295  108.6  0.0249   59.8  0.3908  -81.8
 0.360  0.4459 -147.6  25.036  107.1  0.0257   60.0  0.3746  -83.9
 0.380  0.4466 -149.9  23.914  105.8  0.0266   60.1  0.3602  -85.7
 0.400  0.4480 -152.1  22.805  104.4  0.0274   60.3  0.3462  -87.7
 0.420  0.4493 -153.9  21.885  103.4  0.0282   60.6  0.3345  -89.3
 0.440  0.4511 -155.7  20.973  102.3  0.0291   60.9  0.3231  -90.9
 0.450  0.4522 -156.6  20.520  101.7  0.0295   61.0  0.3175  -91.8
 0.460  0.4524 -157.4  20.144  101.3  0.0299   61.1  0.3128  -92.5
 0.480  0.4530 -159.0  19.395  100.4  0.0308   61.4  0.3034  -94.0
 0.500  0.4539 -160.6  18.651   99.4  0.0316   61.6  0.2943  -95.5
 0.520  0.4541 -161.9  18.062   98.7  0.0325   61.8  0.2871  -96.7
 0.540  0.4546 -163.2  17.475   97.9  0.0334   62.1  0.2800  -97.9
 0.560  0.4552 -164.5  16.893   97.1  0.0342   62.3  0.2730  -99.1
 0.580  0.4562 -165.8  16.313   96.2  0.0351   62.5  0.2662 -100.5
 0.600  0.4573 -167.1  15.738   95.3  0.0360   62.7  0.2595 -101.9
 0.620  0.4577 -168.1  15.306   94.7  0.0369   62.9  0.2544 -102.9
 0.640  0.4583 -169.2  14.875   94.1  0.0378   63.0  0.2495 -104.0
 0.660  0.4591 -170.2  14.447   93.4  0.0386   63.1  0.2446 -105.1
 0.680  0.4600 -171.3  14.020   92.7  0.0395   63.3  0.2398 -106.3
 0.700  0.4610 -172.3  13.596   92.0  0.0404   63.4  0.2351 -107.5
 0.720  0.4614 -173.2  13.268   91.5  0.0413   63.5  0.2315 -108.4
 0.740  0.4619 -174.0  12.942   91.0  0.0422   63.6  0.2280 -109.3
 0.760  0.4625 -174.9  12.617   90.4  0.0431   63.7  0.2245 -110.3
 0.780  0.4632 -175.7  12.293   89.8  0.0440   63.8  0.2211 -111.3
 0.800  0.4640 -176.6  11.970   89.2  0.0449   63.9  0.2177 -112.3
 0.820  0.4645 -177.4  11.713   88.7  0.0458   64.0  0.2151 -113.1
 0.840  0.4651 -178.2  11.457   88.3  0.0467   64.0  0.2125 -113.9
 0.860  0.4657 -178.9  11.201   87.8  0.0476   64.1  0.2099 -114.8
 0.880  0.4665 -179.7  10.947   87.2  0.0485   64.1  0.2074 -115.6
 0.900  0.4673  179.5  10.693   86.7  0.0494   64.2  0.2050 -116.5
 0.920  0.4675  178.8  10.485   86.3  0.0503   64.2  0.2030 -117.2
 0.940  0.4678  178.1  10.277   85.8  0.0512   64.2  0.2011 -118.0
 0.960  0.4682  177.5  10.070   85.4  0.0522   64.3  0.1991 -118.7
 0.980  0.4686  176.8   9.864   84.9  0.0531   64.3  0.1972 -119.5
 1.000  0.4691  176.1   9.658   84.4  0.0540   64.3  0.1954 -120.3
 1.020  0.4694  175.5   9.486   84.0  0.0549   64.3  0.1940 -121.0
 1.040  0.4698  174.8   9.315   83.6  0.0559   64.3  0.1926 -121.7
 1.060  0.4703  174.2   9.144   83.1  0.0568   64.2  0.1912 -122.4
 1.080  0.4708  173.5   8.974   82.7  0.0578   64.2  0.1899 -123.1
 1.100  0.4714  172.9   8.804   82.2  0.0587   64.2  0.1886 -123.8
 1.120  0.4717  172.3   8.660   81.8  0.0596   64.2  0.1875 -124.4
 1.140  0.4721  171.7   8.517   81.4  0.0605   64.2  0.1863 -125.0
 1.160  0.4726  171.2   8.374   81.0  0.0615   64.1  0.1852 -125.6
 1.180  0.4731  170.6   8.231   80.6  0.0624   64.1  0.1842 -126.3
 1.200  0.4736  170.0   8.089   80.2  0.0633   64.1  0.1831 -126.9
 1.220  0.4741  169.5   7.966   79.8  0.0642   64.0  0.1823 -127.5
 1.240  0.4746  168.9   7.844   79.4  0.0651   63.9  0.1816 -128.0
 1.260  0.4751  168.4   7.722   79.0  0.0661   63.9  0.1809 -128.6
 1.280  0.4757  167.8   7.601   78.6  0.0670   63.8  0.1802 -129.1
 1.300  0.4763  167.3   7.480   78.2  0.0679   63.7  0.1795 -129.7
 1.320  0.4766  166.8   7.375   77.8  0.0688   63.6  0.1788 -130.2
 1.340  0.4770  166.3   7.271   77.5  0.0697   63.5  0.1781 -130.8
 1.360  0.4775  165.8   7.166   77.1  0.0707   63.5  0.1774 -131.3
 1.380  0.4779  165.3   7.063   76.7  0.0716   63.4  0.1767 -131.9
 1.400  0.4784  164.8   6.959   76.3  0.0725   63.3  0.1761 -132.4
 1.420  0.4789  164.3   6.867   76.0  0.0734   63.2  0.1757 -132.9
 1.440  0.4795  163.7   6.776   75.6  0.0743   63.1  0.1753 -133.3
 1.460  0.4801  163.2   6.685   75.2  0.0753   63.0  0.1750 -133.8
 1.480  0.4807  162.6   6.594   74.9  0.0762   62.9  0.1746 -134.2
 1.500  0.4814  162.1   6.504   74.5  0.0771   62.8  0.1743 -134.7
 1.520  0.4819  161.6   6.424   74.2  0.0780   62.7  0.1740 -135.2
 1.540  0.4823  161.1   6.344   73.8  0.0789   62.6  0.1737 -135.7
 1.560  0.4829  160.7   6.264   73.4  0.0799   62.5  0.1734 -136.2
 1.580  0.4834  160.2   6.184   73.1  0.0808   62.4  0.1731 -136.7
 1.600  0.4840  159.7   6.105   72.7  0.0817   62.3  0.1728 -137.2
 1.620  0.4845  159.3   6.035   72.4  0.0826   62.2  0.1726 -137.6
 1.640  0.4851  158.8   5.965   72.0  0.0835   62.1  0.1724 -138.0
 1.660  0.4857  158.4   5.895   71.7  0.0845   61.9  0.1722 -138.5
 1.680  0.4863  157.9   5.825   71.4  0.0854   61.8  0.1721 -138.9
 1.700  0.4869  157.5   5.756   71.0  0.0863   61.7  0.1719 -139.3
 1.720  0.4873  157.1   5.692   70.7  0.0872   61.6  0.1718 -139.7
 1.740  0.4877  156.6   5.629   70.3  0.0881   61.4  0.1717 -140.2
 1.760  0.4881  156.2   5.566   70.0  0.0891   61.3  0.1716 -140.6
 1.780  0.4885  155.7   5.503   69.7  0.0900   61.1  0.1716 -141.1
 1.800  0.4890  155.3   5.440   69.3  0.0909   61.0  0.1715 -141.5
 1.820  0.4897  154.8   5.384   69.0  0.0918   60.9  0.1715 -141.9
 1.840  0.4904  154.4   5.329   68.6  0.0927   60.8  0.1714 -142.3
 1.860  0.4911  153.9   5.273   68.3  0.0937   60.6  0.1714 -142.8
 1.880  0.4919  153.5   5.218   68.0  0.0946   60.5  0.1714 -143.2
 1.900  0.4927  153.0   5.163   67.6  0.0955   60.4  0.1714 -143.6
 1.920  0.4933  152.6   5.112   67.3  0.0964   60.2  0.1715 -144.0
 1.940  0.4939  152.2   5.061   66.9  0.0973   60.1  0.1715 -144.4
 1.960  0.4946  151.7   5.011   66.6  0.0981   59.9  0.1716 -144.9
 1.980  0.4953  151.3   4.960   66.3  0.0990   59.8  0.1717 -145.3
 2.000  0.4960  150.9   4.910   65.9  0.0999   59.6  0.1718 -145.7
 2.020  0.4967  150.5   4.865   65.6  0.1008   59.4  0.1720 -146.1
 2.040  0.4975  150.1   4.820   65.3  0.1017   59.3  0.1721 -146.6
 2.060  0.4983  149.7   4.776   65.0  0.1026   59.1  0.1723 -147.0
 2.080  0.4991  149.2   4.731   64.7  0.1035   59.0  0.1725 -147.4
 2.100  0.4999  148.8   4.687   64.3  0.1044   58.8  0.1727 -147.9
 2.120  0.5007  148.4   4.642   64.0  0.1053   58.7  0.1729 -148.3
 2.140  0.5016  148.0   4.598   63.7  0.1062   58.5  0.1732 -148.7
 2.160  0.5025  147.6   4.554   63.3  0.1071   58.4  0.1734 -149.1
 2.180  0.5034  147.2   4.511   63.0  0.1080   58.2  0.1736 -149.6
 2.200  0.5044  146.8   4.467   62.6  0.1089   58.1  0.1739 -150.0
 2.220  0.5051  146.4   4.429   62.3  0.1098   57.9  0.1742 -150.4
 2.240  0.5058  146.0   4.392   62.0  0.1106   57.7  0.1745 -150.9
 2.260  0.5066  145.6   4.355   61.7  0.1115   57.6  0.1749 -151.3
 2.280  0.5074  145.2   4.318   61.3  0.1124   57.4  0.1752 -151.8
 2.300  0.5082  144.8   4.281   61.0  0.1132   57.2  0.1756 -152.2
 2.320  0.5090  144.4   4.244   60.7  0.1141   57.0  0.1759 -152.7
 2.340  0.5098  144.1   4.207   60.4  0.1150   56.9  0.1763 -153.1
 2.360  0.5107  143.7   4.171   60.0  0.1159   56.7  0.1767 -153.5
 2.380  0.5116  143.3   4.134   59.7  0.1167   56.6  0.1771 -154.0
 2.400  0.5125  142.9   4.098   59.3  0.1176   56.4  0.1775 -154.4
 2.420  0.5133  142.5   4.066   59.0  0.1185   56.2  0.1780 -154.9
 2.440  0.5142  142.1   4.034   58.7  0.1193   56.0  0.1786 -155.3
 2.460  0.5151  141.7   4.001   58.4  0.1202   55.8  0.1791 -155.7
 2.480  0.5160  141.4   3.969   58.1  0.1210   55.6  0.1797 -156.2
 2.500  0.5169  141.0   3.938   57.8  0.1219   55.5  0.1802 -156.6
 2.520  0.5179  140.6   3.906   57.5  0.1227   55.3  0.1808 -157.1
 2.540  0.5188  140.2   3.874   57.2  0.1236   55.1  0.1814 -157.5
 2.560  0.5198  139.8   3.843   56.9  0.1245   54.9  0.1820 -157.9
 2.580  0.5209  139.5   3.811   56.5  0.1253   54.8  0.1826 -158.4
 2.600  0.5219  139.1   3.780   56.2  0.1262   54.6  0.1832 -158.8
 2.620  0.5227  138.7   3.752   55.9  0.1270   54.4  0.1839 -159.2
 2.640  0.5235  138.4   3.725   55.6  0.1278   54.2  0.1846 -159.6
 2.660  0.5244  138.0   3.698   55.3  0.1286   54.1  0.1853 -160.1
 2.680  0.5253  137.7   3.670   55.0  0.1295   53.9  0.1860 -160.5
 2.700  0.5262  137.3   3.643   54.7  0.1303   53.7  0.1867 -160.9
 2.720  0.5271  137.0   3.616   54.4  0.1311   53.6  0.1874 -161.3
 2.740  0.5280  136.6   3.589   54.1  0.1319   53.4  0.1881 -161.7
 2.760  0.5289  136.3   3.562   53.8  0.1328   53.2  0.1889 -162.1
 2.780  0.5299  135.9   3.536   53.4  0.1336   53.1  0.1896 -162.5
 2.800  0.5309  135.6   3.509   53.1  0.1344   52.9  0.1904 -162.9
 2.820  0.5317  135.3   3.485   52.8  0.1352   52.7  0.1912 -163.3
 2.840  0.5326  134.9   3.460   52.5  0.1360   52.5  0.1919 -163.7
 2.860  0.5334  134.6   3.436   52.2  0.1368   52.4  0.1927 -164.1
 2.880  0.5343  134.3   3.412   52.0  0.1376   52.2  0.1935 -164.5
 2.900  0.5352  133.9   3.388   51.7  0.1384   52.0  0.1943 -164.8
 2.920  0.5361  133.6   3.364   51.4  0.1392   51.9  0.1951 -165.2
 2.940  0.5370  133.3   3.340   51.0  0.1401   51.7  0.1959 -165.6
 2.960  0.5380  133.0   3.316   50.7  0.1409   51.5  0.1967 -166.0
 2.980  0.5389  132.6   3.293   50.4  0.1417   51.4  0.1976 -166.3
 3.000  0.5399  132.3   3.269   50.1  0.1425   51.2  0.1984 -166.7
 3.100  0.5441  130.6   3.169   48.8  0.1463   50.2  0.2025 -168.5
 3.200  0.5488  129.0   3.071   47.5  0.1501   49.2  0.2067 -170.3
 3.300  0.5539  127.4   2.975   46.0  0.1539   48.3  0.2112 -172.0
 3.400  0.5595  125.8   2.881   44.5  0.1578   47.4  0.2158 -173.6
 3.500  0.5654  124.3   2.789   42.8  0.1617   46.6  0.2206 -175.1
 3.600  0.5706  122.8   2.713   41.6  0.1650   45.6  0.2253 -177.0
 3.700  0.5763  121.3   2.639   40.3  0.1684   44.7  0.2303 -178.8
 3.800  0.5822  119.9   2.566   39.0  0.1718   43.8  0.2354  179.4
 3.900  0.5886  118.5   2.494   37.5  0.1753   42.9  0.2408  177.8
 4.000  0.5953  117.1   2.424   36.0  0.1788   42.1  0.2464  176.2
 4.100  0.6006  115.9   2.364   34.8  0.1818   41.2  0.2523  174.5
 4.200  0.6062  114.7   2.305   33.6  0.1849   40.4  0.2585  172.9
 4.300  0.6121  113.6   2.247   32.4  0.1880   39.6  0.2648  171.3
 4.400  0.6182  112.4   2.190   31.0  0.1911   38.8  0.2713  169.8
 4.500  0.6245  111.3   2.134   29.6  0.1943   38.1  0.2780  168.4
 4.600  0.6286  110.2   2.087   28.5  0.1973   37.3  0.2828  167.2
 4.700  0.6329  109.1   2.041   27.4  0.2003   36.6  0.2877  166.0
 4.800  0.6374  108.0   1.996   26.2  0.2033   35.9  0.2928  164.9
 4.900  0.6421  106.9   1.951   25.0  0.2064   35.2  0.2979  163.8
 5.000  0.6471  105.9   1.908   23.7  0.2095   34.5  0.3032  162.8
 5.100  0.6499  105.0   1.872   22.7  0.2127   33.7  0.3064  161.9
 5.200  0.6529  104.0   1.836   21.7  0.2160   33.0  0.3096  161.0
 5.300  0.6560  103.1   1.802   20.6  0.2192   32.2  0.3129  160.2
 5.400  0.6593  102.2   1.767   19.5  0.2225   31.5  0.3163  159.3
 5.500  0.6628  101.3   1.734   18.3  0.2259   30.8  0.3197  158.5
 5.600  0.6648  100.5   1.705   17.3  0.2288   29.9  0.3233  157.7
 5.700  0.6669   99.8   1.677   16.2  0.2318   29.1  0.3270  156.9
 5.800  0.6691   99.0   1.650   15.1  0.2349   28.3  0.3308  156.1
 5.900  0.6714   98.2   1.623   14.0  0.2380   27.5  0.3346  155.3
 6.000  0.6739   97.5   1.597   12.8  0.2411   26.7  0.3385  154.6
 6.100  0.6743   96.7   1.573   11.8  0.2437   25.9  0.3410  154.1
 6.200  0.6749   95.9   1.549   10.8  0.2463   25.2  0.3435  153.6
 6.300  0.6756   95.2   1.525    9.8  0.2490   24.4  0.3460  153.1
 6.400  0.6765   94.4   1.502    8.7  0.2517   23.7  0.3485  152.7
 6.500  0.6774   93.6   1.480    7.6  0.2544   23.0  0.3511  152.2
 6.600  0.6768   92.7   1.461    6.6  0.2574   22.3  0.3507  151.8
 6.800  0.6761   90.8   1.425    4.7  0.2634   20.9  0.3500  151.1
 7.000  0.6762   88.9   1.390    2.6  0.2696   19.5  0.3493  150.3
 7.200  0.6778   86.7   1.361    0.5  0.2761   17.8  0.3489  148.9
 7.400  0.6803   84.6   1.334   -1.7  0.2828   16.2  0.3487  147.4
 7.600  0.6841   82.3   1.307   -4.0  0.2892   14.4  0.3504  145.5
 7.800  0.6895   79.8   1.280   -6.4  0.2952   12.5  0.3543  143.2
 8.000  0.6961   77.4   1.255   -9.0  0.3015   10.6  0.3587  141.0
 8.200  0.7015   74.8   1.223  -11.3  0.3056    8.4  0.3633  138.2
 8.400  0.7084   72.3   1.192  -13.8  0.3101    6.3  0.3687  135.4
 8.600  0.7173   69.8   1.161  -16.2  0.3128    4.2  0.3756  132.0
 8.800  0.7282   67.5   1.128  -18.5  0.3138    2.1  0.3848  128.1
 9.000  0.7402   65.3   1.097  -20.9  0.3152    0.0  0.3957  124.3
 9.200  0.7563   63.5   1.061  -22.7  0.3140   -1.6  0.4127  119.8
 9.400  0.7732   61.7   1.026  -24.7  0.3130   -3.2  0.4321  115.7
 9.600  0.7880   60.1   0.992  -26.4  0.3119   -4.5  0.4519  112.1
 9.800  0.8005   58.6   0.958  -27.8  0.3106   -5.5  0.4717  109.0
10.000  0.8136   57.2   0.925  -29.4  0.3094   -6.5  0.4929  106.1
!
!  f       NFmin   Gammaopt  rn/50
! GHz       dB    MAG  ANG    -
 0.450      1.86  0.32 -170   0.13
 0.900      1.89  0.29 -162   0.14
 1.900      1.98  0.40 -140   0.16
 3.500      1.78  0.62 -116   0.27
!
! (c) 2016  Infineon Technologies AG, Munich
