! Infineon Technologies  Discrete & RF Semiconductors
! BFP460
! VCE =  4.0 V,  IC =  4.0 mA
! Common Emitter S-Parameters:                            Jan 2016
# GHz  S  MA  R  50
!  f         S11            S21            S12            S22
! GHz     MAG   ANG      MAG   ANG      MAG   ANG      MAG   ANG
 0.030  0.9014   -4.8  13.402  176.4  0.0058   84.4  0.9899   -3.4
 0.035  0.9004   -5.5  13.393  175.7  0.0067   84.5  0.9892   -3.8
 0.040  0.8995   -6.3  13.385  175.0  0.0077   84.6  0.9885   -4.3
 0.045  0.8979   -7.2  13.341  174.3  0.0086   84.1  0.9878   -4.6
 0.050  0.8966   -8.1  13.298  173.6  0.0096   83.7  0.9871   -5.0
 0.055  0.8963   -8.9  13.289  173.2  0.0106   83.3  0.9864   -5.5
 0.060  0.8962   -9.7  13.281  172.8  0.0117   83.0  0.9857   -6.1
 0.065  0.8964  -10.6  13.325  172.1  0.0126   82.9  0.9850   -6.6
 0.070  0.8968  -11.4  13.370  171.4  0.0135   82.8  0.9844   -7.1
 0.075  0.8969  -12.2  13.332  171.1  0.0144   82.1  0.9833   -7.6
 0.080  0.8972  -12.9  13.295  170.8  0.0153   81.5  0.9822   -8.1
 0.085  0.8953  -13.6  13.284  170.2  0.0162   81.1  0.9809   -8.6
 0.090  0.8935  -14.4  13.274  169.6  0.0172   80.8  0.9797   -9.2
 0.095  0.8923  -15.2  13.225  169.1  0.0181   80.5  0.9784   -9.7
 0.100  0.8913  -16.1  13.177  168.5  0.0191   80.3  0.9771  -10.2
 0.105  0.8913  -16.9  13.166  168.0  0.0200   79.8  0.9756  -10.7
 0.110  0.8915  -17.7  13.156  167.5  0.0210   79.4  0.9742  -11.2
 0.115  0.8900  -18.5  13.151  166.9  0.0218   78.9  0.9726  -11.7
 0.120  0.8886  -19.3  13.147  166.3  0.0227   78.5  0.9710  -12.2
 0.125  0.8866  -20.0  13.121  165.8  0.0236   78.1  0.9693  -12.6
 0.130  0.8848  -20.8  13.095  165.3  0.0245   77.7  0.9676  -13.1
 0.135  0.8837  -21.6  13.082  164.7  0.0254   77.3  0.9660  -13.6
 0.140  0.8828  -22.5  13.070  164.1  0.0264   77.0  0.9644  -14.1
 0.145  0.8810  -23.2  13.024  163.5  0.0272   76.5  0.9625  -14.6
 0.150  0.8793  -24.0  12.980  162.9  0.0281   76.1  0.9607  -15.1
 0.155  0.8771  -24.8  12.949  162.4  0.0290   75.6  0.9583  -15.6
 0.160  0.8750  -25.5  12.918  161.9  0.0298   75.1  0.9559  -16.0
 0.165  0.8730  -26.3  12.889  161.4  0.0307   74.7  0.9536  -16.5
 0.170  0.8713  -27.0  12.860  160.9  0.0315   74.2  0.9513  -17.0
 0.175  0.8696  -27.8  12.833  160.4  0.0324   73.8  0.9492  -17.4
 0.180  0.8682  -28.6  12.806  159.9  0.0332   73.5  0.9470  -17.9
 0.185  0.8669  -29.4  12.781  159.4  0.0341   73.1  0.9450  -18.4
 0.190  0.8657  -30.1  12.757  158.8  0.0350   72.7  0.9430  -18.8
 0.195  0.8647  -30.9  12.733  158.3  0.0358   72.4  0.9411  -19.3
 0.200  0.8639  -31.7  12.711  157.8  0.0367   72.1  0.9392  -19.8
 0.220  0.8550  -34.7  12.555  155.8  0.0399   70.4  0.9286  -21.5
 0.240  0.8485  -37.7  12.414  153.7  0.0431   68.9  0.9189  -23.3
 0.260  0.8410  -40.6  12.263  151.8  0.0461   67.4  0.9082  -25.0
 0.280  0.8324  -43.4  12.098  149.9  0.0490   65.9  0.8965  -26.7
 0.300  0.8258  -46.2  11.946  148.0  0.0519   64.6  0.8856  -28.5
 0.320  0.8151  -48.9  11.769  146.2  0.0545   63.1  0.8731  -30.0
 0.340  0.8062  -51.7  11.604  144.3  0.0571   61.8  0.8613  -31.6
 0.360  0.7975  -54.4  11.432  142.6  0.0596   60.5  0.8491  -33.1
 0.380  0.7886  -56.9  11.252  140.9  0.0619   59.3  0.8365  -34.6
 0.400  0.7813  -59.5  11.082  139.2  0.0643   58.1  0.8245  -36.1
 0.420  0.7711  -61.9  10.898  137.6  0.0664   56.9  0.8121  -37.5
 0.440  0.7623  -64.4  10.723  136.0  0.0685   55.7  0.8001  -38.9
 0.450  0.7585  -65.7  10.639  135.2  0.0696   55.2  0.7943  -39.6
 0.460  0.7534  -66.9  10.549  134.5  0.0705   54.7  0.7880  -40.2
 0.480  0.7442  -69.2  10.373  133.0  0.0723   53.7  0.7756  -41.4
 0.500  0.7363  -71.6  10.204  131.5  0.0742   52.7  0.7636  -42.6
 0.520  0.7263  -73.7  10.028  130.2  0.0757   51.7  0.7516  -43.7
 0.540  0.7173  -75.9   9.858  128.9  0.0773   50.7  0.7399  -44.8
 0.560  0.7094  -78.1   9.693  127.5  0.0789   49.8  0.7284  -45.9
 0.580  0.7025  -80.4   9.534  126.1  0.0805   48.9  0.7172  -47.1
 0.600  0.6968  -82.7   9.381  124.6  0.0821   48.1  0.7064  -48.3
 0.620  0.6880  -84.6   9.220  123.5  0.0833   47.3  0.6956  -49.2
 0.640  0.6800  -86.6   9.062  122.3  0.0845   46.6  0.6849  -50.2
 0.660  0.6728  -88.6   8.908  121.1  0.0858   45.8  0.6744  -51.1
 0.680  0.6665  -90.6   8.759  119.9  0.0870   45.1  0.6642  -52.2
 0.700  0.6610  -92.7   8.613  118.6  0.0883   44.4  0.6541  -53.2
 0.720  0.6539  -94.4   8.470  117.6  0.0893   43.8  0.6445  -54.0
 0.740  0.6473  -96.2   8.330  116.6  0.0903   43.1  0.6351  -54.8
 0.760  0.6414  -98.0   8.192  115.5  0.0913   42.5  0.6258  -55.6
 0.780  0.6362  -99.8   8.058  114.4  0.0923   41.9  0.6166  -56.4
 0.800  0.6316 -101.7   7.926  113.3  0.0933   41.3  0.6076  -57.3
 0.820  0.6256 -103.3   7.803  112.4  0.0941   40.8  0.5993  -58.0
 0.840  0.6201 -104.9   7.681  111.5  0.0949   40.3  0.5910  -58.7
 0.860  0.6152 -106.6   7.562  110.6  0.0957   39.8  0.5829  -59.4
 0.880  0.6107 -108.3   7.445  109.6  0.0966   39.3  0.5749  -60.1
 0.900  0.6068 -110.0   7.330  108.6  0.0974   38.8  0.5669  -60.9
 0.920  0.6017 -111.5   7.221  107.8  0.0981   38.4  0.5596  -61.5
 0.940  0.5970 -113.0   7.113  107.0  0.0987   37.9  0.5524  -62.2
 0.960  0.5927 -114.6   7.007  106.1  0.0994   37.5  0.5453  -62.8
 0.980  0.5888 -116.1   6.902  105.2  0.1001   37.1  0.5383  -63.5
 1.000  0.5854 -117.7   6.799  104.3  0.1008   36.7  0.5313  -64.2
 1.020  0.5812 -119.0   6.702  103.6  0.1014   36.4  0.5251  -64.8
 1.040  0.5773 -120.4   6.606  102.8  0.1019   36.0  0.5189  -65.3
 1.060  0.5738 -121.8   6.511  102.0  0.1025   35.7  0.5127  -65.9
 1.080  0.5706 -123.2   6.417  101.2  0.1031   35.3  0.5066  -66.5
 1.100  0.5677 -124.6   6.325  100.4  0.1037   35.0  0.5006  -67.1
 1.120  0.5644 -125.9   6.240   99.7  0.1042   34.7  0.4951  -67.6
 1.140  0.5614 -127.2   6.156   99.0  0.1047   34.4  0.4896  -68.1
 1.160  0.5587 -128.5   6.072   98.3  0.1052   34.1  0.4842  -68.6
 1.180  0.5563 -129.9   5.990   97.6  0.1057   33.8  0.4788  -69.2
 1.200  0.5542 -131.2   5.909   96.8  0.1062   33.5  0.4734  -69.7
 1.220  0.5516 -132.4   5.834   96.2  0.1067   33.3  0.4687  -70.2
 1.240  0.5492 -133.7   5.760   95.5  0.1071   33.0  0.4639  -70.7
 1.260  0.5471 -134.9   5.686   94.9  0.1076   32.8  0.4593  -71.2
 1.280  0.5453 -136.1   5.613   94.2  0.1080   32.5  0.4546  -71.7
 1.300  0.5437 -137.4   5.541   93.5  0.1085   32.3  0.4500  -72.2
 1.320  0.5416 -138.5   5.474   92.9  0.1089   32.1  0.4457  -72.6
 1.340  0.5396 -139.6   5.407   92.3  0.1093   31.9  0.4414  -73.1
 1.360  0.5379 -140.7   5.341   91.7  0.1097   31.7  0.4372  -73.5
 1.380  0.5364 -141.9   5.276   91.1  0.1101   31.5  0.4330  -73.9
 1.400  0.5351 -143.0   5.211   90.4  0.1105   31.3  0.4288  -74.4
 1.420  0.5331 -144.1   5.152   89.8  0.1109   31.1  0.4251  -74.8
 1.440  0.5313 -145.2   5.093   89.2  0.1113   31.0  0.4215  -75.2
 1.460  0.5297 -146.3   5.034   88.6  0.1117   30.8  0.4178  -75.6
 1.480  0.5283 -147.4   4.976   88.0  0.1121   30.7  0.4142  -76.1
 1.500  0.5271 -148.5   4.919   87.4  0.1125   30.5  0.4106  -76.5
 1.520  0.5256 -149.5   4.865   86.9  0.1128   30.4  0.4072  -76.9
 1.540  0.5244 -150.5   4.811   86.3  0.1132   30.2  0.4037  -77.3
 1.560  0.5232 -151.5   4.757   85.8  0.1135   30.1  0.4003  -77.7
 1.580  0.5223 -152.6   4.704   85.2  0.1139   29.9  0.3970  -78.1
 1.600  0.5215 -153.6   4.652   84.6  0.1142   29.8  0.3936  -78.5
 1.620  0.5206 -154.5   4.604   84.1  0.1145   29.7  0.3907  -78.8
 1.640  0.5199 -155.4   4.556   83.6  0.1149   29.6  0.3879  -79.2
 1.660  0.5192 -156.4   4.509   83.0  0.1152   29.4  0.3851  -79.6
 1.680  0.5188 -157.3   4.462   82.5  0.1156   29.3  0.3823  -79.9
 1.700  0.5184 -158.2   4.416   81.9  0.1159   29.2  0.3795  -80.3
 1.720  0.5176 -159.1   4.372   81.4  0.1162   29.1  0.3769  -80.7
 1.740  0.5168 -160.0   4.329   80.9  0.1166   29.0  0.3743  -81.0
 1.760  0.5163 -161.0   4.286   80.4  0.1169   28.8  0.3717  -81.4
 1.780  0.5158 -161.9   4.243   79.8  0.1173   28.7  0.3691  -81.8
 1.800  0.5155 -162.8   4.201   79.3  0.1176   28.6  0.3666  -82.2
 1.820  0.5148 -163.7   4.162   78.8  0.1179   28.5  0.3642  -82.6
 1.840  0.5143 -164.5   4.123   78.3  0.1183   28.4  0.3617  -82.9
 1.860  0.5139 -165.4   4.084   77.8  0.1186   28.4  0.3593  -83.3
 1.880  0.5136 -166.2   4.046   77.3  0.1190   28.3  0.3569  -83.6
 1.900  0.5134 -167.1   4.008   76.8  0.1193   28.2  0.3545  -84.0
 1.920  0.5131 -167.9   3.972   76.3  0.1196   28.1  0.3523  -84.4
 1.940  0.5130 -168.7   3.936   75.8  0.1199   28.0  0.3502  -84.7
 1.960  0.5129 -169.6   3.900   75.3  0.1202   28.0  0.3481  -85.1
 1.980  0.5129 -170.4   3.865   74.8  0.1205   27.9  0.3460  -85.5
 2.000  0.5131 -171.2   3.830   74.3  0.1208   27.8  0.3439  -85.9
 2.020  0.5127 -172.0   3.797   73.9  0.1211   27.7  0.3420  -86.2
 2.040  0.5124 -172.8   3.765   73.4  0.1215   27.7  0.3400  -86.6
 2.060  0.5121 -173.6   3.732   73.0  0.1218   27.6  0.3381  -86.9
 2.080  0.5120 -174.4   3.700   72.6  0.1221   27.5  0.3362  -87.3
 2.100  0.5120 -175.2   3.668   72.1  0.1224   27.4  0.3343  -87.6
 2.120  0.5120 -175.9   3.636   71.6  0.1228   27.4  0.3325  -88.0
 2.140  0.5122 -176.7   3.605   71.2  0.1231   27.3  0.3306  -88.4
 2.160  0.5125 -177.5   3.574   70.7  0.1234   27.2  0.3288  -88.7
 2.180  0.5128 -178.3   3.543   70.2  0.1238   27.2  0.3269  -89.1
 2.200  0.5133 -179.1   3.512   69.7  0.1241   27.1  0.3251  -89.5
 2.220  0.5135 -179.8   3.484   69.3  0.1244   27.0  0.3234  -89.9
 2.240  0.5137  179.5   3.457   68.9  0.1247   27.0  0.3218  -90.2
 2.260  0.5140  178.8   3.429   68.4  0.1251   26.9  0.3201  -90.6
 2.280  0.5144  178.0   3.402   68.0  0.1254   26.9  0.3185  -91.0
 2.300  0.5149  177.3   3.375   67.5  0.1257   26.8  0.3169  -91.4
 2.320  0.5155  176.6   3.348   67.1  0.1260   26.7  0.3153  -91.7
 2.340  0.5161  175.9   3.321   66.6  0.1263   26.7  0.3137  -92.1
 2.360  0.5168  175.2   3.295   66.2  0.1267   26.6  0.3121  -92.5
 2.380  0.5176  174.5   3.269   65.7  0.1270   26.6  0.3105  -92.9
 2.400  0.5185  173.8   3.243   65.2  0.1273   26.5  0.3090  -93.3
 2.420  0.5188  173.1   3.219   64.8  0.1276   26.5  0.3076  -93.7
 2.440  0.5192  172.4   3.195   64.4  0.1279   26.4  0.3062  -94.1
 2.460  0.5197  171.7   3.171   64.0  0.1282   26.4  0.3049  -94.5
 2.480  0.5202  171.1   3.147   63.6  0.1285   26.3  0.3035  -94.9
 2.500  0.5208  170.4   3.124   63.1  0.1288   26.3  0.3022  -95.4
 2.520  0.5215  169.7   3.100   62.7  0.1292   26.3  0.3009  -95.8
 2.540  0.5223  169.0   3.077   62.3  0.1295   26.2  0.2996  -96.2
 2.560  0.5231  168.3   3.054   61.8  0.1298   26.2  0.2983  -96.6
 2.580  0.5240  167.7   3.032   61.4  0.1301   26.1  0.2970  -97.1
 2.600  0.5250  167.0   3.009   60.9  0.1304   26.1  0.2958  -97.5
 2.620  0.5254  166.4   2.988   60.5  0.1307   26.0  0.2947  -97.9
 2.640  0.5259  165.8   2.967   60.1  0.1310   26.0  0.2936  -98.3
 2.660  0.5264  165.2   2.946   59.8  0.1313   25.9  0.2926  -98.7
 2.680  0.5269  164.6   2.925   59.4  0.1316   25.9  0.2915  -99.1
 2.700  0.5276  164.0   2.905   59.0  0.1319   25.8  0.2905  -99.6
 2.720  0.5283  163.4   2.884   58.6  0.1322   25.8  0.2895 -100.0
 2.740  0.5290  162.8   2.864   58.2  0.1325   25.7  0.2885 -100.4
 2.760  0.5298  162.2   2.844   57.7  0.1328   25.7  0.2875 -100.8
 2.780  0.5307  161.6   2.824   57.3  0.1331   25.6  0.2865 -101.3
 2.800  0.5316  161.0   2.804   56.9  0.1334   25.6  0.2856 -101.7
 2.820  0.5322  160.4   2.785   56.5  0.1337   25.6  0.2847 -102.1
 2.840  0.5329  159.8   2.767   56.1  0.1340   25.5  0.2839 -102.6
 2.860  0.5337  159.3   2.748   55.8  0.1344   25.5  0.2830 -103.0
 2.880  0.5345  158.7   2.730   55.4  0.1347   25.5  0.2822 -103.4
 2.900  0.5353  158.1   2.712   55.0  0.1350   25.4  0.2814 -103.9
 2.920  0.5362  157.6   2.694   54.6  0.1353   25.4  0.2806 -104.3
 2.940  0.5372  157.0   2.676   54.2  0.1356   25.4  0.2798 -104.8
 2.960  0.5382  156.4   2.658   53.7  0.1360   25.4  0.2791 -105.2
 2.980  0.5393  155.9   2.640   53.3  0.1363   25.3  0.2783 -105.6
 3.000  0.5404  155.3   2.623   52.9  0.1366   25.3  0.2776 -106.1
 3.100  0.5430  152.7   2.545   51.3  0.1382   25.1  0.2746 -108.2
 3.200  0.5467  150.1   2.468   49.6  0.1398   25.0  0.2719 -110.3
 3.300  0.5514  147.6   2.395   47.7  0.1414   24.8  0.2697 -112.5
 3.400  0.5573  145.1   2.323   45.8  0.1430   24.7  0.2678 -114.7
 3.500  0.5641  142.7   2.255   43.7  0.1446   24.5  0.2663 -116.9
 3.600  0.5685  140.5   2.194   42.2  0.1463   24.4  0.2645 -119.2
 3.700  0.5737  138.2   2.135   40.5  0.1479   24.2  0.2630 -121.5
 3.800  0.5798  136.1   2.077   38.8  0.1496   24.1  0.2621 -123.8
 3.900  0.5867  134.0   2.021   37.0  0.1512   23.9  0.2615 -126.2
 4.000  0.5944  131.9   1.968   35.1  0.1529   23.8  0.2614 -128.5
 4.100  0.5993  130.1   1.919   33.7  0.1546   23.7  0.2621 -130.9
 4.200  0.6047  128.4   1.871   32.2  0.1563   23.5  0.2632 -133.4
 4.300  0.6107  126.6   1.825   30.6  0.1579   23.4  0.2648 -135.8
 4.400  0.6172  125.0   1.779   28.9  0.1596   23.2  0.2669 -138.2
 4.500  0.6243  123.3   1.736   27.2  0.1613   23.1  0.2694 -140.5
 4.600  0.6281  121.8   1.697   25.9  0.1632   23.0  0.2722 -142.4
 4.700  0.6324  120.4   1.659   24.5  0.1652   23.0  0.2754 -144.3
 4.800  0.6371  118.9   1.622   23.1  0.1671   22.9  0.2788 -146.2
 4.900  0.6421  117.5   1.587   21.6  0.1691   22.9  0.2825 -148.0
 5.000  0.6476  116.1   1.552   20.0  0.1710   22.8  0.2865 -149.7
 5.100  0.6508  114.9   1.521   18.8  0.1735   22.6  0.2899 -151.2
 5.200  0.6543  113.7   1.491   17.6  0.1759   22.5  0.2935 -152.6
 5.300  0.6580  112.6   1.461   16.3  0.1784   22.3  0.2972 -154.1
 5.400  0.6620  111.4   1.432   15.0  0.1808   22.2  0.3012 -155.5
 5.500  0.6663  110.3   1.404   13.6  0.1833   22.0  0.3053 -156.8
 5.600  0.6690  109.3   1.380   12.4  0.1859   21.7  0.3096 -158.3
 5.700  0.6720  108.3   1.356   11.2  0.1884   21.3  0.3141 -159.7
 5.800  0.6751  107.3   1.332   10.0  0.1910   21.0  0.3188 -161.1
 5.900  0.6785  106.4   1.310    8.6  0.1936   20.7  0.3237 -162.5
 6.000  0.6820  105.4   1.288    7.3  0.1962   20.4  0.3288 -163.8
 6.100  0.6828  104.4   1.267    6.2  0.1986   20.1  0.3334 -164.9
 6.200  0.6837  103.5   1.246    5.1  0.2011   19.7  0.3381 -166.1
 6.300  0.6848  102.5   1.226    3.9  0.2036   19.4  0.3430 -167.1
 6.400  0.6862  101.6   1.206    2.7  0.2060   19.1  0.3479 -168.2
 6.500  0.6877  100.6   1.187    1.4  0.2085   18.8  0.3530 -169.2
 6.600  0.6877   99.6   1.170    0.4  0.2114   18.5  0.3556 -169.9
 6.800  0.6884   97.5   1.138   -1.7  0.2171   17.8  0.3611 -171.3
 7.000  0.6900   95.5   1.107   -4.0  0.2229   17.2  0.3667 -172.6
 7.200  0.6929   93.0   1.081   -6.2  0.2297   16.2  0.3695 -174.6
 7.400  0.6971   90.6   1.057   -8.4  0.2365   15.3  0.3728 -176.5
 7.600  0.7023   88.0   1.033  -10.8  0.2433   14.1  0.3764 -178.9
 7.800  0.7087   85.2   1.009  -13.2  0.2503   12.8  0.3807  178.3
 8.000  0.7167   82.5   0.988  -15.8  0.2574   11.5  0.3859  175.6
 8.200  0.7222   79.5   0.961  -18.1  0.2633    9.8  0.3895  172.3
 8.400  0.7295   76.6   0.935  -20.6  0.2694    8.1  0.3943  169.2
 8.600  0.7388   73.8   0.909  -23.0  0.2741    6.4  0.3982  165.3
 8.800  0.7498   71.2   0.883  -25.2  0.2775    4.5  0.4023  160.8
 9.000  0.7623   68.6   0.858  -27.6  0.2812    2.7  0.4089  156.4
 9.200  0.7772   66.5   0.830  -29.5  0.2824    1.2  0.4191  150.8
 9.400  0.7932   64.4   0.802  -31.5  0.2838   -0.3  0.4332  145.4
 9.600  0.8070   62.6   0.775  -33.3  0.2849   -1.6  0.4501  140.5
 9.800  0.8184   60.9   0.747  -34.9  0.2856   -2.6  0.4691  136.1
10.000  0.8304   59.3   0.719  -36.5  0.2863   -3.6  0.4908  132.0
!
!  f       NFmin   Gammaopt  rn/50
! GHz       dB    MAG  ANG    -
 0.450      0.75  0.40   17   0.18
 0.900      0.77  0.41   35   0.18
 1.900      1.06  0.21   94   0.13
 3.500      1.30  0.35 -157   0.09
!
! (c) 2016  Infineon Technologies AG, Munich
