! Infineon Technologies  Discrete & RF Semiconductors
! BFP460
! VCE =  1.5 V,  IC =  6.0 mA
! Common Emitter S-Parameters:                            Jan 2016
# GHz  S  MA  R  50
!  f         S11            S21            S12            S22
! GHz     MAG   ANG      MAG   ANG      MAG   ANG      MAG   ANG
 0.030  0.8461   -6.8  19.077  175.8  0.0065   86.2  0.9802   -4.7
 0.035  0.8440   -7.9  19.058  174.9  0.0075   85.5  0.9791   -5.5
 0.040  0.8422   -9.1  19.044  174.0  0.0086   85.0  0.9781   -6.3
 0.045  0.8417  -10.0  18.980  173.0  0.0096   84.2  0.9770   -7.0
 0.050  0.8415  -10.9  18.922  171.9  0.0107   83.6  0.9760   -7.8
 0.055  0.8402  -12.3  18.906  171.3  0.0118   83.2  0.9745   -8.5
 0.060  0.8394  -13.8  18.892  170.7  0.0129   82.8  0.9732   -9.3
 0.065  0.8378  -14.8  18.929  169.8  0.0139   82.2  0.9715  -10.1
 0.070  0.8365  -15.9  18.970  168.9  0.0149   81.7  0.9700  -10.9
 0.075  0.8368  -17.0  18.908  168.4  0.0159   81.1  0.9681  -11.6
 0.080  0.8375  -18.1  18.847  167.9  0.0170   80.5  0.9664  -12.4
 0.085  0.8355  -19.3  18.806  167.1  0.0180   80.0  0.9640  -13.1
 0.090  0.8339  -20.6  18.769  166.3  0.0190   79.6  0.9617  -13.9
 0.095  0.8314  -21.5  18.673  165.6  0.0200   78.8  0.9593  -14.6
 0.100  0.8291  -22.5  18.580  164.9  0.0210   78.1  0.9570  -15.4
 0.105  0.8287  -23.6  18.551  164.2  0.0220   77.6  0.9543  -16.1
 0.110  0.8287  -24.8  18.525  163.5  0.0231   77.1  0.9517  -16.9
 0.115  0.8256  -26.0  18.476  162.8  0.0240   76.6  0.9489  -17.6
 0.120  0.8229  -27.2  18.430  162.1  0.0250   76.2  0.9462  -18.4
 0.125  0.8203  -28.1  18.370  161.4  0.0259   75.4  0.9430  -19.1
 0.130  0.8179  -29.1  18.312  160.7  0.0268   74.7  0.9400  -19.8
 0.135  0.8156  -30.2  18.259  160.0  0.0277   74.2  0.9368  -20.5
 0.140  0.8137  -31.3  18.209  159.2  0.0287   73.7  0.9337  -21.3
 0.145  0.8116  -32.4  18.115  158.5  0.0296   73.1  0.9303  -22.0
 0.150  0.8098  -33.5  18.024  157.8  0.0306   72.6  0.9271  -22.7
 0.155  0.8062  -34.5  17.943  157.2  0.0314   72.0  0.9228  -23.4
 0.160  0.8029  -35.5  17.864  156.5  0.0323   71.4  0.9186  -24.0
 0.165  0.7998  -36.5  17.787  155.9  0.0332   70.8  0.9145  -24.7
 0.170  0.7970  -37.5  17.713  155.2  0.0340   70.3  0.9105  -25.4
 0.175  0.7944  -38.5  17.641  154.6  0.0349   69.8  0.9067  -26.0
 0.180  0.7921  -39.5  17.572  153.9  0.0357   69.3  0.9029  -26.7
 0.185  0.7900  -40.6  17.504  153.2  0.0366   68.9  0.8994  -27.4
 0.190  0.7882  -41.6  17.439  152.6  0.0375   68.4  0.8959  -28.1
 0.195  0.7866  -42.7  17.377  151.9  0.0383   68.0  0.8926  -28.8
 0.200  0.7853  -43.7  17.317  151.2  0.0392   67.6  0.8894  -29.5
 0.220  0.7727  -47.5  16.957  148.8  0.0422   65.6  0.8717  -31.9
 0.240  0.7636  -51.4  16.627  146.4  0.0452   63.9  0.8557  -34.5
 0.260  0.7539  -55.1  16.286  144.0  0.0480   62.2  0.8388  -36.9
 0.280  0.7430  -58.7  15.926  141.9  0.0506   60.6  0.8208  -39.2
 0.300  0.7350  -62.3  15.590  139.6  0.0532   59.1  0.8042  -41.6
 0.320  0.7225  -65.6  15.225  137.7  0.0554   57.6  0.7862  -43.6
 0.340  0.7125  -69.0  14.878  135.6  0.0577   56.2  0.7692  -45.7
 0.360  0.7025  -72.2  14.536  133.7  0.0597   55.0  0.7523  -47.7
 0.380  0.6920  -75.3  14.195  131.9  0.0615   53.7  0.7352  -49.6
 0.400  0.6835  -78.4  13.869  130.0  0.0634   52.6  0.7190  -51.5
 0.420  0.6734  -81.2  13.533  128.4  0.0651   51.5  0.7031  -53.2
 0.440  0.6649  -84.0  13.208  126.8  0.0667   50.4  0.6879  -54.9
 0.450  0.6613  -85.5  13.050  125.9  0.0676   49.9  0.6805  -55.8
 0.460  0.6566  -86.8  12.897  125.2  0.0683   49.5  0.6729  -56.5
 0.480  0.6481  -89.5  12.597  123.7  0.0697   48.6  0.6581  -58.1
 0.500  0.6411  -92.2  12.305  122.2  0.0711   47.8  0.6438  -59.7
 0.520  0.6321  -94.5  12.025  121.0  0.0722   47.0  0.6303  -61.0
 0.540  0.6242  -96.8  11.751  119.7  0.0734   46.3  0.6171  -62.3
 0.560  0.6173  -99.2  11.484  118.4  0.0745   45.6  0.6043  -63.7
 0.580  0.6115 -101.6  11.222  117.0  0.0757   44.9  0.5919  -65.1
 0.600  0.6068 -104.1  10.968  115.5  0.0769   44.2  0.5798  -66.6
 0.620  0.5998 -106.1  10.733  114.5  0.0778   43.6  0.5686  -67.7
 0.640  0.5936 -108.1  10.502  113.4  0.0787   43.1  0.5576  -68.8
 0.660  0.5881 -110.2  10.275  112.3  0.0796   42.5  0.5468  -70.0
 0.680  0.5835 -112.3  10.052  111.1  0.0806   42.0  0.5363  -71.2
 0.700  0.5796 -114.5   9.833  109.9  0.0815   41.5  0.5260  -72.5
 0.720  0.5745 -116.2   9.638  109.0  0.0822   41.1  0.5168  -73.4
 0.740  0.5700 -118.0   9.445  108.1  0.0830   40.7  0.5077  -74.4
 0.760  0.5660 -119.8   9.254  107.1  0.0837   40.3  0.4988  -75.5
 0.780  0.5625 -121.7   9.067  106.1  0.0845   39.9  0.4900  -76.5
 0.800  0.5597 -123.5   8.882  105.1  0.0852   39.5  0.4814  -77.6
 0.820  0.5560 -125.1   8.721  104.3  0.0859   39.2  0.4738  -78.5
 0.840  0.5527 -126.6   8.562  103.6  0.0865   39.0  0.4662  -79.4
 0.860  0.5498 -128.3   8.404  102.7  0.0872   38.7  0.4588  -80.3
 0.880  0.5474 -129.9   8.248  101.9  0.0878   38.5  0.4516  -81.2
 0.900  0.5454 -131.5   8.094  101.0  0.0885   38.2  0.4444  -82.2
 0.920  0.5422 -132.9   7.956  100.3  0.0891   38.0  0.4381  -83.0
 0.940  0.5393 -134.3   7.819   99.6  0.0897   37.8  0.4319  -83.7
 0.960  0.5368 -135.8   7.683   98.8  0.0903   37.5  0.4258  -84.5
 0.980  0.5346 -137.2   7.549   98.0  0.0909   37.3  0.4197  -85.4
 1.000  0.5328 -138.7   7.416   97.2  0.0915   37.1  0.4138  -86.2
 1.020  0.5305 -140.0   7.298   96.6  0.0921   36.9  0.4085  -86.9
 1.040  0.5285 -141.2   7.180   95.9  0.0926   36.8  0.4033  -87.7
 1.060  0.5267 -142.5   7.064   95.2  0.0932   36.6  0.3982  -88.4
 1.080  0.5252 -143.8   6.948   94.5  0.0937   36.5  0.3931  -89.2
 1.100  0.5239 -145.1   6.834   93.8  0.0943   36.3  0.3881  -90.0
 1.120  0.5222 -146.3   6.733   93.2  0.0948   36.2  0.3836  -90.6
 1.140  0.5206 -147.4   6.633   92.6  0.0954   36.1  0.3791  -91.3
 1.160  0.5193 -148.6   6.533   92.0  0.0959   35.9  0.3747  -92.0
 1.180  0.5183 -149.8   6.434   91.4  0.0965   35.8  0.3704  -92.7
 1.200  0.5174 -151.0   6.336   90.7  0.0970   35.7  0.3661  -93.4
 1.220  0.5163 -152.1   6.248   90.2  0.0975   35.6  0.3624  -94.0
 1.240  0.5153 -153.1   6.161   89.6  0.0980   35.5  0.3587  -94.6
 1.260  0.5145 -154.2   6.074   89.0  0.0986   35.4  0.3550  -95.3
 1.280  0.5139 -155.3   5.988   88.4  0.0991   35.3  0.3514  -95.9
 1.300  0.5135 -156.4   5.902   87.8  0.0996   35.2  0.3479  -96.6
 1.320  0.5126 -157.4   5.825   87.3  0.1001   35.1  0.3446  -97.2
 1.340  0.5119 -158.4   5.749   86.7  0.1006   35.1  0.3413  -97.8
 1.360  0.5114 -159.3   5.673   86.2  0.1011   35.0  0.3380  -98.4
 1.380  0.5110 -160.3   5.598   85.6  0.1016   35.0  0.3348  -99.0
 1.400  0.5107 -161.3   5.523   85.0  0.1021   34.9  0.3316  -99.6
 1.420  0.5099 -162.2   5.455   84.5  0.1026   34.8  0.3289 -100.1
 1.440  0.5093 -163.2   5.387   84.0  0.1031   34.8  0.3262 -100.7
 1.460  0.5088 -164.1   5.320   83.5  0.1037   34.7  0.3236 -101.3
 1.480  0.5084 -165.1   5.253   82.9  0.1042   34.7  0.3210 -101.8
 1.500  0.5082 -166.0   5.187   82.4  0.1047   34.6  0.3184 -102.4
 1.520  0.5077 -166.9   5.126   81.9  0.1052   34.6  0.3159 -102.9
 1.540  0.5074 -167.8   5.066   81.5  0.1057   34.6  0.3134 -103.5
 1.560  0.5072 -168.6   5.006   81.0  0.1062   34.5  0.3109 -104.1
 1.580  0.5071 -169.5   4.946   80.5  0.1067   34.5  0.3085 -104.6
 1.600  0.5071 -170.4   4.887   80.0  0.1072   34.5  0.3061 -105.2
 1.620  0.5068 -171.2   4.834   79.5  0.1077   34.5  0.3040 -105.7
 1.640  0.5067 -172.0   4.782   79.1  0.1082   34.4  0.3020 -106.2
 1.660  0.5066 -172.7   4.730   78.6  0.1088   34.4  0.3000 -106.7
 1.680  0.5066 -173.5   4.678   78.1  0.1093   34.3  0.2980 -107.3
 1.700  0.5067 -174.3   4.627   77.6  0.1098   34.3  0.2960 -107.8
 1.720  0.5068 -175.1   4.578   77.2  0.1103   34.3  0.2942 -108.3
 1.740  0.5070 -175.9   4.530   76.7  0.1108   34.2  0.2924 -108.8
 1.760  0.5073 -176.6   4.482   76.2  0.1114   34.2  0.2906 -109.3
 1.780  0.5076 -177.4   4.434   75.8  0.1119   34.1  0.2889 -109.9
 1.800  0.5081 -178.2   4.386   75.3  0.1124   34.1  0.2872 -110.4
 1.820  0.5081 -178.9   4.344   74.9  0.1129   34.1  0.2855 -110.9
 1.840  0.5082 -179.7   4.302   74.4  0.1135   34.0  0.2839 -111.4
 1.860  0.5084  179.6   4.260   73.9  0.1140   34.0  0.2823 -111.9
 1.880  0.5087  178.8   4.218   73.5  0.1146   33.9  0.2807 -112.5
 1.900  0.5091  178.1   4.177   73.0  0.1151   33.9  0.2791 -113.0
 1.920  0.5092  177.4   4.137   72.6  0.1156   33.9  0.2777 -113.5
 1.940  0.5095  176.7   4.098   72.1  0.1161   33.8  0.2763 -114.0
 1.960  0.5098  176.0   4.059   71.7  0.1167   33.8  0.2750 -114.5
 1.980  0.5101  175.3   4.020   71.3  0.1172   33.7  0.2736 -115.0
 2.000  0.5106  174.6   3.981   70.8  0.1177   33.7  0.2723 -115.5
 2.020  0.5108  173.9   3.946   70.4  0.1182   33.7  0.2711 -116.0
 2.040  0.5112  173.3   3.911   70.0  0.1188   33.6  0.2698 -116.5
 2.060  0.5115  172.6   3.876   69.6  0.1193   33.6  0.2686 -117.0
 2.080  0.5120  171.9   3.841   69.2  0.1199   33.6  0.2674 -117.5
 2.100  0.5125  171.3   3.806   68.8  0.1204   33.5  0.2663 -118.0
 2.120  0.5131  170.6   3.772   68.4  0.1209   33.5  0.2651 -118.5
 2.140  0.5137  170.0   3.738   67.9  0.1215   33.5  0.2640 -119.0
 2.160  0.5145  169.3   3.704   67.5  0.1220   33.5  0.2629 -119.5
 2.180  0.5152  168.7   3.670   67.1  0.1226   33.4  0.2619 -120.1
 2.200  0.5161  168.0   3.637   66.6  0.1231   33.4  0.2608 -120.6
 2.220  0.5165  167.4   3.607   66.2  0.1236   33.3  0.2598 -121.1
 2.240  0.5169  166.8   3.578   65.8  0.1242   33.3  0.2589 -121.6
 2.260  0.5174  166.2   3.549   65.4  0.1247   33.2  0.2580 -122.1
 2.280  0.5180  165.5   3.520   65.0  0.1252   33.2  0.2571 -122.6
 2.300  0.5186  164.9   3.491   64.6  0.1257   33.1  0.2562 -123.2
 2.320  0.5193  164.3   3.462   64.2  0.1263   33.1  0.2553 -123.7
 2.340  0.5200  163.7   3.433   63.8  0.1268   33.0  0.2545 -124.2
 2.360  0.5208  163.1   3.405   63.4  0.1273   33.0  0.2537 -124.7
 2.380  0.5217  162.5   3.377   62.9  0.1279   32.9  0.2529 -125.3
 2.400  0.5226  161.9   3.349   62.5  0.1284   32.9  0.2521 -125.8
 2.420  0.5233  161.3   3.323   62.1  0.1289   32.8  0.2515 -126.3
 2.440  0.5241  160.8   3.298   61.8  0.1295   32.8  0.2508 -126.8
 2.460  0.5249  160.2   3.273   61.4  0.1300   32.7  0.2502 -127.4
 2.480  0.5258  159.6   3.247   61.1  0.1306   32.7  0.2496 -127.9
 2.500  0.5267  159.1   3.222   60.7  0.1311   32.6  0.2491 -128.4
 2.520  0.5277  158.5   3.197   60.3  0.1316   32.6  0.2485 -129.0
 2.540  0.5287  158.0   3.172   59.9  0.1322   32.5  0.2480 -129.5
 2.560  0.5298  157.4   3.148   59.5  0.1327   32.5  0.2475 -130.0
 2.580  0.5309  156.9   3.123   59.1  0.1333   32.4  0.2471 -130.6
 2.600  0.5321  156.3   3.099   58.7  0.1338   32.4  0.2466 -131.1
 2.620  0.5327  155.8   3.077   58.3  0.1343   32.3  0.2462 -131.6
 2.640  0.5333  155.2   3.055   58.0  0.1348   32.3  0.2459 -132.1
 2.660  0.5339  154.7   3.033   57.6  0.1354   32.2  0.2456 -132.6
 2.680  0.5346  154.2   3.011   57.2  0.1359   32.2  0.2453 -133.2
 2.700  0.5353  153.7   2.989   56.9  0.1364   32.1  0.2450 -133.7
 2.720  0.5361  153.2   2.967   56.5  0.1369   32.0  0.2447 -134.2
 2.740  0.5370  152.6   2.946   56.1  0.1374   32.0  0.2445 -134.7
 2.760  0.5378  152.1   2.924   55.7  0.1380   31.9  0.2443 -135.3
 2.780  0.5387  151.6   2.903   55.3  0.1385   31.9  0.2441 -135.8
 2.800  0.5397  151.1   2.882   54.9  0.1390   31.8  0.2439 -136.3
 2.820  0.5405  150.6   2.862   54.6  0.1395   31.7  0.2437 -136.8
 2.840  0.5413  150.1   2.843   54.2  0.1401   31.7  0.2436 -137.3
 2.860  0.5422  149.6   2.824   53.9  0.1406   31.6  0.2435 -137.8
 2.880  0.5431  149.1   2.804   53.5  0.1411   31.6  0.2434 -138.3
 2.900  0.5441  148.6   2.785   53.2  0.1416   31.5  0.2433 -138.8
 2.920  0.5451  148.1   2.766   52.8  0.1422   31.4  0.2433 -139.3
 2.940  0.5461  147.7   2.747   52.4  0.1427   31.4  0.2432 -139.8
 2.960  0.5472  147.2   2.728   52.1  0.1432   31.3  0.2432 -140.3
 2.980  0.5483  146.7   2.710   51.7  0.1438   31.3  0.2432 -140.8
 3.000  0.5495  146.2   2.691   51.3  0.1443   31.2  0.2432 -141.3
 3.100  0.5528  143.9   2.609   49.8  0.1469   30.8  0.2434 -143.6
 3.200  0.5569  141.7   2.529   48.2  0.1494   30.4  0.2441 -145.9
 3.300  0.5618  139.5   2.452   46.5  0.1520   30.1  0.2451 -148.1
 3.400  0.5676  137.3   2.376   44.7  0.1546   29.7  0.2464 -150.4
 3.500  0.5742  135.2   2.303   42.8  0.1572   29.4  0.2482 -152.6
 3.600  0.5790  133.3   2.240   41.4  0.1596   29.0  0.2497 -154.9
 3.700  0.5844  131.4   2.179   39.9  0.1621   28.6  0.2515 -157.2
 3.800  0.5905  129.5   2.120   38.3  0.1645   28.2  0.2538 -159.4
 3.900  0.5971  127.7   2.062   36.6  0.1669   27.8  0.2564 -161.6
 4.000  0.6044  125.9   2.006   34.8  0.1694   27.4  0.2594 -163.8
 4.100  0.6094  124.3   1.956   33.5  0.1717   27.0  0.2629 -165.9
 4.200  0.6148  122.8   1.907   32.1  0.1739   26.6  0.2668 -167.9
 4.300  0.6207  121.3   1.859   30.6  0.1762   26.2  0.2710 -169.9
 4.400  0.6270  119.8   1.812   29.1  0.1785   25.8  0.2755 -171.8
 4.500  0.6337  118.3   1.767   27.5  0.1808   25.4  0.2803 -173.7
 4.600  0.6374  117.0   1.728   26.3  0.1831   25.1  0.2842 -175.2
 4.700  0.6415  115.6   1.690   25.0  0.1855   24.7  0.2882 -176.6
 4.800  0.6459  114.3   1.653   23.7  0.1878   24.4  0.2925 -178.0
 4.900  0.6506  113.1   1.616   22.3  0.1901   24.1  0.2969 -179.3
 5.000  0.6557  111.8   1.581   20.9  0.1925   23.8  0.3014  179.4
 5.100  0.6584  110.7   1.551   19.8  0.1952   23.4  0.3046  178.3
 5.200  0.6614  109.6   1.521   18.6  0.1980   23.0  0.3079  177.3
 5.300  0.6647  108.5   1.491   17.4  0.2008   22.6  0.3112  176.2
 5.400  0.6681  107.5   1.463   16.2  0.2035   22.2  0.3147  175.2
 5.500  0.6718  106.4   1.435   14.9  0.2063   21.8  0.3183  174.2
 5.600  0.6742  105.5   1.411   13.8  0.2090   21.3  0.3223  173.2
 5.700  0.6767  104.6   1.387   12.7  0.2116   20.7  0.3264  172.2
 5.800  0.6794  103.7   1.364   11.5  0.2143   20.2  0.3306  171.2
 5.900  0.6823  102.8   1.342   10.3  0.2171   19.7  0.3349  170.2
 6.000  0.6853  101.9   1.320    9.0  0.2198   19.2  0.3393  169.3
 6.100  0.6858  101.0   1.299    7.9  0.2222   18.7  0.3427  168.6
 6.200  0.6865  100.1   1.279    6.9  0.2247   18.1  0.3461  167.9
 6.300  0.6873   99.3   1.260    5.7  0.2271   17.6  0.3495  167.3
 6.400  0.6883   98.4   1.241    4.6  0.2296   17.1  0.3530  166.6
 6.500  0.6895   97.5   1.222    3.4  0.2321   16.6  0.3566  166.0
 6.600  0.6891   96.5   1.206    2.4  0.2349   16.1  0.3575  165.5
 6.800  0.6889   94.6   1.175    0.4  0.2406   15.2  0.3594  164.6
 7.000  0.6895   92.6   1.145   -1.7  0.2464   14.3  0.3613  163.7
 7.200  0.6917   90.3   1.121   -3.9  0.2528   13.0  0.3624  162.1
 7.400  0.6951   87.9   1.098   -6.1  0.2594   11.8  0.3637  160.6
 7.600  0.6997   85.5   1.075   -8.5  0.2658   10.4  0.3663  158.6
 7.800  0.7057   82.8   1.053  -10.9  0.2721    8.8  0.3705  156.1
 8.000  0.7133   80.2   1.032  -13.5  0.2786    7.3  0.3754  153.7
 8.200  0.7187   77.4   1.005  -15.9  0.2833    5.4  0.3796  150.6
 8.400  0.7259   74.6   0.980  -18.4  0.2884    3.5  0.3849  147.7
 8.600  0.7349   71.9   0.954  -20.8  0.2918    1.6  0.3906  144.0
 8.800  0.7457   69.4   0.927  -23.0  0.2937   -0.3  0.3977  139.8
 9.000  0.7578   67.0   0.901  -25.4  0.2959   -2.2  0.4068  135.8
 9.200  0.7728   64.9   0.871  -27.3  0.2956   -3.7  0.4214  130.9
 9.400  0.7887   63.0   0.843  -29.3  0.2955   -5.2  0.4387  126.4
 9.600  0.8024   61.2   0.815  -31.0  0.2951   -6.4  0.4575  122.4
 9.800  0.8138   59.6   0.786  -32.4  0.2945   -7.3  0.4772  118.9
10.000  0.8257   58.1   0.758  -34.0  0.2939   -8.2  0.4985  115.7
!
!  f       NFmin   Gammaopt  rn/50
! GHz       dB    MAG  ANG    -
 0.450      0.83  0.28   16   0.15
 0.900      0.84  0.26   37   0.16
 1.900      1.07  0.14  103   0.12
 3.500      1.18  0.31 -149   0.11
!
! (c) 2016  Infineon Technologies AG, Munich
