! Infineon Technologies  Discrete & RF Semiconductors
! BFP460
! VCE =  1.5 V,  IC =  50 mA
! Common Emitter S-Parameters:                            Jan 2016
# GHz  S  MA  R  50
!  f         S11            S21            S12            S22
! GHz     MAG   ANG      MAG   ANG      MAG   ANG      MAG   ANG
 0.030  0.3253  -34.2  65.013  168.1  0.0048   83.6  0.8616  -13.2
 0.035  0.3263  -39.2  64.407  165.9  0.0054   81.5  0.8559  -15.7
 0.040  0.3298  -44.2  63.901  163.6  0.0060   79.9  0.8519  -18.2
 0.045  0.3309  -49.0  63.089  161.3  0.0066   78.7  0.8437  -20.6
 0.050  0.3344  -53.8  62.379  159.0  0.0073   77.7  0.8370  -23.0
 0.055  0.3391  -58.1  61.628  157.2  0.0079   75.5  0.8271  -25.3
 0.060  0.3457  -62.2  60.941  155.3  0.0085   73.7  0.8186  -27.7
 0.065  0.3514  -66.6  60.147  153.4  0.0091   73.2  0.8078  -29.8
 0.070  0.3592  -70.9  59.423  151.4  0.0097   72.8  0.7982  -32.0
 0.075  0.3661  -74.3  58.498  149.8  0.0102   71.4  0.7861  -34.1
 0.080  0.3743  -77.6  57.619  148.2  0.0108   70.1  0.7750  -36.2
 0.085  0.3771  -81.1  56.593  146.5  0.0112   69.5  0.7625  -38.1
 0.090  0.3813  -84.6  55.617  144.8  0.0117   69.0  0.7509  -40.1
 0.095  0.3856  -87.2  54.559  143.4  0.0121   68.0  0.7387  -41.9
 0.100  0.3907  -89.8  53.535  141.9  0.0126   67.0  0.7272  -43.8
 0.105  0.3956  -92.5  52.639  140.5  0.0130   66.3  0.7146  -45.5
 0.110  0.4014  -95.2  51.776  139.0  0.0135   65.6  0.7027  -47.3
 0.115  0.4043  -98.0  50.786  137.7  0.0138   65.1  0.6906  -48.9
 0.120  0.4081 -100.7  49.824  136.3  0.0142   64.6  0.6791  -50.6
 0.125  0.4109 -102.9  48.898  135.1  0.0146   64.0  0.6670  -52.1
 0.130  0.4144 -105.1  47.994  133.9  0.0150   63.5  0.6554  -53.7
 0.135  0.4173 -107.3  47.122  132.8  0.0153   63.0  0.6440  -55.1
 0.140  0.4209 -109.5  46.268  131.6  0.0156   62.6  0.6330  -56.6
 0.145  0.4238 -111.5  45.347  130.5  0.0159   62.1  0.6221  -58.0
 0.150  0.4271 -113.4  44.443  129.4  0.0162   61.7  0.6115  -59.4
 0.155  0.4279 -115.0  43.672  128.7  0.0165   61.4  0.6013  -60.4
 0.160  0.4290 -116.5  42.908  127.9  0.0168   61.2  0.5913  -61.4
 0.165  0.4304 -118.0  42.153  127.1  0.0171   60.9  0.5815  -62.5
 0.170  0.4322 -119.6  41.405  126.3  0.0174   60.6  0.5719  -63.6
 0.175  0.4342 -121.1  40.666  125.4  0.0176   60.4  0.5625  -64.8
 0.180  0.4365 -122.6  39.937  124.6  0.0179   60.2  0.5533  -66.0
 0.185  0.4392 -124.1  39.217  123.6  0.0182   59.9  0.5444  -67.2
 0.190  0.4421 -125.5  38.508  122.7  0.0185   59.7  0.5358  -68.4
 0.195  0.4453 -127.0  37.810  121.7  0.0188   59.5  0.5274  -69.8
 0.200  0.4488 -128.4  37.123  120.7  0.0191   59.3  0.5193  -71.1
 0.220  0.4528 -132.7  34.815  118.4  0.0200   59.1  0.4901  -74.4
 0.240  0.4592 -136.9  32.569  115.8  0.0209   59.0  0.4627  -78.2
 0.260  0.4646 -140.6  30.597  113.5  0.0219   58.9  0.4388  -81.6
 0.280  0.4682 -143.7  28.866  111.7  0.0228   59.0  0.4176  -84.5
 0.300  0.4731 -146.8  27.169  109.6  0.0237   59.1  0.3976  -87.7
 0.320  0.4750 -149.2  25.809  108.2  0.0246   59.3  0.3813  -90.1
 0.340  0.4777 -151.6  24.465  106.6  0.0255   59.5  0.3658  -92.7
 0.360  0.4797 -153.8  23.265  105.2  0.0263   59.7  0.3521  -95.1
 0.380  0.4809 -155.8  22.199  104.0  0.0272   60.0  0.3399  -97.2
 0.400  0.4826 -157.8  21.145  102.7  0.0281   60.3  0.3283  -99.5
 0.420  0.4840 -159.4  20.279  101.7  0.0290   60.6  0.3185 -101.4
 0.440  0.4859 -161.0  19.419  100.7  0.0299   60.8  0.3092 -103.4
 0.450  0.4869 -161.8  18.992  100.1  0.0303   60.9  0.3046 -104.4
 0.460  0.4873 -162.5  18.639   99.7  0.0307   61.0  0.3007 -105.2
 0.480  0.4883 -163.8  17.935   98.8  0.0316   61.3  0.2932 -106.9
 0.500  0.4896 -165.2  17.235   97.9  0.0325   61.6  0.2859 -108.7
 0.520  0.4902 -166.4  16.685   97.2  0.0334   61.9  0.2801 -110.1
 0.540  0.4909 -167.5  16.137   96.5  0.0343   62.1  0.2745 -111.5
 0.560  0.4919 -168.7  15.592   95.7  0.0353   62.4  0.2690 -113.0
 0.580  0.4930 -169.8  15.050   94.9  0.0362   62.6  0.2638 -114.5
 0.600  0.4944 -171.0  14.512   94.0  0.0371   62.8  0.2587 -116.1
 0.620  0.4949 -171.9  14.111   93.4  0.0380   63.0  0.2548 -117.3
 0.640  0.4955 -172.9  13.712   92.8  0.0390   63.1  0.2511 -118.5
 0.660  0.4962 -173.8  13.314   92.2  0.0399   63.3  0.2474 -119.7
 0.680  0.4971 -174.8  12.918   91.5  0.0409   63.5  0.2439 -121.0
 0.700  0.4981 -175.7  12.524   90.8  0.0418   63.6  0.2405 -122.3
 0.720  0.4985 -176.5  12.220   90.3  0.0427   63.7  0.2378 -123.3
 0.740  0.4989 -177.3  11.916   89.8  0.0437   63.8  0.2351 -124.4
 0.760  0.4994 -178.0  11.614   89.2  0.0446   63.9  0.2326 -125.4
 0.780  0.5001 -178.8  11.313   88.6  0.0456   63.9  0.2301 -126.5
 0.800  0.5008 -179.6  11.013   88.0  0.0465   64.0  0.2277 -127.6
 0.820  0.5013  179.7  10.776   87.6  0.0475   64.1  0.2259 -128.5
 0.840  0.5018  179.0  10.540   87.1  0.0484   64.2  0.2241 -129.3
 0.860  0.5024  178.3  10.304   86.6  0.0494   64.2  0.2223 -130.2
 0.880  0.5031  177.6  10.069   86.1  0.0503   64.3  0.2206 -131.1
 0.900  0.5039  176.9   9.835   85.6  0.0513   64.4  0.2190 -132.0
 0.920  0.5041  176.2   9.643   85.2  0.0522   64.4  0.2176 -132.8
 0.940  0.5043  175.6   9.451   84.7  0.0532   64.4  0.2163 -133.6
 0.960  0.5046  174.9   9.260   84.3  0.0541   64.4  0.2150 -134.4
 0.980  0.5050  174.3   9.070   83.8  0.0551   64.4  0.2138 -135.2
 1.000  0.5054  173.6   8.880   83.3  0.0560   64.4  0.2126 -136.0
 1.020  0.5058  173.0   8.722   82.9  0.0570   64.4  0.2117 -136.7
 1.040  0.5063  172.4   8.564   82.5  0.0580   64.3  0.2108 -137.3
 1.060  0.5068  171.9   8.406   82.1  0.0589   64.3  0.2099 -138.0
 1.080  0.5074  171.3   8.249   81.7  0.0599   64.2  0.2091 -138.7
 1.100  0.5080  170.7   8.093   81.2  0.0609   64.2  0.2083 -139.4
 1.120  0.5084  170.2   7.960   80.8  0.0619   64.2  0.2076 -140.0
 1.140  0.5088  169.6   7.828   80.4  0.0628   64.1  0.2069 -140.6
 1.160  0.5093  169.1   7.696   80.0  0.0638   64.1  0.2063 -141.2
 1.180  0.5098  168.5   7.564   79.6  0.0647   64.0  0.2057 -141.9
 1.200  0.5104  168.0   7.433   79.2  0.0657   64.0  0.2051 -142.5
 1.220  0.5109  167.5   7.320   78.8  0.0667   63.9  0.2047 -143.0
 1.240  0.5115  167.0   7.207   78.4  0.0677   63.9  0.2043 -143.5
 1.260  0.5121  166.5   7.095   78.0  0.0686   63.8  0.2039 -144.1
 1.280  0.5127  166.0   6.983   77.6  0.0696   63.8  0.2035 -144.6
 1.300  0.5134  165.5   6.871   77.2  0.0706   63.7  0.2032 -145.1
 1.320  0.5138  165.0   6.774   76.9  0.0716   63.6  0.2028 -145.6
 1.340  0.5142  164.5   6.678   76.5  0.0725   63.5  0.2025 -146.2
 1.360  0.5146  164.0   6.582   76.2  0.0735   63.4  0.2021 -146.7
 1.380  0.5151  163.5   6.486   75.8  0.0744   63.3  0.2018 -147.3
 1.400  0.5156  163.0   6.391   75.4  0.0754   63.2  0.2015 -147.8
 1.420  0.5161  162.5   6.307   75.0  0.0764   63.1  0.2014 -148.2
 1.440  0.5166  162.0   6.223   74.7  0.0773   63.0  0.2013 -148.7
 1.460  0.5172  161.6   6.139   74.3  0.0783   62.8  0.2012 -149.1
 1.480  0.5178  161.1   6.056   73.9  0.0792   62.7  0.2011 -149.6
 1.500  0.5184  160.6   5.973   73.5  0.0802   62.6  0.2010 -150.0
 1.520  0.5189  160.1   5.899   73.2  0.0812   62.5  0.2009 -150.4
 1.540  0.5195  159.6   5.826   72.8  0.0821   62.4  0.2008 -150.9
 1.560  0.5200  159.2   5.752   72.5  0.0831   62.3  0.2007 -151.3
 1.580  0.5206  158.7   5.679   72.2  0.0840   62.2  0.2007 -151.8
 1.600  0.5213  158.2   5.606   71.8  0.0850   62.1  0.2006 -152.2
 1.620  0.5216  157.8   5.541   71.5  0.0860   62.0  0.2006 -152.6
 1.640  0.5220  157.4   5.477   71.1  0.0869   61.8  0.2006 -153.0
 1.660  0.5224  156.9   5.413   70.7  0.0879   61.7  0.2006 -153.3
 1.680  0.5228  156.5   5.349   70.4  0.0888   61.5  0.2007 -153.7
 1.700  0.5233  156.1   5.285   70.0  0.0898   61.4  0.2007 -154.1
 1.720  0.5237  155.7   5.226   69.7  0.0908   61.3  0.2008 -154.5
 1.740  0.5241  155.2   5.168   69.3  0.0917   61.1  0.2009 -154.9
 1.760  0.5246  154.8   5.110   69.0  0.0927   61.0  0.2010 -155.3
 1.780  0.5251  154.3   5.052   68.7  0.0936   60.8  0.2011 -155.7
 1.800  0.5256  153.9   4.994   68.3  0.0946   60.7  0.2012 -156.1
 1.820  0.5261  153.5   4.943   68.0  0.0955   60.5  0.2013 -156.5
 1.840  0.5267  153.1   4.892   67.6  0.0965   60.4  0.2015 -156.9
 1.860  0.5273  152.6   4.842   67.3  0.0974   60.2  0.2016 -157.2
 1.880  0.5279  152.2   4.791   67.0  0.0984   60.1  0.2017 -157.6
 1.900  0.5286  151.8   4.741   66.6  0.0993   59.9  0.2019 -158.0
 1.920  0.5291  151.4   4.694   66.3  0.1002   59.8  0.2021 -158.4
 1.940  0.5296  151.0   4.647   65.9  0.1012   59.6  0.2024 -158.7
 1.960  0.5302  150.5   4.601   65.5  0.1021   59.5  0.2026 -159.1
 1.980  0.5308  150.1   4.554   65.2  0.1031   59.3  0.2028 -159.4
 2.000  0.5314  149.7   4.508   64.8  0.1040   59.2  0.2031 -159.8
 2.020  0.5321  149.3   4.467   64.5  0.1049   59.0  0.2034 -160.2
 2.040  0.5329  148.9   4.425   64.2  0.1058   58.8  0.2037 -160.6
 2.060  0.5337  148.5   4.384   63.9  0.1067   58.7  0.2041 -161.0
 2.080  0.5345  148.1   4.343   63.6  0.1077   58.5  0.2044 -161.3
 2.100  0.5353  147.7   4.302   63.2  0.1086   58.3  0.2047 -161.7
 2.120  0.5362  147.3   4.261   62.9  0.1095   58.1  0.2051 -162.1
 2.140  0.5371  146.9   4.221   62.6  0.1104   58.0  0.2055 -162.5
 2.160  0.5380  146.5   4.180   62.2  0.1114   57.8  0.2058 -162.9
 2.180  0.5389  146.1   4.140   61.9  0.1123   57.7  0.2062 -163.2
 2.200  0.5399  145.7   4.100   61.5  0.1132   57.5  0.2066 -163.6
 2.220  0.5406  145.3   4.066   61.2  0.1141   57.3  0.2071 -164.0
 2.240  0.5413  144.9   4.031   60.9  0.1150   57.1  0.2075 -164.4
 2.260  0.5421  144.5   3.997   60.6  0.1159   56.9  0.2080 -164.7
 2.280  0.5429  144.1   3.963   60.2  0.1168   56.7  0.2085 -165.1
 2.300  0.5437  143.7   3.929   59.9  0.1177   56.6  0.2090 -165.5
 2.320  0.5445  143.3   3.895   59.6  0.1186   56.4  0.2096 -165.8
 2.340  0.5454  143.0   3.861   59.3  0.1196   56.2  0.2101 -166.2
 2.360  0.5463  142.6   3.828   58.9  0.1205   56.0  0.2106 -166.6
 2.380  0.5472  142.2   3.794   58.6  0.1214   55.9  0.2112 -166.9
 2.400  0.5481  141.8   3.761   58.2  0.1223   55.7  0.2117 -167.3
 2.420  0.5489  141.4   3.731   57.9  0.1232   55.5  0.2124 -167.7
 2.440  0.5497  141.1   3.702   57.6  0.1241   55.3  0.2130 -168.0
 2.460  0.5505  140.7   3.672   57.3  0.1249   55.2  0.2137 -168.4
 2.480  0.5513  140.3   3.643   57.0  0.1258   55.0  0.2144 -168.8
 2.500  0.5522  139.9   3.614   56.7  0.1267   54.8  0.2150 -169.1
 2.520  0.5530  139.6   3.585   56.4  0.1276   54.7  0.2157 -169.5
 2.540  0.5539  139.2   3.555   56.1  0.1284   54.5  0.2164 -169.8
 2.560  0.5549  138.8   3.527   55.8  0.1293   54.3  0.2172 -170.2
 2.580  0.5558  138.5   3.498   55.4  0.1302   54.2  0.2179 -170.6
 2.600  0.5568  138.1   3.469   55.1  0.1311   54.0  0.2186 -170.9
 2.620  0.5575  137.8   3.443   54.8  0.1319   53.8  0.2194 -171.3
 2.640  0.5582  137.4   3.418   54.5  0.1328   53.6  0.2202 -171.6
 2.660  0.5589  137.1   3.393   54.2  0.1336   53.4  0.2209 -171.9
 2.680  0.5596  136.7   3.367   53.9  0.1345   53.2  0.2217 -172.3
 2.700  0.5604  136.4   3.342   53.6  0.1353   53.0  0.2226 -172.6
 2.720  0.5611  136.0   3.317   53.3  0.1362   52.8  0.2234 -173.0
 2.740  0.5619  135.7   3.292   53.0  0.1370   52.6  0.2242 -173.3
 2.760  0.5627  135.4   3.267   52.7  0.1379   52.5  0.2250 -173.6
 2.780  0.5636  135.0   3.243   52.3  0.1387   52.3  0.2259 -174.0
 2.800  0.5644  134.7   3.218   52.0  0.1396   52.1  0.2267 -174.3
 2.820  0.5653  134.4   3.196   51.7  0.1404   51.9  0.2275 -174.6
 2.840  0.5662  134.0   3.173   51.4  0.1412   51.7  0.2284 -174.9
 2.860  0.5671  133.7   3.151   51.1  0.1420   51.5  0.2292 -175.3
 2.880  0.5681  133.4   3.129   50.8  0.1429   51.4  0.2301 -175.6
 2.900  0.5691  133.0   3.106   50.5  0.1437   51.2  0.2309 -175.9
 2.920  0.5701  132.7   3.084   50.2  0.1445   51.0  0.2318 -176.2
 2.940  0.5711  132.4   3.062   49.9  0.1453   50.8  0.2326 -176.5
 2.960  0.5721  132.1   3.040   49.6  0.1461   50.6  0.2335 -176.8
 2.980  0.5731  131.7   3.019   49.2  0.1470   50.5  0.2344 -177.1
 3.000  0.5742  131.4   2.997   48.9  0.1478   50.3  0.2353 -177.4
 3.100  0.5780  129.8   2.905   47.6  0.1516   49.3  0.2396 -178.9
 3.200  0.5822  128.1   2.815   46.3  0.1555   48.3  0.2441  179.6
 3.300  0.5869  126.5   2.727   44.8  0.1594   47.3  0.2487  178.2
 3.400  0.5920  124.9   2.640   43.3  0.1634   46.4  0.2535  176.8
 3.500  0.5976  123.4   2.556   41.6  0.1674   45.6  0.2584  175.5
 3.600  0.6025  121.9   2.486   40.4  0.1708   44.6  0.2633  173.9
 3.700  0.6077  120.5   2.418   39.1  0.1742   43.7  0.2685  172.3
 3.800  0.6133  119.1   2.350   37.8  0.1776   42.7  0.2738  170.8
 3.900  0.6193  117.7   2.284   36.3  0.1812   41.8  0.2793  169.4
 4.000  0.6256  116.4   2.220   34.8  0.1847   41.0  0.2850  168.0
 4.100  0.6305  115.2   2.164   33.6  0.1877   40.1  0.2910  166.6
 4.200  0.6357  114.0   2.110   32.4  0.1908   39.2  0.2972  165.2
 4.300  0.6412  112.8   2.056   31.2  0.1939   38.4  0.3035  163.9
 4.400  0.6469  111.6   2.003   29.8  0.1970   37.6  0.3101  162.6
 4.500  0.6529  110.5   1.952   28.4  0.2002   36.8  0.3167  161.4
 4.600  0.6565  109.4   1.910   27.3  0.2031   36.1  0.3213  160.4
 4.700  0.6603  108.3   1.868   26.2  0.2061   35.3  0.3260  159.4
 4.800  0.6643  107.2   1.827   25.1  0.2091   34.6  0.3309  158.4
 4.900  0.6687  106.1   1.786   23.9  0.2121   34.0  0.3358  157.4
 5.000  0.6732  105.0   1.747   22.6  0.2152   33.3  0.3408  156.5
 5.100  0.6757  104.1   1.714   21.6  0.2184   32.5  0.3437  155.7
 5.200  0.6783  103.2   1.682   20.6  0.2217   31.7  0.3467  154.9
 5.300  0.6812  102.3   1.650   19.5  0.2250   31.0  0.3498  154.1
 5.400  0.6841  101.4   1.619   18.4  0.2283   30.2  0.3529  153.3
 5.500  0.6873  100.5   1.589   17.3  0.2317   29.5  0.3561  152.5
 5.600  0.6892   99.7   1.563   16.3  0.2346   28.6  0.3594  151.7
 5.700  0.6912   98.9   1.538   15.2  0.2376   27.8  0.3628  151.0
 5.800  0.6933   98.1   1.513   14.1  0.2407   27.0  0.3663  150.2
 5.900  0.6955   97.4   1.489   13.0  0.2438   26.2  0.3698  149.5
 6.000  0.6979   96.6   1.465   11.8  0.2469   25.4  0.3734  148.8
 6.100  0.6979   95.8   1.443   10.8  0.2495   24.6  0.3754  148.3
 6.200  0.6981   95.0   1.421    9.9  0.2521   23.8  0.3775  147.9
 6.300  0.6984   94.2   1.400    8.8  0.2548   23.1  0.3796  147.4
 6.400  0.6988   93.4   1.379    7.8  0.2575   22.3  0.3817  146.9
 6.500  0.6994   92.6   1.359    6.7  0.2603   21.6  0.3838  146.5
 6.600  0.6987   91.7   1.342    5.8  0.2633   20.9  0.3831  146.1
 6.800  0.6977   89.9   1.310    3.8  0.2694   19.5  0.3816  145.2
 7.000  0.6974   88.1   1.279    1.8  0.2756   18.1  0.3803  144.4
 7.200  0.6988   85.9   1.253   -0.3  0.2821   16.4  0.3796  142.9
 7.400  0.7011   83.8   1.229   -2.5  0.2889   14.7  0.3791  141.4
 7.600  0.7047   81.5   1.205   -4.8  0.2952   12.9  0.3807  139.6
 7.800  0.7097   79.0   1.180   -7.2  0.3012   11.0  0.3846  137.4
 8.000  0.7159   76.6   1.158   -9.7  0.3075    9.1  0.3890  135.2
 8.200  0.7207   74.0   1.128  -12.0  0.3113    6.9  0.3935  132.4
 8.400  0.7269   71.4   1.100  -14.5  0.3155    4.7  0.3989  129.7
 8.600  0.7352   68.9   1.071  -16.9  0.3180    2.5  0.4059  126.5
 8.800  0.7452   66.6   1.041  -19.1  0.3186    0.4  0.4153  122.7
 9.000  0.7564   64.4   1.012  -21.5  0.3197   -1.7  0.4264  119.1
 9.200  0.7716   62.6   0.979  -23.3  0.3180   -3.2  0.4434  115.0
 9.400  0.7876   60.8   0.947  -25.2  0.3166   -4.8  0.4626  111.2
 9.600  0.8015   59.3   0.915  -26.9  0.3151   -6.1  0.4820  107.9
 9.800  0.8134   57.8   0.884  -28.2  0.3134   -7.0  0.5010  105.0
10.000  0.8257   56.4   0.854  -29.7  0.3118   -8.0  0.5213  102.3
!
!  f       NFmin   Gammaopt  rn/50
! GHz       dB    MAG  ANG    -
 0.450      1.86  0.32 -170   0.13
 0.900      1.89  0.29 -162   0.14
 1.900      1.98  0.40 -140   0.16
 3.500      1.78  0.62 -116   0.27
!
! (c) 2016  Infineon Technologies AG, Munich
