! Infineon Technologies  Discrete & RF Semiconductors
! BFP460
! VCE =  3.0 V,  IC =  1.0 mA
! Common Emitter S-Parameters:                            Jan 2016
# GHz  S  MA  R  50
!  f         S11            S21            S12            S22
! GHz     MAG   ANG      MAG   ANG      MAG   ANG      MAG   ANG
 0.030  0.9707   -2.5   3.783  178.2  0.0062   87.8  0.9983   -1.6
 0.035  0.9707   -2.9   3.777  177.7  0.0073   87.5  0.9980   -1.8
 0.040  0.9708   -3.3   3.771  177.2  0.0084   87.3  0.9978   -2.0
 0.045  0.9710   -3.8   3.763  176.7  0.0094   87.1  0.9975   -2.1
 0.050  0.9713   -4.2   3.755  176.1  0.0104   86.9  0.9972   -2.3
 0.055  0.9716   -4.8   3.756  175.9  0.0114   86.6  0.9971   -2.5
 0.060  0.9720   -5.4   3.758  175.7  0.0125   86.3  0.9970   -2.8
 0.065  0.9704   -5.8   3.775  175.2  0.0135   86.1  0.9970   -3.0
 0.070  0.9688   -6.3   3.793  174.8  0.0146   85.9  0.9970   -3.2
 0.075  0.9700   -6.6   3.785  174.7  0.0156   85.6  0.9968   -3.4
 0.080  0.9712   -6.9   3.777  174.6  0.0167   85.3  0.9966   -3.7
 0.085  0.9698   -7.4   3.777  174.2  0.0177   84.9  0.9960   -3.9
 0.090  0.9684   -7.9   3.778  173.8  0.0187   84.5  0.9954   -4.2
 0.095  0.9689   -8.4   3.768  173.5  0.0197   84.5  0.9952   -4.4
 0.100  0.9694   -8.8   3.758  173.2  0.0207   84.5  0.9951   -4.7
 0.105  0.9690   -9.2   3.762  172.9  0.0217   84.0  0.9947   -4.9
 0.110  0.9687   -9.7   3.766  172.6  0.0228   83.5  0.9943   -5.1
 0.115  0.9689  -10.2   3.770  172.2  0.0238   83.1  0.9939   -5.3
 0.120  0.9691  -10.6   3.774  171.9  0.0249   82.8  0.9936   -5.6
 0.125  0.9680  -10.9   3.771  171.6  0.0259   82.6  0.9932   -5.8
 0.130  0.9670  -11.3   3.769  171.3  0.0269   82.5  0.9929   -6.0
 0.135  0.9672  -11.8   3.773  170.9  0.0279   82.1  0.9925   -6.2
 0.140  0.9675  -12.3   3.778  170.5  0.0289   81.8  0.9922   -6.5
 0.145  0.9673  -12.7   3.772  170.1  0.0299   81.5  0.9917   -6.7
 0.150  0.9671  -13.1   3.766  169.7  0.0309   81.3  0.9913   -6.9
 0.155  0.9664  -13.5   3.764  169.4  0.0319   80.9  0.9907   -7.1
 0.160  0.9657  -14.0   3.762  169.1  0.0329   80.6  0.9901   -7.4
 0.165  0.9651  -14.4   3.761  168.7  0.0340   80.3  0.9896   -7.6
 0.170  0.9646  -14.8   3.759  168.4  0.0350   80.0  0.9890   -7.8
 0.175  0.9641  -15.2   3.758  168.1  0.0360   79.7  0.9885   -8.0
 0.180  0.9636  -15.7   3.757  167.8  0.0370   79.4  0.9880   -8.3
 0.185  0.9632  -16.1   3.756  167.5  0.0380   79.2  0.9875   -8.5
 0.190  0.9629  -16.5   3.755  167.1  0.0391   78.9  0.9870   -8.7
 0.195  0.9626  -17.0   3.754  166.8  0.0401   78.7  0.9865   -9.0
 0.200  0.9624  -17.4   3.753  166.5  0.0411   78.5  0.9861   -9.2
 0.220  0.9594  -19.2   3.742  165.1  0.0450   77.3  0.9835  -10.1
 0.240  0.9573  -20.9   3.733  163.8  0.0489   76.3  0.9811  -11.0
 0.260  0.9549  -22.6   3.721  162.5  0.0528   75.1  0.9783  -11.9
 0.280  0.9520  -24.3   3.706  161.2  0.0566   73.9  0.9750  -12.8
 0.300  0.9499  -26.0   3.693  159.9  0.0605   72.9  0.9719  -13.7
 0.320  0.9459  -27.7   3.677  158.6  0.0642   71.7  0.9681  -14.6
 0.340  0.9428  -29.4   3.662  157.3  0.0678   70.7  0.9646  -15.5
 0.360  0.9395  -31.1   3.646  156.0  0.0715   69.6  0.9608  -16.3
 0.380  0.9359  -32.7   3.629  154.7  0.0751   68.5  0.9566  -17.2
 0.400  0.9331  -34.3   3.613  153.4  0.0787   67.5  0.9527  -18.0
 0.420  0.9282  -36.0   3.592  152.1  0.0821   66.4  0.9485  -18.8
 0.440  0.9241  -37.7   3.574  150.8  0.0856   65.4  0.9444  -19.6
 0.450  0.9224  -38.5   3.565  150.2  0.0873   64.9  0.9425  -20.0
 0.460  0.9200  -39.3   3.554  149.6  0.0889   64.4  0.9400  -20.4
 0.480  0.9158  -40.9   3.533  148.4  0.0921   63.3  0.9351  -21.2
 0.500  0.9123  -42.5   3.513  147.2  0.0954   62.4  0.9304  -22.0
 0.520  0.9065  -44.1   3.489  146.0  0.0984   61.3  0.9253  -22.7
 0.540  0.9014  -45.7   3.466  144.8  0.1014   60.2  0.9204  -23.5
 0.560  0.8970  -47.3   3.445  143.5  0.1044   59.2  0.9156  -24.3
 0.580  0.8933  -48.9   3.425  142.3  0.1075   58.3  0.9110  -25.0
 0.600  0.8903  -50.5   3.407  141.0  0.1106   57.4  0.9066  -25.8
 0.620  0.8842  -52.0   3.381  139.9  0.1132   56.4  0.9010  -26.5
 0.640  0.8787  -53.5   3.356  138.7  0.1159   55.4  0.8955  -27.3
 0.660  0.8739  -55.1   3.332  137.6  0.1186   54.5  0.8901  -28.0
 0.680  0.8697  -56.6   3.310  136.4  0.1213   53.6  0.8849  -28.7
 0.700  0.8661  -58.2   3.289  135.2  0.1241   52.7  0.8799  -29.5
 0.720  0.8604  -59.6   3.262  134.1  0.1264   51.8  0.8743  -30.1
 0.740  0.8552  -61.1   3.236  133.1  0.1287   50.8  0.8688  -30.8
 0.760  0.8505  -62.5   3.211  132.0  0.1310   50.0  0.8634  -31.5
 0.780  0.8464  -64.0   3.187  130.8  0.1334   49.1  0.8581  -32.1
 0.800  0.8429  -65.5   3.165  129.7  0.1358   48.3  0.8530  -32.8
 0.820  0.8374  -66.9   3.140  128.7  0.1378   47.4  0.8474  -33.4
 0.840  0.8323  -68.3   3.115  127.7  0.1398   46.6  0.8418  -34.0
 0.860  0.8278  -69.7   3.092  126.7  0.1419   45.8  0.8364  -34.6
 0.880  0.8238  -71.2   3.069  125.7  0.1440   45.0  0.8310  -35.3
 0.900  0.8203  -72.6   3.048  124.7  0.1461   44.2  0.8258  -35.9
 0.920  0.8147  -73.9   3.022  123.7  0.1478   43.4  0.8204  -36.4
 0.940  0.8095  -75.3   2.998  122.7  0.1496   42.6  0.8152  -37.0
 0.960  0.8047  -76.7   2.974  121.7  0.1514   41.9  0.8100  -37.6
 0.980  0.8005  -78.1   2.951  120.7  0.1532   41.1  0.8048  -38.1
 1.000  0.7967  -79.5   2.929  119.7  0.1550   40.4  0.7998  -38.7
 1.020  0.7917  -80.8   2.903  118.8  0.1565   39.7  0.7947  -39.2
 1.040  0.7870  -82.1   2.878  117.9  0.1580   38.9  0.7897  -39.8
 1.060  0.7828  -83.4   2.854  116.9  0.1595   38.2  0.7847  -40.3
 1.080  0.7790  -84.7   2.831  116.0  0.1610   37.5  0.7798  -40.8
 1.100  0.7756  -86.0   2.808  115.0  0.1626   36.8  0.7750  -41.4
 1.120  0.7708  -87.3   2.784  114.1  0.1639   36.1  0.7702  -41.9
 1.140  0.7664  -88.5   2.762  113.2  0.1651   35.4  0.7654  -42.4
 1.160  0.7623  -89.8   2.739  112.3  0.1664   34.7  0.7607  -42.9
 1.180  0.7587  -91.1   2.718  111.4  0.1678   34.1  0.7560  -43.4
 1.200  0.7554  -92.4   2.697  110.5  0.1691   33.4  0.7514  -43.9
 1.220  0.7512  -93.6   2.675  109.7  0.1701   32.7  0.7468  -44.4
 1.240  0.7474  -94.8   2.653  108.8  0.1712   32.1  0.7422  -44.8
 1.260  0.7439  -96.1   2.632  108.0  0.1723   31.5  0.7377  -45.3
 1.280  0.7408  -97.3   2.612  107.1  0.1734   30.8  0.7333  -45.8
 1.300  0.7380  -98.6   2.592  106.2  0.1745   30.2  0.7289  -46.3
 1.320  0.7340  -99.8   2.570  105.4  0.1753   29.6  0.7245  -46.7
 1.340  0.7304 -100.9   2.549  104.6  0.1762   29.0  0.7201  -47.1
 1.360  0.7270 -102.1   2.529  103.8  0.1770   28.4  0.7158  -47.5
 1.380  0.7240 -103.3   2.509  103.0  0.1779   27.9  0.7115  -48.0
 1.400  0.7213 -104.5   2.489  102.2  0.1788   27.3  0.7072  -48.4
 1.420  0.7176 -105.6   2.469  101.4  0.1795   26.7  0.7033  -48.8
 1.440  0.7141 -106.7   2.450  100.6  0.1803   26.2  0.6994  -49.2
 1.460  0.7110 -107.9   2.431   99.8  0.1810   25.6  0.6955  -49.6
 1.480  0.7081 -109.0   2.413   99.0  0.1818   25.1  0.6917  -50.0
 1.500  0.7055 -110.2   2.395   98.2  0.1826   24.5  0.6879  -50.4
 1.520  0.7021 -111.3   2.376   97.5  0.1831   24.0  0.6840  -50.8
 1.540  0.6990 -112.5   2.357   96.7  0.1837   23.5  0.6802  -51.2
 1.560  0.6961 -113.6   2.339   96.0  0.1842   22.9  0.6763  -51.6
 1.580  0.6935 -114.7   2.321   95.2  0.1848   22.4  0.6726  -52.0
 1.600  0.6912 -115.9   2.304   94.4  0.1854   21.9  0.6688  -52.4
 1.620  0.6884 -116.9   2.286   93.7  0.1859   21.4  0.6655  -52.8
 1.640  0.6859 -118.0   2.269   93.0  0.1864   20.9  0.6622  -53.1
 1.660  0.6836 -119.0   2.252   92.3  0.1869   20.4  0.6590  -53.5
 1.680  0.6815 -120.0   2.235   91.6  0.1874   19.9  0.6558  -53.8
 1.700  0.6796 -121.1   2.219   90.9  0.1879   19.4  0.6526  -54.2
 1.720  0.6771 -122.1   2.203   90.2  0.1882   18.9  0.6493  -54.6
 1.740  0.6748 -123.2   2.186   89.5  0.1885   18.5  0.6460  -54.9
 1.760  0.6728 -124.3   2.171   88.8  0.1888   18.0  0.6427  -55.3
 1.780  0.6710 -125.3   2.155   88.1  0.1892   17.6  0.6395  -55.6
 1.800  0.6694 -126.4   2.140   87.4  0.1895   17.1  0.6363  -56.0
 1.820  0.6672 -127.4   2.125   86.8  0.1897   16.7  0.6332  -56.3
 1.840  0.6651 -128.4   2.110   86.1  0.1900   16.2  0.6302  -56.7
 1.860  0.6633 -129.4   2.095   85.4  0.1902   15.8  0.6271  -57.0
 1.880  0.6617 -130.5   2.080   84.8  0.1905   15.3  0.6241  -57.4
 1.900  0.6603 -131.5   2.066   84.1  0.1908   14.9  0.6211  -57.7
 1.920  0.6584 -132.5   2.051   83.5  0.1909   14.5  0.6183  -58.0
 1.940  0.6567 -133.5   2.037   82.8  0.1910   14.1  0.6156  -58.4
 1.960  0.6551 -134.5   2.023   82.1  0.1912   13.6  0.6129  -58.7
 1.980  0.6538 -135.5   2.009   81.5  0.1913   13.2  0.6102  -59.1
 2.000  0.6527 -136.5   1.996   80.8  0.1915   12.8  0.6075  -59.4
 2.020  0.6506 -137.4   1.982   80.2  0.1915   12.4  0.6048  -59.7
 2.040  0.6487 -138.4   1.968   79.6  0.1915   12.0  0.6022  -60.0
 2.060  0.6469 -139.4   1.954   79.0  0.1915   11.6  0.5996  -60.3
 2.080  0.6454 -140.3   1.940   78.4  0.1916   11.2  0.5970  -60.6
 2.100  0.6440 -141.3   1.927   77.8  0.1916   10.8  0.5944  -61.0
 2.120  0.6428 -142.3   1.914   77.1  0.1916   10.5  0.5919  -61.3
 2.140  0.6418 -143.3   1.901   76.5  0.1917   10.1  0.5893  -61.6
 2.160  0.6410 -144.2   1.888   75.8  0.1917    9.7  0.5868  -61.9
 2.180  0.6403 -145.2   1.876   75.2  0.1918    9.3  0.5843  -62.3
 2.200  0.6399 -146.2   1.864   74.5  0.1919    8.9  0.5818  -62.6
 2.220  0.6385 -147.1   1.852   73.9  0.1917    8.5  0.5794  -62.9
 2.240  0.6373 -148.0   1.840   73.4  0.1916    8.2  0.5770  -63.2
 2.260  0.6362 -148.9   1.828   72.8  0.1914    7.8  0.5746  -63.6
 2.280  0.6353 -149.8   1.816   72.2  0.1912    7.5  0.5723  -63.9
 2.300  0.6345 -150.7   1.805   71.6  0.1911    7.1  0.5700  -64.2
 2.320  0.6339 -151.6   1.793   71.0  0.1910    6.7  0.5677  -64.5
 2.340  0.6334 -152.5   1.782   70.4  0.1908    6.4  0.5654  -64.9
 2.360  0.6331 -153.4   1.771   69.8  0.1907    6.0  0.5631  -65.2
 2.380  0.6330 -154.3   1.760   69.1  0.1906    5.7  0.5608  -65.6
 2.400  0.6330 -155.2   1.750   68.5  0.1905    5.3  0.5586  -65.9
 2.420  0.6321 -156.1   1.739   68.0  0.1902    5.0  0.5565  -66.2
 2.440  0.6313 -156.9   1.727   67.4  0.1900    4.7  0.5544  -66.5
 2.460  0.6306 -157.8   1.716   66.9  0.1897    4.3  0.5524  -66.8
 2.480  0.6301 -158.7   1.706   66.3  0.1895    4.0  0.5504  -67.2
 2.500  0.6297 -159.5   1.695   65.7  0.1893    3.7  0.5483  -67.5
 2.520  0.6295 -160.4   1.684   65.2  0.1890    3.4  0.5463  -67.8
 2.540  0.6294 -161.3   1.674   64.6  0.1888    3.1  0.5443  -68.1
 2.560  0.6295 -162.2   1.664   64.0  0.1886    2.7  0.5424  -68.4
 2.580  0.6297 -163.0   1.654   63.4  0.1884    2.4  0.5404  -68.8
 2.600  0.6301 -163.9   1.644   62.8  0.1882    2.1  0.5385  -69.1
 2.620  0.6295 -164.7   1.634   62.3  0.1878    1.8  0.5368  -69.4
 2.640  0.6290 -165.5   1.624   61.8  0.1875    1.5  0.5350  -69.8
 2.660  0.6286 -166.3   1.614   61.2  0.1871    1.2  0.5333  -70.1
 2.680  0.6283 -167.1   1.604   60.7  0.1867    0.9  0.5317  -70.5
 2.700  0.6282 -167.9   1.594   60.2  0.1864    0.6  0.5300  -70.8
 2.720  0.6282 -168.7   1.585   59.6  0.1860    0.3  0.5284  -71.2
 2.740  0.6283 -169.5   1.575   59.1  0.1857    0.0  0.5267  -71.5
 2.760  0.6286 -170.3   1.566   58.5  0.1854   -0.3  0.5251  -71.9
 2.780  0.6289 -171.1   1.557   58.0  0.1850   -0.6  0.5236  -72.2
 2.800  0.6294 -171.9   1.548   57.4  0.1847   -0.9  0.5220  -72.6
 2.820  0.6290 -172.7   1.539   56.9  0.1842   -1.1  0.5204  -72.9
 2.840  0.6287 -173.4   1.529   56.4  0.1838   -1.4  0.5188  -73.3
 2.860  0.6285 -174.2   1.520   55.9  0.1833   -1.6  0.5173  -73.6
 2.880  0.6285 -174.9   1.511   55.4  0.1828   -1.9  0.5157  -73.9
 2.900  0.6285 -175.7   1.502   54.9  0.1824   -2.1  0.5142  -74.3
 2.920  0.6287 -176.5   1.494   54.4  0.1819   -2.4  0.5127  -74.6
 2.940  0.6289 -177.2   1.485   53.8  0.1814   -2.6  0.5112  -75.0
 2.960  0.6293 -178.0   1.477   53.3  0.1810   -2.9  0.5098  -75.3
 2.980  0.6298 -178.7   1.468   52.7  0.1805   -3.1  0.5083  -75.7
 3.000  0.6304 -179.5   1.460   52.2  0.1801   -3.4  0.5069  -76.0
 3.100  0.6285  177.0   1.418   50.1  0.1771   -4.3  0.5004  -77.7
 3.200  0.6288  173.6   1.377   47.8  0.1742   -5.2  0.4943  -79.4
 3.300  0.6314  170.1   1.339   45.4  0.1714   -6.2  0.4887  -81.2
 3.400  0.6363  166.7   1.304   42.9  0.1686   -7.2  0.4836  -83.0
 3.500  0.6434  163.4   1.271   40.2  0.1658   -8.2  0.4789  -84.8
 3.600  0.6445  160.4   1.237   38.3  0.1625   -8.6  0.4737  -86.6
 3.700  0.6474  157.4   1.204   36.3  0.1592   -9.0  0.4691  -88.5
 3.800  0.6520  154.4   1.173   34.1  0.1559   -9.4  0.4649  -90.5
 3.900  0.6583  151.5   1.144   31.9  0.1527   -9.8  0.4613  -92.4
 4.000  0.6663  148.7   1.116   29.5  0.1494  -10.3  0.4582  -94.4
 4.100  0.6692  146.3   1.087   27.8  0.1463  -10.1  0.4554  -96.5
 4.200  0.6733  143.9   1.059   26.0  0.1432   -9.9  0.4532  -98.7
 4.300  0.6785  141.6   1.033   24.0  0.1402   -9.7  0.4516 -100.9
 4.400  0.6849  139.3   1.007   22.0  0.1371   -9.5  0.4507 -103.1
 4.500  0.6923  137.0   0.983   19.9  0.1340   -9.3  0.4505 -105.3
 4.600  0.6951  135.0   0.959   18.4  0.1317   -8.4  0.4504 -107.5
 4.700  0.6988  133.1   0.936   16.8  0.1294   -7.5  0.4508 -109.6
 4.800  0.7032  131.2   0.914   15.1  0.1272   -6.5  0.4520 -111.8
 4.900  0.7084  129.3   0.893   13.3  0.1250   -5.5  0.4537 -113.9
 5.000  0.7144  127.4   0.872   11.5  0.1228   -4.5  0.4561 -116.0
 5.100  0.7174  125.8   0.852   10.2  0.1221   -3.1  0.4573 -118.0
 5.200  0.7209  124.2   0.833    8.9  0.1214   -1.8  0.4591 -120.0
 5.300  0.7250  122.7   0.814    7.5  0.1208   -0.4  0.4614 -121.9
 5.400  0.7297  121.1   0.796    6.0  0.1203    1.0  0.4642 -123.9
 5.500  0.7348  119.6   0.778    4.5  0.1199    2.4  0.4676 -125.8
 5.600  0.7376  118.3   0.762    3.4  0.1207    3.8  0.4696 -127.9
 5.700  0.7409  116.9   0.747    2.2  0.1216    5.1  0.4722 -129.9
 5.800  0.7445  115.6   0.732    1.0  0.1226    6.5  0.4754 -131.9
 5.900  0.7485  114.3   0.717   -0.3  0.1236    7.8  0.4792 -133.9
 6.000  0.7529  113.0   0.703   -1.6  0.1247    9.1  0.4835 -135.9
 6.100  0.7535  111.8   0.690   -2.6  0.1267   10.3  0.4862 -137.8
 6.200  0.7544  110.6   0.677   -3.6  0.1288   11.4  0.4894 -139.6
 6.300  0.7556  109.4   0.664   -4.7  0.1309   12.4  0.4931 -141.4
 6.400  0.7572  108.2   0.651   -5.8  0.1330   13.5  0.4973 -143.2
 6.500  0.7591  107.0   0.639   -6.9  0.1352   14.5  0.5020 -144.9
 6.600  0.7590  105.8   0.628   -7.7  0.1384   15.3  0.5036 -146.3
 6.800  0.7597  103.3   0.607   -9.3  0.1448   16.8  0.5078 -149.0
 7.000  0.7619  100.9   0.586  -11.1  0.1514   18.2  0.5131 -151.7
 7.200  0.7642   98.0   0.571  -12.7  0.1600   18.7  0.5129 -154.5
 7.400  0.7685   95.1   0.556  -14.3  0.1686   19.2  0.5139 -157.4
 7.600  0.7734   92.1   0.542  -16.0  0.1777   19.1  0.5147 -160.5
 7.800  0.7792   88.9   0.529  -17.7  0.1873   18.6  0.5157 -164.0
 8.000  0.7874   85.7   0.517  -19.4  0.1969   18.1  0.5186 -167.5
 8.200  0.7904   82.3   0.503  -20.9  0.2060   16.7  0.5177 -171.4
 8.400  0.7961   79.0   0.490  -22.5  0.2152   15.4  0.5192 -175.4
 8.600  0.8027   75.8   0.477  -23.9  0.2232   13.9  0.5189 -179.6
 8.800  0.8098   72.8   0.464  -25.3  0.2301   12.1  0.5175  175.7
 9.000  0.8191   69.8   0.452  -26.7  0.2371   10.4  0.5196  171.0
 9.200  0.8292   67.4   0.440  -27.7  0.2414    8.8  0.5231  165.2
 9.400  0.8406   65.1   0.428  -28.8  0.2459    7.2  0.5317  159.6
 9.600  0.8502   63.1   0.416  -29.7  0.2498    5.8  0.5437  154.2
 9.800  0.8577   61.3   0.403  -30.4  0.2530    4.6  0.5588  149.0
10.000  0.8660   59.6   0.391  -31.2  0.2563    3.5  0.5783  144.1
!
!  f       NFmin   Gammaopt  rn/50
! GHz       dB    MAG  ANG    -
 0.450      0.69  0.73   19   0.45
 0.900      0.78  0.68   41   0.42
 1.900      1.48  0.47   96   0.28
 3.500      2.50  0.41 -173   0.14
!
! (c) 2016  Infineon Technologies AG, Munich
