! Infineon Technologies  Discrete & RF Semiconductors
! BFP460
! VCE =  2.0 V,  IC =  3.0 mA
! Common Emitter S-Parameters:                            Jan 2016
# GHz  S  MA  R  50
!  f         S11            S21            S12            S22
! GHz     MAG   ANG      MAG   ANG      MAG   ANG      MAG   ANG
 0.030  0.9206   -4.4  10.349  177.4  0.0064   87.9  0.9916   -2.8
 0.035  0.9193   -5.0  10.344  176.7  0.0074   87.1  0.9910   -3.2
 0.040  0.9181   -5.7  10.340  176.0  0.0085   86.5  0.9905   -3.7
 0.045  0.9169   -6.4  10.320  175.2  0.0095   86.6  0.9904   -4.1
 0.050  0.9158   -7.1  10.303  174.4  0.0106   86.6  0.9903   -4.6
 0.055  0.9156   -7.8  10.298  174.0  0.0118   85.3  0.9896   -5.0
 0.060  0.9156   -8.6  10.293  173.6  0.0130   84.2  0.9889   -5.5
 0.065  0.9152   -9.4  10.330  173.0  0.0140   84.1  0.9883   -5.9
 0.070  0.9150  -10.2  10.368  172.4  0.0150   84.0  0.9877   -6.4
 0.075  0.9160  -10.9  10.346  172.2  0.0160   83.6  0.9869   -6.8
 0.080  0.9172  -11.6  10.325  171.9  0.0171   83.2  0.9862   -7.3
 0.085  0.9160  -12.2  10.318  171.4  0.0181   82.7  0.9851   -7.7
 0.090  0.9149  -12.9  10.312  170.8  0.0192   82.2  0.9841   -8.2
 0.095  0.9135  -13.6  10.276  170.3  0.0202   82.0  0.9832   -8.6
 0.100  0.9122  -14.4  10.240  169.8  0.0212   81.8  0.9823   -9.1
 0.105  0.9129  -15.2  10.244  169.3  0.0222   81.2  0.9812   -9.5
 0.110  0.9137  -15.9  10.248  168.9  0.0233   80.7  0.9802  -10.0
 0.115  0.9111  -16.6  10.243  168.4  0.0243   80.4  0.9790  -10.4
 0.120  0.9087  -17.4  10.238  167.8  0.0254   80.1  0.9779  -10.9
 0.125  0.9076  -18.0  10.226  167.4  0.0264   79.6  0.9765  -11.3
 0.130  0.9066  -18.6  10.215  166.9  0.0274   79.2  0.9751  -11.8
 0.135  0.9055  -19.3  10.211  166.4  0.0284   78.8  0.9738  -12.2
 0.140  0.9046  -20.1  10.207  165.8  0.0294   78.5  0.9726  -12.7
 0.145  0.9032  -20.8  10.177  165.3  0.0304   78.0  0.9711  -13.1
 0.150  0.9019  -21.5  10.148  164.7  0.0314   77.6  0.9697  -13.6
 0.155  0.9002  -22.2  10.129  164.2  0.0324   77.1  0.9678  -14.0
 0.160  0.8987  -22.9  10.110  163.8  0.0333   76.6  0.9659  -14.4
 0.165  0.8972  -23.6  10.093  163.3  0.0343   76.2  0.9641  -14.9
 0.170  0.8959  -24.2  10.075  162.8  0.0353   75.8  0.9624  -15.3
 0.175  0.8948  -24.9  10.059  162.4  0.0362   75.4  0.9607  -15.7
 0.180  0.8937  -25.6  10.043  161.9  0.0372   75.0  0.9590  -16.2
 0.185  0.8928  -26.3  10.028  161.4  0.0382   74.7  0.9574  -16.6
 0.190  0.8921  -27.0  10.014  161.0  0.0391   74.3  0.9559  -17.0
 0.195  0.8914  -27.7  10.000  160.5  0.0401   74.0  0.9544  -17.5
 0.200  0.8909  -28.4   9.987  160.0  0.0411   73.7  0.9530  -17.9
 0.220  0.8833  -31.1   9.893  158.1  0.0448   72.0  0.9445  -19.6
 0.240  0.8777  -33.8   9.809  156.3  0.0484   70.5  0.9368  -21.2
 0.260  0.8712  -36.5   9.715  154.4  0.0520   69.1  0.9282  -22.9
 0.280  0.8637  -39.1   9.611  152.7  0.0554   67.6  0.9186  -24.5
 0.300  0.8580  -41.7   9.515  150.9  0.0589   66.3  0.9098  -26.1
 0.320  0.8493  -44.2   9.399  149.2  0.0620   64.8  0.8995  -27.6
 0.340  0.8423  -46.8   9.291  147.5  0.0651   63.5  0.8898  -29.0
 0.360  0.8347  -49.3   9.179  145.8  0.0681   62.2  0.8795  -30.5
 0.380  0.8265  -51.7   9.063  144.2  0.0709   61.0  0.8686  -31.9
 0.400  0.8197  -54.1   8.955  142.5  0.0738   59.8  0.8583  -33.4
 0.420  0.8106  -56.4   8.829  141.0  0.0764   58.5  0.8476  -34.7
 0.440  0.8029  -58.8   8.709  139.4  0.0791   57.3  0.8374  -36.1
 0.450  0.7996  -60.0   8.652  138.6  0.0804   56.7  0.8325  -36.8
 0.460  0.7952  -61.1   8.590  137.9  0.0816   56.1  0.8268  -37.4
 0.480  0.7872  -63.3   8.469  136.5  0.0839   55.0  0.8158  -38.6
 0.500  0.7804  -65.6   8.354  135.0  0.0863   54.0  0.8051  -39.8
 0.520  0.7708  -67.6   8.228  133.7  0.0882   52.9  0.7942  -40.9
 0.540  0.7623  -69.7   8.107  132.4  0.0902   51.9  0.7835  -42.0
 0.560  0.7548  -71.8   7.991  131.0  0.0922   50.9  0.7732  -43.2
 0.580  0.7483  -74.0   7.879  129.6  0.0942   49.9  0.7632  -44.4
 0.600  0.7429  -76.2   7.772  128.1  0.0963   49.0  0.7535  -45.6
 0.620  0.7343  -78.1   7.654  127.0  0.0979   48.1  0.7432  -46.6
 0.640  0.7264  -80.0   7.538  125.8  0.0995   47.2  0.7331  -47.6
 0.660  0.7195  -82.0   7.426  124.5  0.1011   46.4  0.7232  -48.6
 0.680  0.7133  -84.0   7.318  123.3  0.1027   45.6  0.7135  -49.6
 0.700  0.7081  -86.0   7.213  122.0  0.1044   44.8  0.7041  -50.7
 0.720  0.7008  -87.7   7.105  121.0  0.1056   44.0  0.6948  -51.5
 0.740  0.6941  -89.5   6.999  119.9  0.1069   43.3  0.6856  -52.4
 0.760  0.6881  -91.2   6.895  118.8  0.1082   42.5  0.6766  -53.3
 0.780  0.6827  -93.1   6.794  117.7  0.1095   41.8  0.6677  -54.2
 0.800  0.6781  -94.9   6.696  116.5  0.1108   41.1  0.6590  -55.1
 0.820  0.6718  -96.5   6.601  115.6  0.1118   40.5  0.6507  -55.8
 0.840  0.6661  -98.1   6.508  114.6  0.1129   39.9  0.6424  -56.6
 0.860  0.6609  -99.8   6.417  113.6  0.1139   39.3  0.6343  -57.4
 0.880  0.6563 -101.5   6.327  112.6  0.1150   38.7  0.6264  -58.2
 0.900  0.6522 -103.2   6.240  111.6  0.1161   38.1  0.6185  -59.0
 0.920  0.6466 -104.7   6.153  110.7  0.1169   37.5  0.6112  -59.7
 0.940  0.6415 -106.2   6.068  109.9  0.1178   37.0  0.6039  -60.4
 0.960  0.6368 -107.8   5.984  109.0  0.1186   36.5  0.5967  -61.0
 0.980  0.6326 -109.3   5.901  108.1  0.1195   35.9  0.5897  -61.8
 1.000  0.6289 -110.9   5.820  107.1  0.1204   35.4  0.5827  -62.5
 1.020  0.6245 -112.3   5.742  106.3  0.1211   34.9  0.5763  -63.1
 1.040  0.6205 -113.6   5.665  105.5  0.1218   34.4  0.5699  -63.8
 1.060  0.6168 -115.1   5.590  104.7  0.1225   33.9  0.5636  -64.4
 1.080  0.6135 -116.5   5.515  103.9  0.1232   33.5  0.5573  -65.1
 1.100  0.6106 -117.9   5.442  103.0  0.1239   33.0  0.5512  -65.8
 1.120  0.6067 -119.2   5.373  102.3  0.1245   32.6  0.5454  -66.4
 1.140  0.6031 -120.5   5.305  101.5  0.1251   32.2  0.5396  -66.9
 1.160  0.5999 -121.8   5.237  100.7  0.1257   31.8  0.5339  -67.5
 1.180  0.5969 -123.2   5.171   99.9  0.1263   31.4  0.5283  -68.1
 1.200  0.5943 -124.5   5.106   99.1  0.1269   31.0  0.5227  -68.7
 1.220  0.5912 -125.8   5.045   98.4  0.1274   30.7  0.5176  -69.2
 1.240  0.5884 -127.0   4.984   97.8  0.1278   30.3  0.5126  -69.7
 1.260  0.5859 -128.3   4.924   97.1  0.1283   30.0  0.5076  -70.3
 1.280  0.5836 -129.6   4.864   96.3  0.1288   29.6  0.5026  -70.8
 1.300  0.5817 -130.9   4.806   95.6  0.1293   29.3  0.4977  -71.4
 1.320  0.5792 -132.0   4.750   95.0  0.1297   29.0  0.4931  -71.9
 1.340  0.5770 -133.2   4.695   94.3  0.1302   28.7  0.4885  -72.3
 1.360  0.5749 -134.4   4.640   93.7  0.1306   28.4  0.4840  -72.8
 1.380  0.5731 -135.5   4.586   93.0  0.1311   28.1  0.4795  -73.3
 1.400  0.5716 -136.7   4.532   92.3  0.1315   27.8  0.4750  -73.8
 1.420  0.5694 -137.8   4.483   91.7  0.1319   27.5  0.4710  -74.3
 1.440  0.5674 -138.9   4.434   91.0  0.1322   27.2  0.4671  -74.7
 1.460  0.5656 -140.0   4.386   90.4  0.1326   27.0  0.4631  -75.2
 1.480  0.5640 -141.2   4.338   89.7  0.1329   26.7  0.4593  -75.7
 1.500  0.5627 -142.3   4.291   89.0  0.1333   26.4  0.4554  -76.2
 1.520  0.5607 -143.3   4.245   88.4  0.1336   26.2  0.4517  -76.6
 1.540  0.5589 -144.4   4.200   87.8  0.1339   26.0  0.4480  -77.1
 1.560  0.5573 -145.4   4.156   87.2  0.1342   25.7  0.4443  -77.5
 1.580  0.5559 -146.4   4.112   86.6  0.1345   25.5  0.4406  -77.9
 1.600  0.5546 -147.5   4.068   86.0  0.1348   25.3  0.4370  -78.4
 1.620  0.5534 -148.5   4.028   85.4  0.1351   25.1  0.4339  -78.8
 1.640  0.5523 -149.5   3.988   84.9  0.1354   24.9  0.4307  -79.2
 1.660  0.5514 -150.5   3.948   84.3  0.1358   24.6  0.4276  -79.6
 1.680  0.5507 -151.5   3.909   83.7  0.1361   24.4  0.4246  -80.0
 1.700  0.5501 -152.5   3.870   83.1  0.1364   24.2  0.4215  -80.4
 1.720  0.5490 -153.4   3.833   82.6  0.1366   24.0  0.4186  -80.8
 1.740  0.5481 -154.3   3.796   82.1  0.1369   23.8  0.4157  -81.3
 1.760  0.5473 -155.3   3.760   81.5  0.1371   23.7  0.4128  -81.7
 1.780  0.5466 -156.2   3.724   81.0  0.1374   23.5  0.4099  -82.1
 1.800  0.5461 -157.1   3.688   80.4  0.1376   23.3  0.4071  -82.6
 1.820  0.5452 -158.0   3.654   79.9  0.1379   23.1  0.4045  -83.0
 1.840  0.5445 -158.9   3.621   79.4  0.1381   23.0  0.4018  -83.3
 1.860  0.5438 -159.8   3.588   78.9  0.1384   22.8  0.3992  -83.7
 1.880  0.5434 -160.7   3.555   78.3  0.1386   22.7  0.3967  -84.1
 1.900  0.5430 -161.6   3.523   77.8  0.1389   22.5  0.3941  -84.5
 1.920  0.5426 -162.5   3.492   77.3  0.1391   22.3  0.3917  -84.9
 1.940  0.5424 -163.4   3.462   76.7  0.1393   22.2  0.3894  -85.3
 1.960  0.5423 -164.3   3.431   76.2  0.1396   22.0  0.3870  -85.7
 1.980  0.5423 -165.2   3.402   75.7  0.1398   21.9  0.3847  -86.1
 2.000  0.5425 -166.1   3.372   75.1  0.1400   21.7  0.3824  -86.5
 2.020  0.5419 -166.9   3.344   74.6  0.1402   21.6  0.3802  -86.9
 2.040  0.5414 -167.7   3.316   74.2  0.1404   21.4  0.3781  -87.2
 2.060  0.5410 -168.6   3.288   73.7  0.1406   21.3  0.3760  -87.6
 2.080  0.5408 -169.4   3.260   73.2  0.1408   21.2  0.3738  -88.0
 2.100  0.5406 -170.2   3.233   72.8  0.1410   21.0  0.3717  -88.4
 2.120  0.5406 -171.0   3.206   72.3  0.1413   20.9  0.3697  -88.8
 2.140  0.5406 -171.8   3.179   71.8  0.1415   20.8  0.3676  -89.2
 2.160  0.5408 -172.7   3.152   71.2  0.1417   20.7  0.3655  -89.6
 2.180  0.5411 -173.5   3.126   70.7  0.1419   20.5  0.3635  -90.0
 2.200  0.5415 -174.3   3.100   70.2  0.1421   20.4  0.3615  -90.4
 2.220  0.5413 -175.1   3.076   69.8  0.1423   20.3  0.3596  -90.8
 2.240  0.5412 -175.8   3.052   69.3  0.1424   20.2  0.3578  -91.2
 2.260  0.5412 -176.6   3.028   68.8  0.1426   20.1  0.3559  -91.6
 2.280  0.5413 -177.3   3.005   68.4  0.1427   20.0  0.3541  -92.0
 2.300  0.5415 -178.1   2.981   67.9  0.1429   19.9  0.3523  -92.3
 2.320  0.5418 -178.8   2.958   67.4  0.1431   19.8  0.3505  -92.8
 2.340  0.5422 -179.6   2.935   66.9  0.1432   19.7  0.3487  -93.2
 2.360  0.5427  179.7   2.913   66.4  0.1434   19.6  0.3470  -93.6
 2.380  0.5432  178.9   2.890   65.9  0.1435   19.5  0.3452  -94.0
 2.400  0.5439  178.2   2.868   65.4  0.1437   19.4  0.3435  -94.4
 2.420  0.5440  177.5   2.847   65.0  0.1439   19.3  0.3420  -94.8
 2.440  0.5443  176.8   2.826   64.6  0.1440   19.2  0.3404  -95.2
 2.460  0.5446  176.1   2.805   64.1  0.1442   19.1  0.3389  -95.7
 2.480  0.5450  175.3   2.784   63.7  0.1444   19.0  0.3374  -96.1
 2.500  0.5455  174.6   2.764   63.2  0.1445   18.9  0.3360  -96.5
 2.520  0.5460  173.9   2.744   62.8  0.1447   18.9  0.3345  -96.9
 2.540  0.5467  173.2   2.723   62.3  0.1449   18.8  0.3331  -97.4
 2.560  0.5474  172.5   2.703   61.9  0.1451   18.7  0.3317  -97.8
 2.580  0.5482  171.8   2.684   61.4  0.1452   18.6  0.3303  -98.3
 2.600  0.5491  171.1   2.664   60.9  0.1454   18.5  0.3289  -98.7
 2.620  0.5494  170.5   2.646   60.5  0.1455   18.4  0.3277  -99.1
 2.640  0.5498  169.8   2.627   60.1  0.1457   18.3  0.3265  -99.5
 2.660  0.5502  169.2   2.609   59.7  0.1458   18.3  0.3254 -100.0
 2.680  0.5507  168.5   2.591   59.3  0.1460   18.2  0.3242 -100.4
 2.700  0.5513  167.9   2.574   58.8  0.1461   18.1  0.3231 -100.8
 2.720  0.5519  167.2   2.556   58.4  0.1462   18.0  0.3220 -101.2
 2.740  0.5526  166.6   2.539   58.0  0.1464   17.9  0.3209 -101.7
 2.760  0.5534  166.0   2.521   57.5  0.1465   17.9  0.3198 -102.1
 2.780  0.5543  165.3   2.504   57.1  0.1467   17.8  0.3187 -102.6
 2.800  0.5552  164.7   2.487   56.6  0.1468   17.7  0.3177 -103.0
 2.820  0.5557  164.1   2.471   56.2  0.1469   17.6  0.3167 -103.4
 2.840  0.5562  163.5   2.454   55.8  0.1471   17.6  0.3157 -103.8
 2.860  0.5568  162.9   2.438   55.4  0.1472   17.5  0.3148 -104.3
 2.880  0.5574  162.3   2.422   55.0  0.1474   17.5  0.3138 -104.7
 2.900  0.5581  161.7   2.406   54.6  0.1475   17.4  0.3129 -105.1
 2.920  0.5589  161.1   2.391   54.1  0.1476   17.4  0.3120 -105.6
 2.940  0.5597  160.5   2.375   53.7  0.1478   17.3  0.3111 -106.0
 2.960  0.5606  159.9   2.360   53.3  0.1479   17.3  0.3103 -106.4
 2.980  0.5616  159.3   2.344   52.8  0.1481   17.2  0.3094 -106.9
 3.000  0.5626  158.7   2.329   52.4  0.1482   17.2  0.3086 -107.3
 3.100  0.5646  155.9   2.259   50.7  0.1489   17.0  0.3052 -109.4
 3.200  0.5679  153.2   2.192   48.9  0.1496   16.9  0.3023 -111.5
 3.300  0.5725  150.5   2.126   46.9  0.1504   16.7  0.2998 -113.6
 3.400  0.5784  147.9   2.064   44.9  0.1511   16.6  0.2977 -115.8
 3.500  0.5854  145.3   2.004   42.7  0.1518   16.4  0.2960 -118.0
 3.600  0.5893  143.0   1.950   41.1  0.1526   16.3  0.2940 -120.2
 3.700  0.5943  140.7   1.897   39.4  0.1534   16.2  0.2925 -122.5
 3.800  0.6001  138.4   1.847   37.7  0.1543   16.2  0.2914 -124.7
 3.900  0.6069  136.2   1.798   35.8  0.1551   16.1  0.2908 -127.0
 4.000  0.6146  134.0   1.751   33.8  0.1559   16.0  0.2906 -129.3
 4.100  0.6190  132.1   1.707   32.3  0.1569   16.0  0.2913 -131.6
 4.200  0.6241  130.3   1.665   30.8  0.1579   16.0  0.2925 -133.9
 4.300  0.6299  128.4   1.623   29.1  0.1588   16.1  0.2942 -136.2
 4.400  0.6362  126.7   1.583   27.4  0.1598   16.1  0.2963 -138.5
 4.500  0.6432  124.9   1.545   25.6  0.1608   16.1  0.2989 -140.7
 4.600  0.6468  123.4   1.510   24.3  0.1622   16.2  0.3019 -142.6
 4.700  0.6509  121.8   1.476   22.8  0.1635   16.3  0.3052 -144.5
 4.800  0.6554  120.3   1.443   21.4  0.1649   16.5  0.3089 -146.3
 4.900  0.6603  118.9   1.411   19.8  0.1662   16.6  0.3129 -148.1
 5.000  0.6657  117.4   1.380   18.2  0.1676   16.7  0.3171 -149.8
 5.100  0.6686  116.2   1.352   17.0  0.1696   16.8  0.3207 -151.3
 5.200  0.6719  114.9   1.325   15.7  0.1717   16.8  0.3246 -152.7
 5.300  0.6755  113.7   1.299   14.4  0.1737   16.9  0.3286 -154.2
 5.400  0.6793  112.5   1.273   13.0  0.1758   16.9  0.3329 -155.6
 5.500  0.6835  111.3   1.248   11.6  0.1778   17.0  0.3373 -156.9
 5.600  0.6862  110.3   1.226   10.4  0.1802   16.9  0.3419 -158.4
 5.700  0.6890  109.2   1.204    9.2  0.1825   16.7  0.3467 -159.9
 5.800  0.6921  108.2   1.183    8.0  0.1849   16.6  0.3517 -161.3
 5.900  0.6955  107.2   1.163    6.6  0.1872   16.4  0.3569 -162.7
 6.000  0.6990  106.2   1.143    5.3  0.1896   16.3  0.3623 -164.0
 6.100  0.6998  105.2   1.124    4.2  0.1919   16.1  0.3670 -165.2
 6.200  0.7007  104.3   1.105    3.1  0.1943   16.0  0.3719 -166.4
 6.300  0.7019  103.3   1.087    1.9  0.1966   15.8  0.3769 -167.5
 6.400  0.7032  102.4   1.069    0.7  0.1990   15.7  0.3820 -168.6
 6.500  0.7048  101.4   1.052   -0.5  0.2013   15.5  0.3873 -169.7
 6.600  0.7048  100.3   1.037   -1.5  0.2041   15.3  0.3901 -170.5
 6.800  0.7056   98.2   1.008   -3.6  0.2098   14.9  0.3960 -172.1
 7.000  0.7074   96.1   0.980   -5.8  0.2155   14.6  0.4021 -173.6
 7.200  0.7099   93.6   0.957   -7.9  0.2224   13.8  0.4053 -175.7
 7.400  0.7138   91.1   0.935  -10.1  0.2293   13.1  0.4090 -177.8
 7.600  0.7188   88.4   0.914  -12.4  0.2364   12.2  0.4129  179.7
 7.800  0.7255   85.5   0.894  -14.8  0.2436   11.0  0.4176  176.9
 8.000  0.7339   82.7   0.875  -17.3  0.2509    9.9  0.4232  174.1
 8.200  0.7391   79.7   0.851  -19.6  0.2572    8.2  0.4269  170.8
 8.400  0.7463   76.8   0.828  -22.0  0.2637    6.6  0.4321  167.5
 8.600  0.7551   73.9   0.805  -24.2  0.2687    4.9  0.4364  163.7
 8.800  0.7654   71.2   0.782  -26.4  0.2724    3.1  0.4408  159.2
 9.000  0.7774   68.5   0.760  -28.7  0.2764    1.3  0.4477  154.9
 9.200  0.7910   66.3   0.735  -30.5  0.2779   -0.2  0.4581  149.5
 9.400  0.8058   64.1   0.710  -32.4  0.2795   -1.6  0.4725  144.3
 9.600  0.8186   62.3   0.685  -34.1  0.2807   -2.8  0.4893  139.6
 9.800  0.8291   60.6   0.660  -35.5  0.2815   -3.8  0.5081  135.2
10.000  0.8403   59.0   0.636  -37.1  0.2823   -4.8  0.5297  131.1
!
!  f       NFmin   Gammaopt  rn/50
! GHz       dB    MAG  ANG    -
 0.100      0.70  0.49    1   0.20
 0.450      0.71  0.48   19   0.20
 0.900      0.75  0.46   37   0.21
 1.900      1.09  0.27   93   0.15
 3.500      1.43  0.36 -162   0.10
!
! (c) 2016  Infineon Technologies AG, Munich
