! Infineon Technologies  Discrete & RF Semiconductors
! BFP460
! VCE =  1.5 V,  IC =  18 mA
! Common Emitter S-Parameters:                            Jan 2016
# GHz  S  MA  R  50
!  f         S11            S21            S12            S22
! GHz     MAG   ANG      MAG   ANG      MAG   ANG      MAG   ANG
 0.030  0.6248  -14.7  42.727  171.9  0.0056   84.4  0.9425   -9.3
 0.035  0.6221  -17.1  42.538  170.4  0.0065   83.0  0.9394  -10.9
 0.040  0.6205  -19.5  42.378  168.9  0.0075   81.9  0.9370  -12.5
 0.045  0.6168  -21.7  42.086  167.3  0.0083   81.6  0.9328  -14.0
 0.050  0.6141  -23.9  41.828  165.6  0.0092   81.4  0.9293  -15.6
 0.055  0.6143  -26.4  41.604  164.4  0.0100   79.4  0.9242  -17.1
 0.060  0.6157  -28.9  41.399  163.1  0.0109   77.8  0.9198  -18.7
 0.065  0.6124  -31.2  41.221  161.7  0.0117   76.6  0.9139  -20.2
 0.070  0.6101  -33.6  41.067  160.3  0.0126   75.6  0.9086  -21.7
 0.075  0.6095  -35.7  40.744  159.2  0.0133   74.9  0.9022  -23.2
 0.080  0.6098  -37.9  40.437  158.1  0.0140   74.2  0.8964  -24.7
 0.085  0.6074  -40.2  40.080  156.8  0.0148   73.6  0.8891  -26.1
 0.090  0.6061  -42.6  39.744  155.5  0.0157   73.0  0.8823  -27.6
 0.095  0.6030  -44.5  39.305  154.4  0.0164   72.1  0.8749  -28.9
 0.100  0.6006  -46.5  38.882  153.2  0.0172   71.2  0.8680  -30.3
 0.105  0.5991  -48.5  38.569  152.1  0.0178   70.3  0.8599  -31.6
 0.110  0.5984  -50.6  38.271  150.9  0.0185   69.4  0.8523  -33.0
 0.115  0.5948  -52.8  37.881  149.7  0.0192   68.7  0.8441  -34.3
 0.120  0.5920  -55.0  37.507  148.5  0.0199   68.0  0.8363  -35.6
 0.125  0.5882  -56.8  37.114  147.5  0.0205   67.3  0.8279  -36.9
 0.130  0.5851  -58.7  36.733  146.5  0.0212   66.7  0.8199  -38.2
 0.135  0.5830  -60.6  36.360  145.4  0.0217   66.0  0.8116  -39.4
 0.140  0.5815  -62.5  36.000  144.3  0.0223   65.3  0.8036  -40.7
 0.145  0.5777  -64.3  35.548  143.3  0.0229   64.7  0.7952  -41.8
 0.150  0.5746  -66.2  35.107  142.3  0.0235   64.1  0.7871  -43.0
 0.155  0.5704  -67.8  34.694  141.5  0.0240   63.5  0.7779  -44.0
 0.160  0.5666  -69.3  34.287  140.7  0.0244   62.9  0.7689  -44.9
 0.165  0.5633  -70.9  33.887  139.9  0.0249   62.4  0.7602  -45.9
 0.170  0.5604  -72.6  33.494  139.1  0.0254   61.9  0.7517  -47.0
 0.175  0.5579  -74.2  33.109  138.2  0.0259   61.4  0.7434  -48.0
 0.180  0.5559  -75.8  32.731  137.3  0.0264   60.9  0.7354  -49.1
 0.185  0.5544  -77.5  32.361  136.4  0.0268   60.4  0.7277  -50.2
 0.190  0.5533  -79.2  31.999  135.5  0.0273   60.0  0.7202  -51.3
 0.195  0.5527  -80.8  31.646  134.6  0.0278   59.5  0.7130  -52.4
 0.200  0.5526  -82.5  31.301  133.6  0.0283   59.1  0.7061  -53.6
 0.220  0.5419  -87.8  29.853  131.0  0.0297   57.6  0.6753  -56.9
 0.240  0.5361  -93.3  28.474  128.1  0.0312   56.2  0.6469  -60.6
 0.260  0.5309  -98.2  27.195  125.5  0.0325   55.1  0.6206  -63.9
 0.280  0.5248 -102.6  25.984  123.2  0.0338   54.1  0.5953  -66.8
 0.300  0.5218 -107.1  24.817  120.8  0.0350   53.2  0.5717  -69.9
 0.320  0.5159 -110.8  23.772  119.0  0.0360   52.7  0.5503  -72.3
 0.340  0.5121 -114.5  22.752  117.1  0.0371   52.1  0.5299  -74.9
 0.360  0.5084 -118.0  21.818  115.4  0.0380   51.7  0.5112  -77.3
 0.380  0.5041 -121.1  20.961  113.8  0.0389   51.3  0.4939  -79.5
 0.400  0.5014 -124.3  20.121  112.1  0.0398   50.9  0.4774  -81.9
 0.420  0.4987 -127.0  19.383  110.8  0.0406   50.7  0.4627  -83.8
 0.440  0.4971 -129.8  18.655  109.4  0.0415   50.6  0.4486  -85.8
 0.450  0.4968 -131.2  18.295  108.7  0.0419   50.5  0.4417  -86.9
 0.460  0.4954 -132.3  17.985  108.2  0.0423   50.5  0.4356  -87.7
 0.480  0.4931 -134.7  17.371  107.0  0.0432   50.4  0.4236  -89.5
 0.500  0.4916 -137.0  16.764  105.8  0.0440   50.3  0.4120  -91.3
 0.520  0.4894 -138.9  16.264  104.9  0.0448   50.3  0.4022  -92.7
 0.540  0.4878 -140.9  15.769  104.0  0.0456   50.3  0.3927  -94.2
 0.560  0.4867 -142.8  15.277  103.0  0.0463   50.4  0.3835  -95.8
 0.580  0.4862 -144.7  14.791  101.9  0.0471   50.4  0.3745  -97.4
 0.600  0.4862 -146.7  14.310  100.8  0.0479   50.4  0.3659  -99.1
 0.620  0.4849 -148.3  13.933  100.1  0.0487   50.5  0.3589 -100.3
 0.640  0.4840 -149.8  13.559   99.3  0.0495   50.6  0.3521 -101.6
 0.660  0.4834 -151.4  13.187   98.5  0.0502   50.6  0.3454 -102.9
 0.680  0.4832 -152.9  12.818   97.7  0.0510   50.7  0.3390 -104.3
 0.700  0.4833 -154.5  12.452   96.8  0.0518   50.8  0.3327 -105.7
 0.720  0.4825 -155.8  12.161   96.2  0.0526   50.9  0.3275 -106.8
 0.740  0.4820 -157.1  11.871   95.5  0.0534   51.1  0.3224 -107.9
 0.760  0.4817 -158.3  11.582   94.9  0.0541   51.2  0.3174 -109.0
 0.780  0.4816 -159.6  11.296   94.1  0.0549   51.3  0.3126 -110.2
 0.800  0.4818 -160.9  11.011   93.4  0.0557   51.4  0.3079 -111.4
 0.820  0.4815 -162.0  10.781   92.9  0.0565   51.5  0.3041 -112.4
 0.840  0.4813 -163.1  10.553   92.3  0.0573   51.6  0.3003 -113.4
 0.860  0.4814 -164.2  10.325   91.7  0.0581   51.7  0.2966 -114.4
 0.880  0.4816 -165.3  10.099   91.1  0.0589   51.8  0.2931 -115.4
 0.900  0.4820 -166.4   9.874   90.4  0.0597   51.9  0.2896 -116.5
 0.920  0.4816 -167.4   9.686   89.9  0.0605   52.0  0.2866 -117.4
 0.940  0.4814 -168.3   9.499   89.4  0.0613   52.1  0.2837 -118.3
 0.960  0.4814 -169.3   9.312   88.8  0.0622   52.2  0.2809 -119.2
 0.980  0.4814 -170.2   9.127   88.3  0.0630   52.3  0.2781 -120.1
 1.000  0.4816 -171.2   8.942   87.7  0.0638   52.4  0.2754 -121.1
 1.020  0.4816 -172.0   8.785   87.2  0.0646   52.5  0.2732 -121.9
 1.040  0.4817 -172.9   8.629   86.8  0.0655   52.5  0.2710 -122.7
 1.060  0.4819 -173.7   8.474   86.3  0.0663   52.6  0.2689 -123.5
 1.080  0.4822 -174.6   8.319   85.7  0.0672   52.6  0.2668 -124.3
 1.100  0.4826 -175.4   8.165   85.2  0.0680   52.7  0.2648 -125.1
 1.120  0.4826 -176.2   8.034   84.8  0.0688   52.7  0.2630 -125.8
 1.140  0.4827 -177.0   7.903   84.3  0.0697   52.8  0.2613 -126.6
 1.160  0.4829 -177.8   7.773   83.9  0.0705   52.8  0.2596 -127.3
 1.180  0.4832 -178.6   7.643   83.4  0.0714   52.9  0.2579 -128.0
 1.200  0.4836 -179.4   7.514   82.9  0.0722   52.9  0.2563 -128.8
 1.220  0.4839  179.9   7.402   82.5  0.0731   52.9  0.2549 -129.5
 1.240  0.4843  179.2   7.290   82.1  0.0739   52.9  0.2536 -130.1
 1.260  0.4848  178.4   7.179   81.6  0.0748   53.0  0.2524 -130.8
 1.280  0.4854  177.7   7.068   81.2  0.0756   53.0  0.2511 -131.5
 1.300  0.4860  177.0   6.957   80.7  0.0765   53.0  0.2499 -132.2
 1.320  0.4861  176.4   6.860   80.3  0.0773   53.0  0.2487 -132.8
 1.340  0.4862  175.7   6.764   79.9  0.0782   53.0  0.2476 -133.4
 1.360  0.4864  175.1   6.669   79.5  0.0790   53.1  0.2465 -134.0
 1.380  0.4867  174.4   6.573   79.0  0.0799   53.1  0.2454 -134.7
 1.400  0.4870  173.8   6.478   78.6  0.0807   53.1  0.2443 -135.3
 1.420  0.4874  173.1   6.394   78.2  0.0816   53.1  0.2435 -135.9
 1.440  0.4878  172.5   6.310   77.8  0.0825   53.1  0.2427 -136.4
 1.460  0.4884  171.8   6.227   77.4  0.0833   53.0  0.2420 -137.0
 1.480  0.4890  171.2   6.144   77.0  0.0842   53.0  0.2413 -137.6
 1.500  0.4896  170.5   6.061   76.6  0.0851   53.0  0.2406 -138.2
 1.520  0.4899  169.9   5.986   76.2  0.0860   53.0  0.2399 -138.7
 1.540  0.4903  169.3   5.912   75.9  0.0868   52.9  0.2393 -139.3
 1.560  0.4907  168.7   5.838   75.5  0.0877   52.9  0.2386 -139.8
 1.580  0.4912  168.1   5.764   75.1  0.0885   52.8  0.2380 -140.4
 1.600  0.4917  167.5   5.691   74.7  0.0894   52.8  0.2374 -140.9
 1.620  0.4921  167.0   5.626   74.3  0.0903   52.8  0.2369 -141.4
 1.640  0.4926  166.4   5.562   73.9  0.0912   52.7  0.2364 -141.9
 1.660  0.4931  165.9   5.498   73.5  0.0920   52.7  0.2359 -142.5
 1.680  0.4936  165.3   5.434   73.1  0.0929   52.6  0.2354 -143.0
 1.700  0.4942  164.8   5.371   72.7  0.0938   52.6  0.2350 -143.5
 1.720  0.4945  164.2   5.312   72.4  0.0947   52.5  0.2346 -144.0
 1.740  0.4948  163.7   5.253   72.0  0.0956   52.4  0.2343 -144.5
 1.760  0.4951  163.1   5.195   71.6  0.0964   52.4  0.2340 -144.9
 1.780  0.4955  162.6   5.136   71.3  0.0973   52.3  0.2337 -145.4
 1.800  0.4960  162.0   5.078   70.9  0.0982   52.2  0.2334 -145.9
 1.820  0.4966  161.5   5.027   70.6  0.0991   52.1  0.2331 -146.4
 1.840  0.4973  161.0   4.975   70.2  0.1000   52.0  0.2329 -146.9
 1.860  0.4980  160.4   4.924   69.8  0.1008   52.0  0.2326 -147.3
 1.880  0.4988  159.9   4.874   69.5  0.1017   51.9  0.2324 -147.8
 1.900  0.4996  159.4   4.823   69.1  0.1026   51.8  0.2322 -148.3
 1.920  0.5002  158.9   4.776   68.7  0.1035   51.7  0.2320 -148.8
 1.940  0.5009  158.4   4.729   68.4  0.1043   51.6  0.2319 -149.3
 1.960  0.5016  157.9   4.682   68.0  0.1052   51.6  0.2317 -149.7
 1.980  0.5024  157.4   4.635   67.6  0.1060   51.5  0.2316 -150.2
 2.000  0.5032  156.9   4.589   67.2  0.1069   51.4  0.2315 -150.7
 2.020  0.5038  156.4   4.547   66.9  0.1078   51.3  0.2315 -151.2
 2.040  0.5045  155.9   4.506   66.6  0.1086   51.2  0.2315 -151.6
 2.060  0.5052  155.4   4.464   66.2  0.1095   51.1  0.2315 -152.1
 2.080  0.5059  155.0   4.423   65.9  0.1104   50.9  0.2315 -152.5
 2.100  0.5067  154.5   4.381   65.5  0.1112   50.8  0.2316 -153.0
 2.120  0.5075  154.0   4.340   65.2  0.1121   50.7  0.2316 -153.5
 2.140  0.5084  153.5   4.300   64.8  0.1130   50.6  0.2317 -153.9
 2.160  0.5092  153.0   4.259   64.5  0.1139   50.5  0.2318 -154.4
 2.180  0.5102  152.6   4.218   64.1  0.1147   50.4  0.2319 -154.8
 2.200  0.5111  152.1   4.178   63.7  0.1156   50.3  0.2320 -155.3
 2.220  0.5118  151.6   4.143   63.4  0.1164   50.2  0.2322 -155.8
 2.240  0.5125  151.2   4.108   63.1  0.1173   50.0  0.2323 -156.2
 2.260  0.5132  150.7   4.074   62.7  0.1181   49.9  0.2325 -156.7
 2.280  0.5139  150.2   4.039   62.4  0.1190   49.8  0.2327 -157.1
 2.300  0.5147  149.8   4.005   62.1  0.1198   49.7  0.2329 -157.6
 2.320  0.5156  149.3   3.970   61.7  0.1206   49.6  0.2331 -158.0
 2.340  0.5164  148.9   3.936   61.4  0.1215   49.4  0.2334 -158.5
 2.360  0.5173  148.4   3.902   61.0  0.1223   49.3  0.2336 -158.9
 2.380  0.5182  148.0   3.869   60.7  0.1232   49.2  0.2339 -159.4
 2.400  0.5192  147.5   3.835   60.3  0.1240   49.1  0.2342 -159.8
 2.420  0.5200  147.1   3.805   60.0  0.1248   49.0  0.2346 -160.2
 2.440  0.5209  146.6   3.775   59.7  0.1257   48.8  0.2350 -160.7
 2.460  0.5218  146.2   3.745   59.3  0.1265   48.7  0.2354 -161.1
 2.480  0.5227  145.8   3.715   59.0  0.1273   48.6  0.2358 -161.5
 2.500  0.5236  145.4   3.685   58.7  0.1281   48.4  0.2363 -162.0
 2.520  0.5246  145.0   3.656   58.3  0.1290   48.3  0.2367 -162.4
 2.540  0.5256  144.5   3.626   58.0  0.1298   48.2  0.2372 -162.8
 2.560  0.5267  144.1   3.597   57.6  0.1306   48.0  0.2377 -163.3
 2.580  0.5277  143.7   3.568   57.3  0.1315   47.9  0.2382 -163.7
 2.600  0.5288  143.3   3.539   56.9  0.1323   47.8  0.2387 -164.1
 2.620  0.5295  142.9   3.513   56.6  0.1331   47.6  0.2393 -164.5
 2.640  0.5302  142.5   3.487   56.3  0.1339   47.5  0.2398 -164.9
 2.660  0.5310  142.1   3.462   56.0  0.1347   47.3  0.2404 -165.4
 2.680  0.5317  141.7   3.436   55.7  0.1355   47.2  0.2410 -165.8
 2.700  0.5325  141.3   3.411   55.4  0.1363   47.0  0.2416 -166.2
 2.720  0.5333  140.9   3.385   55.0  0.1371   46.9  0.2423 -166.6
 2.740  0.5342  140.5   3.360   54.7  0.1379   46.7  0.2429 -167.0
 2.760  0.5351  140.1   3.335   54.4  0.1387   46.6  0.2436 -167.4
 2.780  0.5360  139.7   3.310   54.0  0.1395   46.4  0.2442 -167.8
 2.800  0.5369  139.3   3.285   53.7  0.1403   46.3  0.2449 -168.2
 2.820  0.5378  138.9   3.262   53.4  0.1411   46.1  0.2455 -168.6
 2.840  0.5387  138.5   3.240   53.1  0.1419   46.0  0.2462 -169.0
 2.860  0.5396  138.1   3.217   52.8  0.1427   45.8  0.2469 -169.4
 2.880  0.5406  137.8   3.195   52.5  0.1434   45.7  0.2475 -169.7
 2.900  0.5416  137.4   3.172   52.2  0.1442   45.5  0.2482 -170.1
 2.920  0.5426  137.0   3.150   51.9  0.1450   45.4  0.2489 -170.5
 2.940  0.5436  136.6   3.128   51.6  0.1458   45.2  0.2496 -170.9
 2.960  0.5446  136.2   3.106   51.3  0.1466   45.1  0.2503 -171.3
 2.980  0.5457  135.9   3.084   50.9  0.1474   44.9  0.2511 -171.6
 3.000  0.5468  135.5   3.062   50.6  0.1482   44.8  0.2518 -172.0
 3.100  0.5510  133.7   2.968   49.3  0.1519   43.9  0.2553 -173.7
 3.200  0.5557  131.9   2.877   47.8  0.1556   43.1  0.2591 -175.4
 3.300  0.5609  130.2   2.787   46.3  0.1593   42.4  0.2630 -177.1
 3.400  0.5667  128.5   2.699   44.7  0.1630   41.6  0.2672 -178.7
 3.500  0.5729  126.8   2.613   43.0  0.1668   40.9  0.2716  179.8
 3.600  0.5779  125.2   2.541   41.8  0.1700   40.0  0.2759  178.0
 3.700  0.5833  123.6   2.471   40.4  0.1733   39.2  0.2804  176.3
 3.800  0.5891  122.1   2.402   39.0  0.1767   38.4  0.2852  174.6
 3.900  0.5953  120.6   2.335   37.6  0.1800   37.6  0.2902  173.0
 4.000  0.6020  119.1   2.269   36.0  0.1834   36.9  0.2955  171.4
 4.100  0.6073  117.8   2.212   34.8  0.1863   36.1  0.3010  169.8
 4.200  0.6129  116.5   2.157   33.6  0.1892   35.4  0.3066  168.3
 4.300  0.6188  115.2   2.102   32.2  0.1922   34.7  0.3125  166.8
 4.400  0.6250  113.9   2.049   30.9  0.1952   34.0  0.3186  165.4
 4.500  0.6315  112.7   1.997   29.4  0.1982   33.3  0.3249  164.0
 4.600  0.6351  111.5   1.953   28.3  0.2011   32.6  0.3292  162.9
 4.700  0.6391  110.3   1.910   27.2  0.2040   31.9  0.3336  161.8
 4.800  0.6433  109.2   1.868   26.0  0.2069   31.3  0.3382  160.7
 4.900  0.6477  108.0   1.827   24.8  0.2098   30.6  0.3428  159.6
 5.000  0.6524  106.9   1.786   23.5  0.2128   30.0  0.3476  158.6
 5.100  0.6551  105.9   1.752   22.5  0.2159   29.3  0.3503  157.7
 5.200  0.6579  105.0   1.719   21.5  0.2191   28.6  0.3530  156.8
 5.300  0.6610  104.0   1.687   20.4  0.2222   27.9  0.3559  156.0
 5.400  0.6642  103.0   1.655   19.3  0.2255   27.2  0.3588  155.1
 5.500  0.6676  102.1   1.624   18.1  0.2287   26.6  0.3618  154.3
 5.600  0.6696  101.3   1.597   17.1  0.2316   25.8  0.3650  153.5
 5.700  0.6717  100.5   1.571   16.0  0.2345   25.0  0.3683  152.7
 5.800  0.6739   99.7   1.546   14.8  0.2375   24.3  0.3716  151.9
 5.900  0.6763   98.9   1.521   13.7  0.2405   23.5  0.3750  151.2
 6.000  0.6788   98.1   1.497   12.5  0.2435   22.8  0.3785  150.4
 6.100  0.6792   97.3   1.474   11.5  0.2460   22.1  0.3805  149.9
 6.200  0.6796   96.5   1.452   10.6  0.2486   21.4  0.3824  149.3
 6.300  0.6803   95.7   1.430    9.5  0.2512   20.7  0.3845  148.8
 6.400  0.6810   94.9   1.409    8.5  0.2538   20.0  0.3865  148.3
 6.500  0.6819   94.1   1.388    7.4  0.2565   19.3  0.3886  147.8
 6.600  0.6813   93.1   1.371    6.4  0.2594   18.6  0.3878  147.4
 6.800  0.6805   91.2   1.338    4.5  0.2654   17.3  0.3863  146.5
 7.000  0.6806   89.3   1.307    2.4  0.2715   16.0  0.3848  145.7
 7.200  0.6819   87.1   1.280    0.3  0.2779   14.4  0.3840  144.2
 7.400  0.6842   85.0   1.255   -1.9  0.2846   12.8  0.3835  142.7
 7.600  0.6879   82.6   1.230   -4.2  0.2908   11.1  0.3849  140.8
 7.800  0.6932   80.1   1.205   -6.6  0.2968    9.2  0.3887  138.5
 8.000  0.6998   77.7   1.183   -9.1  0.3030    7.4  0.3930  136.3
 8.200  0.7051   75.0   1.153  -11.5  0.3068    5.2  0.3974  133.5
 8.400  0.7119   72.4   1.124  -14.0  0.3111    3.1  0.4026  130.8
 8.600  0.7209   69.9   1.095  -16.4  0.3136    1.1  0.4094  127.5
 8.800  0.7317   67.6   1.064  -18.7  0.3143   -1.0  0.4186  123.7
 9.000  0.7437   65.4   1.035  -21.1  0.3155   -3.1  0.4295  120.0
 9.200  0.7595   63.5   1.001  -22.9  0.3140   -4.6  0.4463  115.8
 9.400  0.7762   61.7   0.968  -24.9  0.3127   -6.2  0.4652  112.0
 9.600  0.7906   60.0   0.936  -26.6  0.3113   -7.5  0.4844  108.6
 9.800  0.8027   58.5   0.904  -28.0  0.3096   -8.4  0.5033  105.7
10.000  0.8153   57.1   0.873  -29.5  0.3081   -9.3  0.5234  103.0
!
!  f       NFmin   Gammaopt  rn/50
! GHz       dB    MAG  ANG    -
 0.450      1.21  0.04  164   0.13
 0.900      1.13  0.18  150   0.14
 1.900      1.33  0.16 -152   0.12
 3.500      1.29  0.41 -126   0.14
!
! (c) 2016  Infineon Technologies AG, Munich
