! Infineon Technologies  Discrete & RF Semiconductors
! BFP460
! VCE =  4.0 V,  IC =  6.0 mA
! Common Emitter S-Parameters:                            Jan 2016
# GHz  S  MA  R  50
!  f         S11            S21            S12            S22
! GHz     MAG   ANG      MAG   ANG      MAG   ANG      MAG   ANG
 0.030  0.8543   -6.2  18.988  175.5  0.0057   82.4  0.9835   -4.3
 0.035  0.8539   -7.2  18.960  174.7  0.0066   82.6  0.9825   -4.9
 0.040  0.8538   -8.2  18.937  173.8  0.0076   82.7  0.9816   -5.6
 0.045  0.8527   -9.0  18.862  173.0  0.0085   82.5  0.9804   -6.1
 0.050  0.8518   -9.9  18.791  172.1  0.0095   82.3  0.9793   -6.7
 0.055  0.8508  -11.2  18.771  171.6  0.0103   81.4  0.9780   -7.3
 0.060  0.8502  -12.5  18.753  171.0  0.0112   80.6  0.9769   -8.0
 0.065  0.8489  -13.5  18.790  170.2  0.0121   80.7  0.9756   -8.7
 0.070  0.8479  -14.5  18.830  169.4  0.0131   80.7  0.9745   -9.4
 0.075  0.8477  -15.4  18.770  169.0  0.0140   80.3  0.9727  -10.0
 0.080  0.8478  -16.4  18.712  168.5  0.0149   80.0  0.9711  -10.7
 0.085  0.8449  -17.5  18.678  167.8  0.0158   79.6  0.9688  -11.4
 0.090  0.8424  -18.7  18.648  167.0  0.0167   79.2  0.9667  -12.1
 0.095  0.8417  -19.6  18.552  166.4  0.0175   78.7  0.9647  -12.7
 0.100  0.8412  -20.5  18.459  165.7  0.0184   78.2  0.9628  -13.4
 0.105  0.8409  -21.5  18.433  165.1  0.0193   77.6  0.9603  -14.0
 0.110  0.8409  -22.6  18.409  164.4  0.0202   77.1  0.9579  -14.6
 0.115  0.8381  -23.6  18.374  163.7  0.0211   76.6  0.9553  -15.2
 0.120  0.8355  -24.7  18.342  163.0  0.0220   76.2  0.9528  -15.9
 0.125  0.8327  -25.6  18.284  162.4  0.0228   75.7  0.9501  -16.5
 0.130  0.8302  -26.5  18.228  161.8  0.0236   75.3  0.9476  -17.2
 0.135  0.8289  -27.5  18.186  161.1  0.0244   74.7  0.9448  -17.8
 0.140  0.8279  -28.5  18.146  160.4  0.0253   74.2  0.9422  -18.4
 0.145  0.8248  -29.5  18.062  159.7  0.0261   73.7  0.9391  -19.0
 0.150  0.8219  -30.5  17.980  159.0  0.0269   73.3  0.9362  -19.7
 0.155  0.8188  -31.4  17.908  158.4  0.0277   72.7  0.9324  -20.3
 0.160  0.8159  -32.3  17.838  157.8  0.0284   72.2  0.9288  -20.8
 0.165  0.8132  -33.3  17.770  157.2  0.0292   71.7  0.9252  -21.4
 0.170  0.8107  -34.2  17.704  156.6  0.0300   71.2  0.9218  -22.0
 0.175  0.8085  -35.1  17.640  156.0  0.0308   70.8  0.9184  -22.6
 0.180  0.8064  -36.1  17.578  155.4  0.0316   70.3  0.9151  -23.2
 0.185  0.8046  -37.0  17.518  154.8  0.0323   69.9  0.9119  -23.8
 0.190  0.8030  -38.0  17.460  154.2  0.0331   69.5  0.9089  -24.4
 0.195  0.8016  -38.9  17.404  153.5  0.0339   69.2  0.9059  -25.0
 0.200  0.8005  -39.9  17.350  152.9  0.0347   68.8  0.9030  -25.6
 0.220  0.7885  -43.4  17.031  150.6  0.0374   66.9  0.8871  -27.7
 0.240  0.7795  -47.1  16.741  148.2  0.0401   65.3  0.8725  -30.0
 0.260  0.7697  -50.5  16.437  146.0  0.0427   63.8  0.8571  -32.1
 0.280  0.7585  -53.9  16.112  143.9  0.0451   62.2  0.8406  -34.0
 0.300  0.7500  -57.3  15.810  141.7  0.0476   60.8  0.8251  -36.1
 0.320  0.7374  -60.4  15.471  139.8  0.0497   59.4  0.8084  -37.9
 0.340  0.7270  -63.7  15.149  137.8  0.0517   58.1  0.7924  -39.7
 0.360  0.7168  -66.7  14.830  135.9  0.0537   56.9  0.7765  -41.5
 0.380  0.7063  -69.6  14.510  134.2  0.0555   55.6  0.7604  -43.1
 0.400  0.6977  -72.6  14.205  132.3  0.0574   54.5  0.7450  -44.8
 0.420  0.6869  -75.3  13.889  130.7  0.0590   53.4  0.7296  -46.3
 0.440  0.6777  -78.2  13.584  129.0  0.0606   52.4  0.7147  -47.8
 0.450  0.6737  -79.6  13.436  128.1  0.0614   51.9  0.7075  -48.6
 0.460  0.6687  -80.8  13.288  127.4  0.0621   51.4  0.7001  -49.3
 0.480  0.6597  -83.3  12.997  126.0  0.0634   50.6  0.6856  -50.6
 0.500  0.6519  -85.9  12.715  124.5  0.0648   49.7  0.6715  -52.0
 0.520  0.6421  -88.1  12.441  123.3  0.0659   48.9  0.6583  -53.1
 0.540  0.6333  -90.4  12.174  122.0  0.0670   48.2  0.6453  -54.2
 0.560  0.6256  -92.8  11.913  120.6  0.0682   47.5  0.6325  -55.4
 0.580  0.6190  -95.2  11.659  119.2  0.0693   46.8  0.6201  -56.6
 0.600  0.6135  -97.7  11.413  117.7  0.0705   46.1  0.6079  -57.9
 0.620  0.6059  -99.7  11.180  116.7  0.0714   45.5  0.5966  -58.8
 0.640  0.5990 -101.7  10.951  115.6  0.0723   45.0  0.5854  -59.8
 0.660  0.5928 -103.8  10.726  114.4  0.0732   44.4  0.5744  -60.8
 0.680  0.5875 -105.9  10.505  113.2  0.0742   43.9  0.5636  -61.8
 0.700  0.5830 -108.1  10.289  112.0  0.0751   43.4  0.5530  -62.9
 0.720  0.5772 -109.9  10.091  111.1  0.0758   43.0  0.5436  -63.7
 0.740  0.5719 -111.6   9.896  110.2  0.0766   42.5  0.5343  -64.5
 0.760  0.5672 -113.5   9.703  109.2  0.0773   42.1  0.5251  -65.3
 0.780  0.5630 -115.3   9.513  108.2  0.0781   41.7  0.5160  -66.2
 0.800  0.5595 -117.2   9.326  107.2  0.0788   41.3  0.5071  -67.1
 0.820  0.5550 -118.8   9.162  106.4  0.0795   41.0  0.4992  -67.8
 0.840  0.5510 -120.4   9.000  105.6  0.0801   40.7  0.4913  -68.5
 0.860  0.5474 -122.0   8.839  104.7  0.0808   40.4  0.4836  -69.2
 0.880  0.5442 -123.6   8.681  103.8  0.0814   40.1  0.4759  -70.0
 0.900  0.5415 -125.3   8.525  102.9  0.0821   39.8  0.4683  -70.8
 0.920  0.5377 -126.7   8.384  102.2  0.0827   39.6  0.4616  -71.4
 0.940  0.5343 -128.2   8.244  101.4  0.0832   39.4  0.4550  -72.1
 0.960  0.5312 -129.7   8.105  100.6  0.0838   39.1  0.4484  -72.7
 0.980  0.5285 -131.2   7.968   99.8  0.0843   38.9  0.4419  -73.4
 1.000  0.5262 -132.7   7.833   99.0  0.0849   38.7  0.4355  -74.1
 1.020  0.5233 -134.0   7.710   98.3  0.0854   38.5  0.4299  -74.7
 1.040  0.5207 -135.3   7.589   97.7  0.0860   38.3  0.4244  -75.3
 1.060  0.5183 -136.6   7.468   97.0  0.0865   38.2  0.4189  -75.9
 1.080  0.5162 -138.0   7.349   96.2  0.0871   38.0  0.4135  -76.5
 1.100  0.5144 -139.3   7.231   95.5  0.0876   37.8  0.4081  -77.1
 1.120  0.5122 -140.5   7.126   94.9  0.0881   37.7  0.4033  -77.6
 1.140  0.5103 -141.7   7.021   94.3  0.0886   37.6  0.3985  -78.1
 1.160  0.5086 -142.9   6.918   93.6  0.0892   37.4  0.3937  -78.7
 1.180  0.5071 -144.1   6.815   93.0  0.0897   37.3  0.3890  -79.2
 1.200  0.5058 -145.3   6.713   92.3  0.0902   37.2  0.3843  -79.8
 1.220  0.5043 -146.4   6.621   91.7  0.0907   37.1  0.3803  -80.3
 1.240  0.5030 -147.6   6.530   91.2  0.0912   37.0  0.3763  -80.7
 1.260  0.5019 -148.8   6.439   90.6  0.0917   36.9  0.3723  -81.2
 1.280  0.5010 -149.9   6.349   89.9  0.0922   36.8  0.3683  -81.7
 1.300  0.5003 -151.1   6.260   89.3  0.0927   36.7  0.3644  -82.2
 1.320  0.4990 -152.1   6.179   88.8  0.0932   36.6  0.3607  -82.7
 1.340  0.4979 -153.1   6.099   88.3  0.0937   36.6  0.3571  -83.1
 1.360  0.4969 -154.1   6.019   87.7  0.0941   36.5  0.3535  -83.6
 1.380  0.4961 -155.2   5.940   87.2  0.0946   36.5  0.3499  -84.1
 1.400  0.4954 -156.2   5.861   86.6  0.0951   36.4  0.3463  -84.6
 1.420  0.4944 -157.2   5.790   86.1  0.0956   36.3  0.3433  -85.0
 1.440  0.4936 -158.2   5.720   85.6  0.0961   36.3  0.3402  -85.5
 1.460  0.4929 -159.2   5.650   85.0  0.0965   36.2  0.3372  -85.9
 1.480  0.4924 -160.2   5.581   84.5  0.0970   36.2  0.3343  -86.3
 1.500  0.4920 -161.2   5.512   83.9  0.0975   36.1  0.3313  -86.8
 1.520  0.4913 -162.1   5.448   83.4  0.0980   36.1  0.3285  -87.2
 1.540  0.4907 -163.0   5.384   82.9  0.0985   36.0  0.3258  -87.6
 1.560  0.4902 -164.0   5.321   82.4  0.0989   36.0  0.3231  -88.0
 1.580  0.4898 -164.9   5.258   81.9  0.0994   35.9  0.3204  -88.5
 1.600  0.4896 -165.8   5.196   81.4  0.0999   35.9  0.3177  -88.9
 1.620  0.4892 -166.6   5.140   80.9  0.1004   35.9  0.3153  -89.3
 1.640  0.4889 -167.4   5.085   80.5  0.1009   35.8  0.3130  -89.7
 1.660  0.4888 -168.3   5.029   80.0  0.1013   35.8  0.3106  -90.1
 1.680  0.4887 -169.1   4.974   79.5  0.1018   35.7  0.3083  -90.5
 1.700  0.4887 -169.9   4.920   79.0  0.1023   35.7  0.3060  -90.9
 1.720  0.4885 -170.7   4.869   78.5  0.1028   35.7  0.3039  -91.3
 1.740  0.4884 -171.6   4.819   78.1  0.1033   35.7  0.3018  -91.7
 1.760  0.4884 -172.4   4.769   77.6  0.1037   35.6  0.2998  -92.1
 1.780  0.4886 -173.3   4.719   77.1  0.1042   35.6  0.2977  -92.6
 1.800  0.4888 -174.1   4.670   76.6  0.1047   35.6  0.2957  -93.0
 1.820  0.4887 -174.9   4.625   76.2  0.1052   35.6  0.2938  -93.4
 1.840  0.4887 -175.6   4.580   75.7  0.1057   35.5  0.2919  -93.8
 1.860  0.4888 -176.4   4.535   75.3  0.1062   35.5  0.2900  -94.2
 1.880  0.4889 -177.1   4.490   74.9  0.1067   35.4  0.2882  -94.6
 1.900  0.4892 -177.9   4.446   74.4  0.1072   35.4  0.2863  -95.0
 1.920  0.4893 -178.6   4.404   74.0  0.1077   35.4  0.2846  -95.4
 1.940  0.4896 -179.3   4.363   73.5  0.1082   35.4  0.2830  -95.8
 1.960  0.4899  179.9   4.322   73.0  0.1087   35.3  0.2813  -96.2
 1.980  0.4902  179.2   4.281   72.6  0.1092   35.3  0.2797  -96.6
 2.000  0.4907  178.5   4.240   72.1  0.1097   35.3  0.2781  -97.0
 2.020  0.4907  177.8   4.203   71.7  0.1102   35.3  0.2766  -97.4
 2.040  0.4909  177.1   4.166   71.3  0.1107   35.2  0.2751  -97.8
 2.060  0.4911  176.4   4.129   70.9  0.1112   35.2  0.2736  -98.2
 2.080  0.4914  175.6   4.092   70.5  0.1117   35.2  0.2721  -98.6
 2.100  0.4917  174.9   4.055   70.1  0.1122   35.1  0.2706  -99.0
 2.120  0.4921  174.2   4.019   69.7  0.1127   35.1  0.2692  -99.5
 2.140  0.4926  173.5   3.983   69.2  0.1132   35.1  0.2677  -99.9
 2.160  0.4932  172.8   3.947   68.8  0.1137   35.1  0.2663 -100.3
 2.180  0.4939  172.1   3.911   68.4  0.1142   35.0  0.2649 -100.8
 2.200  0.4946  171.4   3.876   67.9  0.1147   35.0  0.2635 -101.2
 2.220  0.4950  170.8   3.845   67.5  0.1152   35.0  0.2622 -101.6
 2.240  0.4956  170.1   3.814   67.1  0.1157   34.9  0.2610 -102.0
 2.260  0.4961  169.5   3.783   66.7  0.1162   34.9  0.2597 -102.5
 2.280  0.4967  168.9   3.752   66.3  0.1167   34.8  0.2585 -102.9
 2.300  0.4974  168.3   3.722   65.9  0.1172   34.8  0.2573 -103.3
 2.320  0.4982  167.7   3.691   65.5  0.1177   34.8  0.2561 -103.8
 2.340  0.4990  167.0   3.661   65.1  0.1182   34.7  0.2549 -104.2
 2.360  0.4998  166.4   3.631   64.7  0.1187   34.7  0.2538 -104.7
 2.380  0.5007  165.8   3.602   64.2  0.1192   34.6  0.2526 -105.1
 2.400  0.5017  165.2   3.572   63.8  0.1197   34.6  0.2515 -105.6
 2.420  0.5022  164.6   3.545   63.4  0.1202   34.6  0.2505 -106.1
 2.440  0.5028  164.0   3.518   63.1  0.1207   34.5  0.2495 -106.5
 2.460  0.5035  163.4   3.491   62.7  0.1212   34.5  0.2486 -107.0
 2.480  0.5042  162.8   3.464   62.3  0.1217   34.4  0.2477 -107.4
 2.500  0.5050  162.2   3.437   61.9  0.1222   34.4  0.2467 -107.9
 2.520  0.5058  161.6   3.410   61.5  0.1228   34.4  0.2458 -108.4
 2.540  0.5066  161.0   3.384   61.1  0.1233   34.3  0.2450 -108.9
 2.560  0.5076  160.4   3.358   60.7  0.1238   34.3  0.2441 -109.3
 2.580  0.5086  159.8   3.332   60.3  0.1243   34.2  0.2432 -109.8
 2.600  0.5096  159.2   3.306   59.9  0.1248   34.2  0.2424 -110.3
 2.620  0.5102  158.6   3.282   59.5  0.1253   34.1  0.2417 -110.8
 2.640  0.5108  158.1   3.259   59.2  0.1258   34.1  0.2410 -111.3
 2.660  0.5114  157.5   3.236   58.8  0.1263   34.0  0.2403 -111.7
 2.680  0.5122  157.0   3.212   58.4  0.1268   34.0  0.2396 -112.2
 2.700  0.5129  156.4   3.189   58.1  0.1273   33.9  0.2389 -112.7
 2.720  0.5137  155.9   3.166   57.7  0.1278   33.9  0.2383 -113.2
 2.740  0.5146  155.3   3.144   57.3  0.1283   33.8  0.2377 -113.7
 2.760  0.5155  154.8   3.121   56.9  0.1288   33.8  0.2371 -114.2
 2.780  0.5164  154.2   3.098   56.5  0.1293   33.7  0.2365 -114.7
 2.800  0.5174  153.7   3.076   56.1  0.1298   33.7  0.2359 -115.2
 2.820  0.5182  153.2   3.055   55.8  0.1303   33.7  0.2354 -115.7
 2.840  0.5191  152.7   3.035   55.4  0.1308   33.6  0.2349 -116.2
 2.860  0.5200  152.2   3.014   55.0  0.1313   33.6  0.2345 -116.7
 2.880  0.5209  151.7   2.994   54.7  0.1318   33.5  0.2340 -117.1
 2.900  0.5219  151.2   2.973   54.3  0.1323   33.5  0.2336 -117.6
 2.920  0.5229  150.7   2.953   53.9  0.1329   33.5  0.2332 -118.1
 2.940  0.5239  150.2   2.933   53.6  0.1334   33.4  0.2328 -118.6
 2.960  0.5250  149.7   2.913   53.2  0.1339   33.4  0.2324 -119.1
 2.980  0.5261  149.2   2.894   52.8  0.1344   33.3  0.2320 -119.6
 3.000  0.5273  148.7   2.874   52.4  0.1349   33.3  0.2317 -120.1
 3.100  0.5308  146.3   2.787   50.9  0.1374   33.0  0.2304 -122.4
 3.200  0.5352  144.0   2.702   49.3  0.1399   32.6  0.2294 -124.7
 3.300  0.5404  141.7   2.620   47.6  0.1424   32.3  0.2289 -127.1
 3.400  0.5465  139.5   2.539   45.7  0.1449   32.0  0.2287 -129.4
 3.500  0.5534  137.3   2.462   43.8  0.1474   31.7  0.2289 -131.8
 3.600  0.5584  135.3   2.396   42.4  0.1498   31.3  0.2287 -134.3
 3.700  0.5640  133.3   2.331   40.9  0.1522   30.9  0.2289 -136.8
 3.800  0.5703  131.3   2.268   39.3  0.1546   30.6  0.2296 -139.3
 3.900  0.5772  129.5   2.206   37.6  0.1571   30.2  0.2307 -141.8
 4.000  0.5848  127.6   2.147   35.8  0.1595   29.9  0.2322 -144.3
 4.100  0.5899  126.0   2.094   34.5  0.1618   29.5  0.2344 -146.8
 4.200  0.5955  124.4   2.041   33.1  0.1640   29.1  0.2369 -149.2
 4.300  0.6016  122.9   1.991   31.6  0.1663   28.8  0.2399 -151.6
 4.400  0.6080  121.4   1.941   30.0  0.1686   28.4  0.2433 -153.9
 4.500  0.6149  119.9   1.893   28.4  0.1709   28.1  0.2471 -156.1
 4.600  0.6189  118.5   1.851   27.1  0.1733   27.8  0.2505 -157.9
 4.700  0.6233  117.2   1.810   25.8  0.1756   27.4  0.2542 -159.7
 4.800  0.6281  115.8   1.770   24.4  0.1780   27.1  0.2581 -161.4
 4.900  0.6332  114.5   1.731   23.0  0.1804   26.8  0.2623 -163.0
 5.000  0.6386  113.2   1.693   21.5  0.1828   26.5  0.2666 -164.6
 5.100  0.6417  112.1   1.660   20.4  0.1856   26.1  0.2699 -165.9
 5.200  0.6450  111.0   1.628   19.2  0.1883   25.7  0.2733 -167.1
 5.300  0.6486  109.9   1.596   18.0  0.1911   25.4  0.2769 -168.4
 5.400  0.6524  108.8   1.565   16.7  0.1939   25.0  0.2806 -169.5
 5.500  0.6565  107.7   1.535   15.4  0.1967   24.7  0.2844 -170.7
 5.600  0.6590  106.8   1.509   14.3  0.1994   24.2  0.2886 -172.0
 5.700  0.6617  105.9   1.483   13.1  0.2022   23.7  0.2929 -173.2
 5.800  0.6646  105.0   1.458   11.9  0.2049   23.2  0.2974 -174.3
 5.900  0.6676  104.1   1.434   10.6  0.2077   22.7  0.3020 -175.5
 6.000  0.6708  103.2   1.410    9.3  0.2105   22.2  0.3067 -176.6
 6.100  0.6716  102.3   1.388    8.2  0.2130   21.7  0.3108 -177.5
 6.200  0.6725  101.4   1.366    7.1  0.2155   21.2  0.3149 -178.3
 6.300  0.6736  100.5   1.344    6.0  0.2180   20.7  0.3191 -179.2
 6.400  0.6749   99.6   1.323    4.8  0.2205   20.2  0.3234  180.0
 6.500  0.6763   98.7   1.303    3.6  0.2230   19.7  0.3277  179.2
 6.600  0.6761   97.7   1.285    2.6  0.2259   19.2  0.3295  178.7
 6.800  0.6764   95.8   1.251    0.5  0.2317   18.3  0.3331  177.7
 7.000  0.6774   93.8   1.218   -1.7  0.2375   17.4  0.3368  176.7
 7.200  0.6799   91.4   1.191   -3.9  0.2440   16.2  0.3387  175.0
 7.400  0.6835   89.1   1.165   -6.2  0.2506   15.0  0.3408  173.4
 7.600  0.6884   86.6   1.140   -8.6  0.2571   13.7  0.3438  171.3
 7.800  0.6948   83.9   1.115  -11.0  0.2637   12.2  0.3479  168.7
 8.000  0.7026   81.3   1.092  -13.6  0.2704   10.7  0.3527  166.2
 8.200  0.7085   78.4   1.063  -16.0  0.2756    8.8  0.3565  163.0
 8.400  0.7161   75.6   1.036  -18.5  0.2811    7.0  0.3613  159.9
 8.600  0.7257   72.9   1.008  -20.9  0.2851    5.1  0.3660  156.1
 8.800  0.7369   70.4   0.979  -23.2  0.2876    3.2  0.3715  151.6
 9.000  0.7495   67.9   0.951  -25.6  0.2905    1.3  0.3792  147.3
 9.200  0.7651   65.8   0.920  -27.5  0.2909   -0.2  0.3918  141.8
 9.400  0.7816   63.9   0.890  -29.5  0.2915   -1.7  0.4077  136.8
 9.600  0.7960   62.1   0.860  -31.4  0.2919   -2.9  0.4258  132.2
 9.800  0.8082   60.5   0.829  -33.0  0.2918   -3.9  0.4456  128.1
10.000  0.8209   59.0   0.800  -34.7  0.2919   -4.9  0.4675  124.4
!
!  f       NFmin   Gammaopt  rn/50
! GHz       dB    MAG  ANG    -
 0.450      0.83  0.28   16   0.15
 0.900      0.84  0.26   37   0.16
 1.900      1.07  0.14  103   0.12
 3.500      1.18  0.31 -149   0.11
!
! (c) 2016  Infineon Technologies AG, Munich
