! Infineon Technologies  Discrete & RF Semiconductors
! BFP460
! VCE =  4.0 V,  IC =  50 mA
! Common Emitter S-Parameters:                            Jan 2016
# GHz  S  MA  R  50
!  f         S11            S21            S12            S22
! GHz     MAG   ANG      MAG   ANG      MAG   ANG      MAG   ANG
 0.030  0.3754  -25.2  64.106  168.4  0.0042   84.1  0.9057  -10.9
 0.035  0.3755  -29.2  63.563  166.5  0.0048   82.2  0.9012  -13.0
 0.040  0.3774  -33.1  63.094  164.5  0.0055   80.8  0.8980  -15.1
 0.045  0.3757  -36.5  62.340  162.6  0.0063   79.6  0.8916  -16.9
 0.050  0.3753  -40.0  61.655  160.7  0.0071   78.6  0.8861  -18.8
 0.055  0.3767  -44.0  61.034  159.1  0.0074   76.4  0.8771  -20.8
 0.060  0.3798  -47.9  60.460  157.5  0.0078   74.4  0.8691  -22.8
 0.065  0.3809  -52.0  59.843  155.7  0.0084   74.0  0.8598  -24.6
 0.070  0.3840  -56.0  59.286  153.9  0.0091   73.7  0.8514  -26.5
 0.075  0.3884  -59.0  58.503  152.5  0.0096   73.2  0.8409  -28.2
 0.080  0.3938  -61.9  57.757  151.0  0.0101   72.7  0.8311  -30.0
 0.085  0.3939  -65.3  56.888  149.4  0.0106   71.6  0.8194  -31.7
 0.090  0.3953  -68.6  56.064  147.8  0.0111   70.6  0.8084  -33.4
 0.095  0.3960  -71.3  55.140  146.5  0.0115   69.7  0.7971  -35.0
 0.100  0.3976  -73.9  54.244  145.2  0.0120   68.9  0.7864  -36.6
 0.105  0.4000  -76.6  53.483  143.8  0.0124   68.2  0.7746  -38.1
 0.110  0.4033  -79.2  52.754  142.4  0.0128   67.6  0.7634  -39.6
 0.115  0.4036  -82.0  51.893  141.1  0.0132   67.1  0.7518  -41.0
 0.120  0.4048  -84.7  51.058  139.8  0.0136   66.6  0.7406  -42.4
 0.125  0.4057  -87.0  50.234  138.7  0.0140   66.0  0.7288  -43.7
 0.130  0.4073  -89.3  49.431  137.5  0.0144   65.4  0.7174  -45.1
 0.135  0.4078  -91.5  48.657  136.4  0.0147   64.8  0.7063  -46.4
 0.140  0.4090  -93.7  47.903  135.2  0.0151   64.3  0.6955  -47.7
 0.145  0.4100  -95.9  47.046  134.1  0.0154   63.9  0.6844  -48.9
 0.150  0.4117  -98.1  46.206  133.0  0.0158   63.5  0.6737  -50.1
 0.155  0.4112  -99.8  45.475  132.3  0.0161   63.2  0.6632  -51.0
 0.160  0.4111 -101.5  44.752  131.5  0.0164   62.8  0.6528  -51.9
 0.165  0.4113 -103.2  44.037  130.7  0.0167   62.5  0.6426  -52.8
 0.170  0.4119 -104.8  43.331  129.9  0.0170   62.2  0.6326  -53.8
 0.175  0.4128 -106.5  42.635  129.0  0.0172   61.9  0.6227  -54.8
 0.180  0.4141 -108.2  41.948  128.1  0.0175   61.6  0.6131  -55.8
 0.185  0.4157 -109.8  41.271  127.2  0.0178   61.4  0.6037  -56.9
 0.190  0.4177 -111.5  40.605  126.3  0.0181   61.1  0.5944  -58.0
 0.195  0.4200 -113.1  39.951  125.3  0.0184   60.8  0.5855  -59.1
 0.200  0.4226 -114.7  39.308  124.3  0.0187   60.6  0.5767  -60.3
 0.220  0.4234 -119.7  37.014  121.9  0.0196   60.1  0.5447  -63.2
 0.240  0.4273 -124.7  34.796  119.1  0.0205   59.7  0.5142  -66.4
 0.260  0.4306 -128.9  32.827  116.7  0.0215   59.4  0.4870  -69.3
 0.280  0.4322 -132.6  31.067  114.8  0.0224   59.3  0.4625  -71.7
 0.300  0.4355 -136.2  29.347  112.6  0.0233   59.2  0.4390  -74.5
 0.320  0.4359 -139.2  27.930  111.1  0.0241   59.3  0.4197  -76.4
 0.340  0.4375 -142.1  26.534  109.4  0.0250   59.4  0.4009  -78.6
 0.360  0.4388 -144.8  25.282  107.9  0.0258   59.6  0.3841  -80.5
 0.380  0.4394 -147.1  24.162  106.6  0.0267   59.8  0.3691  -82.3
 0.400  0.4408 -149.4  23.055  105.2  0.0275   60.0  0.3545  -84.2
 0.420  0.4416 -151.4  22.132  104.1  0.0283   60.2  0.3423  -85.7
 0.440  0.4429 -153.3  21.217  103.0  0.0291   60.3  0.3303  -87.3
 0.450  0.4437 -154.3  20.763  102.4  0.0295   60.4  0.3244  -88.1
 0.460  0.4439 -155.1  20.384  102.0  0.0299   60.5  0.3194  -88.8
 0.480  0.4446 -156.8  19.629  101.0  0.0308   60.8  0.3096  -90.1
 0.500  0.4456 -158.4  18.880  100.0  0.0316   61.1  0.2999  -91.6
 0.520  0.4458 -159.8  18.286   99.3  0.0325   61.3  0.2923  -92.7
 0.540  0.4463 -161.1  17.696   98.5  0.0333   61.5  0.2848  -93.8
 0.560  0.4470 -162.5  17.109   97.7  0.0342   61.7  0.2774  -95.0
 0.580  0.4480 -163.9  16.525   96.8  0.0350   61.9  0.2702  -96.3
 0.600  0.4492 -165.2  15.946   95.9  0.0359   62.1  0.2631  -97.6
 0.620  0.4494 -166.3  15.511   95.3  0.0368   62.3  0.2577  -98.6
 0.640  0.4499 -167.4  15.077   94.7  0.0377   62.5  0.2524  -99.6
 0.660  0.4504 -168.5  14.646   94.0  0.0385   62.7  0.2471 -100.6
 0.680  0.4512 -169.6  14.217   93.3  0.0394   62.8  0.2420 -101.7
 0.700  0.4521 -170.7  13.790   92.5  0.0403   63.0  0.2369 -102.8
 0.720  0.4524 -171.6  13.458   92.0  0.0412   63.1  0.2330 -103.7
 0.740  0.4529 -172.5  13.126   91.4  0.0421   63.2  0.2292 -104.5
 0.760  0.4535 -173.5  12.797   90.8  0.0429   63.2  0.2254 -105.5
 0.780  0.4542 -174.4  12.468   90.2  0.0438   63.3  0.2217 -106.4
 0.800  0.4550 -175.3  12.141   89.6  0.0447   63.4  0.2180 -107.4
 0.820  0.4554 -176.1  11.881   89.1  0.0456   63.5  0.2151 -108.2
 0.840  0.4559 -176.9  11.622   88.7  0.0465   63.6  0.2123 -109.0
 0.860  0.4565 -177.6  11.364   88.2  0.0473   63.6  0.2095 -109.8
 0.880  0.4572 -178.4  11.106   87.6  0.0482   63.7  0.2068 -110.6
 0.900  0.4579 -179.2  10.850   87.1  0.0491   63.8  0.2041 -111.5
 0.920  0.4581 -179.9  10.639   86.7  0.0500   63.8  0.2019 -112.2
 0.940  0.4584  179.4  10.429   86.2  0.0509   63.8  0.1997 -112.9
 0.960  0.4587  178.6  10.220   85.8  0.0518   63.9  0.1976 -113.6
 0.980  0.4591  177.9  10.011   85.3  0.0527   63.9  0.1955 -114.3
 1.000  0.4596  177.2   9.803   84.8  0.0536   63.9  0.1934 -115.1
 1.020  0.4598  176.5   9.629   84.4  0.0545   63.9  0.1918 -115.8
 1.040  0.4601  175.9   9.455   84.0  0.0554   63.9  0.1902 -116.4
 1.060  0.4605  175.2   9.281   83.5  0.0563   63.9  0.1887 -117.1
 1.080  0.4609  174.6   9.108   83.1  0.0572   63.9  0.1872 -117.8
 1.100  0.4614  173.9   8.936   82.6  0.0581   63.9  0.1857 -118.5
 1.120  0.4618  173.3   8.790   82.2  0.0590   63.9  0.1844 -119.1
 1.140  0.4622  172.7   8.645   81.8  0.0599   63.8  0.1832 -119.7
 1.160  0.4627  172.1   8.500   81.4  0.0609   63.8  0.1820 -120.3
 1.180  0.4633  171.5   8.356   80.9  0.0618   63.7  0.1808 -120.9
 1.200  0.4639  170.9   8.212   80.5  0.0627   63.7  0.1796 -121.5
 1.220  0.4645  170.4   8.088   80.1  0.0636   63.6  0.1787 -122.0
 1.240  0.4651  169.8   7.964   79.7  0.0645   63.6  0.1778 -122.6
 1.260  0.4658  169.3   7.840   79.3  0.0655   63.5  0.1770 -123.2
 1.280  0.4665  168.7   7.717   78.9  0.0664   63.5  0.1761 -123.7
 1.300  0.4672  168.2   7.594   78.5  0.0673   63.4  0.1753 -124.3
 1.320  0.4674  167.7   7.487   78.1  0.0682   63.3  0.1745 -124.8
 1.340  0.4677  167.1   7.381   77.8  0.0691   63.3  0.1737 -125.4
 1.360  0.4680  166.6   7.275   77.4  0.0700   63.2  0.1729 -125.9
 1.380  0.4683  166.0   7.169   77.0  0.0709   63.2  0.1721 -126.5
 1.400  0.4687  165.5   7.064   76.6  0.0718   63.1  0.1713 -127.0
 1.420  0.4693  165.0   6.971   76.3  0.0727   63.0  0.1708 -127.5
 1.440  0.4700  164.5   6.879   75.9  0.0736   62.9  0.1704 -127.9
 1.460  0.4707  163.9   6.787   75.5  0.0746   62.8  0.1699 -128.4
 1.480  0.4714  163.4   6.695   75.2  0.0755   62.7  0.1695 -128.8
 1.500  0.4722  162.9   6.604   74.8  0.0764   62.6  0.1691 -129.3
 1.520  0.4727  162.4   6.522   74.5  0.0773   62.5  0.1687 -129.8
 1.540  0.4733  161.9   6.441   74.1  0.0782   62.4  0.1683 -130.3
 1.560  0.4740  161.4   6.360   73.7  0.0791   62.3  0.1679 -130.8
 1.580  0.4746  160.9   6.279   73.4  0.0800   62.2  0.1675 -131.3
 1.600  0.4753  160.4   6.198   73.0  0.0809   62.1  0.1671 -131.8
 1.620  0.4757  160.0   6.127   72.7  0.0818   62.0  0.1668 -132.2
 1.640  0.4762  159.5   6.057   72.3  0.0827   61.9  0.1666 -132.6
 1.660  0.4767  159.1   5.986   72.0  0.0836   61.7  0.1663 -133.1
 1.680  0.4772  158.6   5.916   71.7  0.0845   61.6  0.1660 -133.5
 1.700  0.4778  158.2   5.846   71.3  0.0854   61.5  0.1658 -133.9
 1.720  0.4781  157.7   5.781   71.0  0.0863   61.4  0.1656 -134.3
 1.740  0.4785  157.2   5.717   70.6  0.0872   61.3  0.1655 -134.8
 1.760  0.4789  156.8   5.652   70.2  0.0882   61.1  0.1654 -135.2
 1.780  0.4793  156.3   5.588   69.9  0.0891   61.0  0.1652 -135.7
 1.800  0.4798  155.8   5.524   69.5  0.0900   60.9  0.1651 -136.1
 1.820  0.4805  155.4   5.468   69.2  0.0909   60.8  0.1650 -136.5
 1.840  0.4812  154.9   5.412   68.9  0.0918   60.6  0.1649 -137.0
 1.860  0.4819  154.5   5.356   68.6  0.0927   60.5  0.1648 -137.4
 1.880  0.4827  154.0   5.300   68.2  0.0936   60.3  0.1647 -137.9
 1.900  0.4835  153.6   5.245   67.9  0.0945   60.2  0.1646 -138.3
 1.920  0.4841  153.2   5.193   67.6  0.0954   60.1  0.1646 -138.7
 1.940  0.4847  152.7   5.141   67.2  0.0963   59.9  0.1646 -139.2
 1.960  0.4853  152.3   5.089   66.9  0.0971   59.8  0.1646 -139.6
 1.980  0.4860  151.8   5.037   66.6  0.0980   59.6  0.1647 -140.1
 2.000  0.4867  151.4   4.986   66.2  0.0989   59.5  0.1647 -140.5
 2.020  0.4874  151.0   4.940   65.9  0.0998   59.3  0.1648 -141.0
 2.040  0.4881  150.6   4.895   65.6  0.1007   59.2  0.1649 -141.4
 2.060  0.4889  150.2   4.850   65.2  0.1015   59.0  0.1650 -141.9
 2.080  0.4897  149.7   4.804   64.9  0.1024   58.9  0.1652 -142.3
 2.100  0.4905  149.3   4.759   64.6  0.1033   58.7  0.1653 -142.8
 2.120  0.4913  148.9   4.715   64.2  0.1042   58.6  0.1655 -143.2
 2.140  0.4922  148.5   4.670   63.9  0.1051   58.4  0.1656 -143.7
 2.160  0.4931  148.1   4.625   63.5  0.1059   58.3  0.1658 -144.1
 2.180  0.4940  147.7   4.581   63.2  0.1068   58.1  0.1660 -144.6
 2.200  0.4949  147.3   4.537   62.8  0.1077   58.0  0.1662 -145.0
 2.220  0.4956  146.9   4.499   62.5  0.1086   57.8  0.1664 -145.5
 2.240  0.4964  146.5   4.461   62.2  0.1094   57.7  0.1667 -145.9
 2.260  0.4972  146.1   4.423   61.9  0.1103   57.5  0.1670 -146.4
 2.280  0.4980  145.6   4.386   61.6  0.1112   57.3  0.1672 -146.9
 2.300  0.4988  145.2   4.348   61.3  0.1120   57.2  0.1675 -147.3
 2.320  0.4996  144.8   4.311   60.9  0.1129   57.0  0.1678 -147.8
 2.340  0.5005  144.4   4.274   60.6  0.1138   56.9  0.1681 -148.2
 2.360  0.5014  144.0   4.237   60.3  0.1147   56.7  0.1684 -148.7
 2.380  0.5023  143.6   4.200   59.9  0.1155   56.5  0.1688 -149.1
 2.400  0.5033  143.2   4.163   59.6  0.1164   56.4  0.1691 -149.6
 2.420  0.5042  142.8   4.130   59.3  0.1172   56.2  0.1696 -150.1
 2.440  0.5051  142.4   4.097   59.0  0.1181   56.0  0.1700 -150.6
 2.460  0.5060  142.0   4.065   58.7  0.1189   55.9  0.1705 -151.0
 2.480  0.5069  141.7   4.032   58.4  0.1197   55.7  0.1710 -151.5
 2.500  0.5079  141.3   4.000   58.1  0.1206   55.5  0.1715 -152.0
 2.520  0.5089  140.9   3.968   57.7  0.1214   55.4  0.1720 -152.5
 2.540  0.5099  140.5   3.936   57.4  0.1223   55.2  0.1725 -152.9
 2.560  0.5109  140.1   3.904   57.1  0.1231   55.0  0.1731 -153.4
 2.580  0.5119  139.8   3.872   56.7  0.1240   54.9  0.1736 -153.8
 2.600  0.5130  139.4   3.840   56.4  0.1248   54.7  0.1742 -154.3
 2.620  0.5138  139.0   3.812   56.1  0.1256   54.5  0.1748 -154.8
 2.640  0.5146  138.7   3.784   55.8  0.1264   54.3  0.1755 -155.2
 2.660  0.5155  138.3   3.756   55.5  0.1272   54.2  0.1761 -155.7
 2.680  0.5163  138.0   3.728   55.2  0.1281   54.0  0.1768 -156.1
 2.700  0.5172  137.6   3.700   54.9  0.1289   53.8  0.1774 -156.5
 2.720  0.5181  137.3   3.672   54.6  0.1297   53.7  0.1781 -157.0
 2.740  0.5190  136.9   3.645   54.3  0.1305   53.5  0.1788 -157.4
 2.760  0.5200  136.6   3.618   54.0  0.1314   53.3  0.1795 -157.8
 2.780  0.5209  136.2   3.590   53.6  0.1322   53.2  0.1802 -158.3
 2.800  0.5219  135.9   3.563   53.3  0.1330   53.0  0.1809 -158.7
 2.820  0.5228  135.6   3.538   53.0  0.1338   52.8  0.1816 -159.1
 2.840  0.5237  135.2   3.514   52.8  0.1346   52.6  0.1824 -159.5
 2.860  0.5246  134.9   3.489   52.5  0.1354   52.4  0.1831 -159.9
 2.880  0.5255  134.6   3.465   52.2  0.1362   52.3  0.1839 -160.3
 2.900  0.5264  134.2   3.441   51.9  0.1370   52.1  0.1846 -160.7
 2.920  0.5274  133.9   3.417   51.6  0.1378   51.9  0.1854 -161.1
 2.940  0.5284  133.6   3.393   51.3  0.1386   51.7  0.1862 -161.5
 2.960  0.5294  133.3   3.369   51.0  0.1394   51.5  0.1870 -161.9
 2.980  0.5304  132.9   3.345   50.7  0.1402   51.4  0.1878 -162.3
 3.000  0.5314  132.6   3.321   50.4  0.1410   51.2  0.1886 -162.7
 3.100  0.5358  130.9   3.220   49.1  0.1447   50.2  0.1925 -164.7
 3.200  0.5407  129.3   3.121   47.8  0.1485   49.3  0.1966 -166.5
 3.300  0.5460  127.7   3.023   46.3  0.1524   48.4  0.2009 -168.3
 3.400  0.5517  126.1   2.928   44.8  0.1562   47.6  0.2053 -170.1
 3.500  0.5578  124.6   2.835   43.1  0.1601   46.8  0.2100 -171.7
 3.600  0.5631  123.1   2.758   41.9  0.1634   45.8  0.2145 -173.7
 3.700  0.5687  121.7   2.682   40.6  0.1668   44.9  0.2193 -175.7
 3.800  0.5748  120.3   2.608   39.2  0.1702   44.0  0.2244 -177.5
 3.900  0.5811  118.9   2.535   37.7  0.1737   43.1  0.2296 -179.3
 4.000  0.5878  117.5   2.464   36.2  0.1772   42.3  0.2351  179.0
 4.100  0.5932  116.3   2.403   35.0  0.1802   41.4  0.2410  177.2
 4.200  0.5988  115.1   2.343   33.8  0.1833   40.6  0.2470  175.5
 4.300  0.6047  113.9   2.284   32.6  0.1864   39.8  0.2533  173.8
 4.400  0.6109  112.7   2.226   31.2  0.1895   39.0  0.2598  172.3
 4.500  0.6173  111.6   2.170   29.8  0.1927   38.3  0.2665  170.8
 4.600  0.6214  110.5   2.122   28.7  0.1957   37.6  0.2713  169.6
 4.700  0.6256  109.4   2.075   27.6  0.1986   36.8  0.2762  168.4
 4.800  0.6302  108.3   2.029   26.4  0.2017   36.1  0.2812  167.2
 4.900  0.6349  107.2   1.984   25.2  0.2047   35.5  0.2864  166.1
 5.000  0.6399  106.1   1.940   23.9  0.2078   34.8  0.2916  165.0
 5.100  0.6428  105.2   1.904   22.9  0.2110   34.0  0.2948  164.1
 5.200  0.6459  104.2   1.868   21.9  0.2142   33.3  0.2982  163.2
 5.300  0.6491  103.3   1.832   20.8  0.2175   32.5  0.3015  162.4
 5.400  0.6525  102.4   1.798   19.7  0.2208   31.8  0.3050  161.5
 5.500  0.6561  101.5   1.764   18.5  0.2241   31.1  0.3085  160.7
 5.600  0.6582  100.7   1.735   17.5  0.2270   30.2  0.3122  159.8
 5.700  0.6604  100.0   1.706   16.4  0.2300   29.4  0.3160  159.0
 5.800  0.6628   99.2   1.678   15.3  0.2331   28.6  0.3198  158.2
 5.900  0.6652   98.4   1.651   14.2  0.2362   27.8  0.3237  157.4
 6.000  0.6678   97.7   1.624   13.0  0.2393   27.0  0.3277  156.6
 6.100  0.6683   96.9   1.599   12.0  0.2419   26.2  0.3303  156.1
 6.200  0.6689   96.1   1.574   11.0  0.2445   25.5  0.3329  155.6
 6.300  0.6696   95.4   1.550   10.0  0.2472   24.7  0.3356  155.1
 6.400  0.6704   94.6   1.527    8.9  0.2499   24.0  0.3383  154.7
 6.500  0.6714   93.8   1.504    7.8  0.2527   23.3  0.3410  154.2
 6.600  0.6709   92.9   1.485    6.8  0.2556   22.6  0.3407  153.8
 6.800  0.6703   91.0   1.447    4.8  0.2616   21.2  0.3402  153.1
 7.000  0.6705   89.1   1.412    2.7  0.2678   19.8  0.3398  152.3
 7.200  0.6724   87.0   1.383    0.6  0.2743   18.1  0.3395  150.9
 7.400  0.6752   84.9   1.355   -1.6  0.2810   16.6  0.3395  149.4
 7.600  0.6790   82.5   1.327   -3.9  0.2873   14.8  0.3412  147.6
 7.800  0.6843   80.0   1.299   -6.3  0.2933   12.9  0.3450  145.3
 8.000  0.6908   77.6   1.274   -8.8  0.2997   11.0  0.3494  143.1
 8.200  0.6963   75.0   1.241  -11.2  0.3038    8.8  0.3539  140.2
 8.400  0.7031   72.5   1.210  -13.7  0.3083    6.7  0.3593  137.5
 8.600  0.7122   70.0   1.178  -16.1  0.3111    4.7  0.3661  134.0
 8.800  0.7233   67.7   1.144  -18.4  0.3123    2.6  0.3751  129.9
 9.000  0.7355   65.5   1.113  -20.8  0.3138    0.5  0.3859  126.1
 9.200  0.7518   63.7   1.077  -22.6  0.3127   -1.1  0.4028  121.5
 9.400  0.7688   61.9   1.041  -24.6  0.3118   -2.7  0.4221  117.3
 9.600  0.7840   60.4   1.007  -26.3  0.3109   -4.0  0.4419  113.6
 9.800  0.7971   58.9   0.973  -27.8  0.3097   -5.0  0.4620  110.4
10.000  0.8107   57.5   0.940  -29.4  0.3086   -6.0  0.4833  107.4
!
!  f       NFmin   Gammaopt  rn/50
! GHz       dB    MAG  ANG    -
 0.450      1.86  0.32 -170   0.13
 0.900      1.89  0.29 -162   0.14
 1.900      1.98  0.40 -140   0.16
 3.500      1.78  0.62 -116   0.27
!
! (c) 2016  Infineon Technologies AG, Munich
