! Infineon Technologies  Discrete & RF Semiconductors
! BFP460
! VCE =  1.5 V,  IC =  35 mA
! Common Emitter S-Parameters:                            Jan 2016
# GHz  S  MA  R  50
!  f         S11            S21            S12            S22
! GHz     MAG   ANG      MAG   ANG      MAG   ANG      MAG   ANG
 0.030  0.4324  -24.2  59.269  169.2  0.0050   83.1  0.9014  -12.2
 0.035  0.4308  -28.0  58.818  167.3  0.0057   81.5  0.8964  -14.3
 0.040  0.4311  -31.8  58.436  165.3  0.0064   80.3  0.8926  -16.5
 0.045  0.4306  -35.7  57.816  163.2  0.0071   79.3  0.8857  -18.6
 0.050  0.4320  -39.5  57.274  161.1  0.0079   78.5  0.8801  -20.8
 0.055  0.4348  -42.8  56.728  159.5  0.0085   76.7  0.8717  -22.8
 0.060  0.4391  -46.0  56.226  157.9  0.0092   75.2  0.8645  -24.9
 0.065  0.4355  -49.8  55.655  156.1  0.0099   74.2  0.8551  -26.9
 0.070  0.4339  -53.6  55.138  154.3  0.0106   73.4  0.8468  -28.9
 0.075  0.4374  -56.6  54.434  152.9  0.0113   72.5  0.8366  -30.8
 0.080  0.4420  -59.5  53.764  151.4  0.0120   71.7  0.8273  -32.7
 0.085  0.4421  -62.9  52.977  149.8  0.0125   70.6  0.8161  -34.4
 0.090  0.4438  -66.2  52.232  148.2  0.0130   69.6  0.8057  -36.2
 0.095  0.4440  -68.8  51.378  146.9  0.0135   68.8  0.7948  -37.9
 0.100  0.4451  -71.3  50.552  145.5  0.0140   68.0  0.7847  -39.7
 0.105  0.4468  -73.9  49.859  144.2  0.0145   67.2  0.7733  -41.3
 0.110  0.4495  -76.5  49.193  142.8  0.0150   66.5  0.7625  -43.0
 0.115  0.4493  -79.3  48.393  141.5  0.0155   65.9  0.7513  -44.6
 0.120  0.4501  -82.0  47.619  140.1  0.0160   65.4  0.7407  -46.2
 0.125  0.4497  -84.3  46.859  139.0  0.0164   64.7  0.7293  -47.7
 0.130  0.4500  -86.7  46.118  137.8  0.0169   64.1  0.7184  -49.2
 0.135  0.4504  -88.9  45.394  136.7  0.0172   63.4  0.7076  -50.6
 0.140  0.4514  -91.1  44.688  135.5  0.0176   62.8  0.6973  -52.0
 0.145  0.4517  -93.3  43.899  134.4  0.0180   62.3  0.6867  -53.3
 0.150  0.4527  -95.5  43.127  133.3  0.0185   61.8  0.6765  -54.7
 0.155  0.4515  -97.2  42.447  132.5  0.0188   61.4  0.6662  -55.7
 0.160  0.4507  -98.9  41.774  131.8  0.0191   61.1  0.6560  -56.8
 0.165  0.4504 -100.6  41.109  131.0  0.0195   60.7  0.6461  -57.8
 0.170  0.4504 -102.3  40.453  130.1  0.0198   60.4  0.6364  -58.9
 0.175  0.4508 -104.1  39.806  129.3  0.0201   60.0  0.6270  -60.1
 0.180  0.4517 -105.8  39.168  128.4  0.0204   59.7  0.6178  -61.2
 0.185  0.4529 -107.5  38.539  127.4  0.0207   59.4  0.6089  -62.5
 0.190  0.4546 -109.2  37.921  126.5  0.0211   59.1  0.6003  -63.7
 0.195  0.4566 -110.8  37.314  125.5  0.0214   58.8  0.5919  -65.0
 0.200  0.4590 -112.5  36.718  124.5  0.0217   58.5  0.5839  -66.3
 0.220  0.4584 -117.5  34.589  122.1  0.0227   57.8  0.5529  -69.7
 0.240  0.4614 -122.5  32.529  119.4  0.0238   57.1  0.5241  -73.5
 0.260  0.4638 -126.8  30.696  117.0  0.0248   56.7  0.4987  -77.0
 0.280  0.4646 -130.6  29.055  115.0  0.0257   56.5  0.4756  -80.0
 0.300  0.4674 -134.3  27.452  112.8  0.0267   56.3  0.4539  -83.3
 0.320  0.4679 -137.3  26.131  111.3  0.0275   56.3  0.4356  -85.7
 0.340  0.4696 -140.3  24.831  109.6  0.0284   56.4  0.4182  -88.3
 0.360  0.4705 -143.0  23.660  108.1  0.0292   56.5  0.4026  -90.8
 0.380  0.4702 -145.4  22.612  106.8  0.0301   56.6  0.3888  -93.0
 0.400  0.4707 -147.8  21.577  105.3  0.0310   56.8  0.3755  -95.4
 0.420  0.4714 -149.8  20.715  104.2  0.0318   57.0  0.3642  -97.3
 0.440  0.4727 -151.8  19.860  103.1  0.0327   57.1  0.3533  -99.3
 0.450  0.4735 -152.8  19.436  102.5  0.0331   57.2  0.3480 -100.3
 0.460  0.4736 -153.7  19.082  102.1  0.0335   57.3  0.3434 -101.1
 0.480  0.4740 -155.4  18.377  101.1  0.0344   57.6  0.3346 -102.9
 0.500  0.4749 -157.1  17.678  100.1  0.0353   57.9  0.3260 -104.7
 0.520  0.4750 -158.5  17.122   99.4  0.0362   58.1  0.3191 -106.1
 0.540  0.4754 -160.0  16.569   98.6  0.0371   58.4  0.3123 -107.6
 0.560  0.4760 -161.4  16.019   97.8  0.0379   58.6  0.3058 -109.1
 0.580  0.4770 -162.9  15.472   96.9  0.0388   58.8  0.2995 -110.7
 0.600  0.4783 -164.3  14.930   95.9  0.0397   59.0  0.2935 -112.4
 0.620  0.4784 -165.4  14.522   95.3  0.0406   59.2  0.2888 -113.6
 0.640  0.4787 -166.5  14.116   94.7  0.0415   59.3  0.2841 -114.9
 0.660  0.4792 -167.6  13.711   94.0  0.0423   59.5  0.2797 -116.2
 0.680  0.4798 -168.7  13.309   93.3  0.0432   59.7  0.2754 -117.5
 0.700  0.4806 -169.8  12.909   92.5  0.0441   59.8  0.2712 -118.9
 0.720  0.4808 -170.7  12.598   92.0  0.0450   59.9  0.2678 -119.9
 0.740  0.4811 -171.7  12.288   91.4  0.0459   60.1  0.2646 -121.0
 0.760  0.4816 -172.6  11.979   90.8  0.0469   60.2  0.2614 -122.1
 0.780  0.4822 -173.6  11.672   90.2  0.0478   60.3  0.2584 -123.2
 0.800  0.4829 -174.5  11.366   89.6  0.0487   60.4  0.2554 -124.4
 0.820  0.4833 -175.3  11.123   89.1  0.0496   60.5  0.2531 -125.3
 0.840  0.4838 -176.1  10.881   88.6  0.0505   60.6  0.2508 -126.2
 0.860  0.4844 -176.9  10.640   88.1  0.0515   60.7  0.2486 -127.2
 0.880  0.4851 -177.7  10.400   87.6  0.0524   60.8  0.2465 -128.1
 0.900  0.4859 -178.5  10.161   87.0  0.0533   60.9  0.2444 -129.1
 0.920  0.4860 -179.2   9.963   86.6  0.0542   60.9  0.2426 -129.9
 0.940  0.4862 -180.0   9.766   86.1  0.0552   61.0  0.2409 -130.7
 0.960  0.4864  179.3   9.569   85.7  0.0561   61.0  0.2393 -131.6
 0.980  0.4868  178.5   9.373   85.2  0.0571   61.1  0.2377 -132.4
 1.000  0.4872  177.8   9.178   84.7  0.0580   61.1  0.2361 -133.3
 1.020  0.4876  177.1   9.015   84.3  0.0589   61.1  0.2349 -134.0
 1.040  0.4880  176.5   8.852   83.8  0.0599   61.1  0.2337 -134.7
 1.060  0.4885  175.8   8.690   83.4  0.0608   61.2  0.2326 -135.4
 1.080  0.4891  175.2   8.529   82.9  0.0618   61.2  0.2315 -136.2
 1.100  0.4897  174.5   8.368   82.4  0.0627   61.2  0.2304 -136.9
 1.120  0.4900  173.9   8.232   82.0  0.0636   61.2  0.2295 -137.5
 1.140  0.4904  173.3   8.096   81.6  0.0646   61.2  0.2285 -138.2
 1.160  0.4908  172.6   7.960   81.2  0.0655   61.1  0.2277 -138.9
 1.180  0.4913  172.0   7.825   80.8  0.0665   61.1  0.2268 -139.5
 1.200  0.4919  171.4   7.690   80.4  0.0674   61.1  0.2260 -140.2
 1.220  0.4921  170.8   7.574   80.0  0.0684   61.1  0.2254 -140.8
 1.240  0.4924  170.3   7.458   79.6  0.0693   61.0  0.2248 -141.4
 1.260  0.4927  169.7   7.342   79.2  0.0703   61.0  0.2242 -141.9
 1.280  0.4931  169.2   7.227   78.8  0.0712   60.9  0.2236 -142.5
 1.300  0.4935  168.6   7.112   78.4  0.0722   60.9  0.2231 -143.1
 1.320  0.4940  168.1   7.012   78.0  0.0732   60.8  0.2226 -143.7
 1.340  0.4945  167.5   6.913   77.7  0.0741   60.8  0.2220 -144.2
 1.360  0.4950  167.0   6.813   77.3  0.0751   60.7  0.2215 -144.8
 1.380  0.4957  166.4   6.715   76.9  0.0760   60.7  0.2211 -145.3
 1.400  0.4963  165.9   6.616   76.5  0.0770   60.6  0.2206 -145.9
 1.420  0.4967  165.4   6.529   76.1  0.0779   60.5  0.2203 -146.4
 1.440  0.4972  164.9   6.443   75.8  0.0789   60.4  0.2200 -146.9
 1.460  0.4977  164.3   6.357   75.4  0.0798   60.3  0.2197 -147.4
 1.480  0.4983  163.8   6.271   75.0  0.0808   60.2  0.2194 -147.9
 1.500  0.4989  163.3   6.185   74.6  0.0817   60.1  0.2192 -148.4
 1.520  0.4994  162.8   6.109   74.3  0.0827   60.0  0.2190 -148.9
 1.540  0.4999  162.3   6.033   73.9  0.0836   59.9  0.2188 -149.3
 1.560  0.5005  161.7   5.957   73.5  0.0846   59.9  0.2186 -149.8
 1.580  0.5011  161.2   5.881   73.2  0.0855   59.8  0.2184 -150.2
 1.600  0.5017  160.7   5.806   72.8  0.0865   59.7  0.2182 -150.7
 1.620  0.5021  160.2   5.739   72.5  0.0874   59.6  0.2181 -151.1
 1.640  0.5026  159.8   5.673   72.1  0.0884   59.5  0.2180 -151.6
 1.660  0.5030  159.3   5.606   71.7  0.0893   59.3  0.2179 -152.0
 1.680  0.5036  158.9   5.540   71.4  0.0903   59.2  0.2179 -152.5
 1.700  0.5041  158.4   5.474   71.0  0.0912   59.1  0.2178 -152.9
 1.720  0.5046  157.9   5.414   70.7  0.0922   59.0  0.2178 -153.3
 1.740  0.5051  157.5   5.354   70.3  0.0931   58.9  0.2178 -153.7
 1.760  0.5056  157.0   5.294   70.0  0.0941   58.7  0.2178 -154.1
 1.780  0.5062  156.6   5.234   69.7  0.0950   58.6  0.2179 -154.5
 1.800  0.5068  156.1   5.175   69.3  0.0960   58.5  0.2179 -154.9
 1.820  0.5074  155.6   5.122   69.0  0.0969   58.4  0.2179 -155.3
 1.840  0.5081  155.2   5.070   68.6  0.0979   58.3  0.2180 -155.7
 1.860  0.5088  154.7   5.017   68.3  0.0988   58.1  0.2180 -156.2
 1.880  0.5095  154.3   4.965   68.0  0.0998   58.0  0.2181 -156.6
 1.900  0.5103  153.8   4.913   67.6  0.1007   57.9  0.2182 -157.0
 1.920  0.5107  153.3   4.864   67.3  0.1016   57.8  0.2183 -157.4
 1.940  0.5112  152.9   4.816   66.9  0.1025   57.6  0.2185 -157.8
 1.960  0.5117  152.4   4.768   66.5  0.1035   57.5  0.2186 -158.2
 1.980  0.5122  152.0   4.720   66.2  0.1044   57.3  0.2188 -158.6
 2.000  0.5128  151.5   4.672   65.8  0.1053   57.2  0.2190 -159.0
 2.020  0.5135  151.1   4.629   65.5  0.1062   57.0  0.2192 -159.4
 2.040  0.5142  150.6   4.586   65.2  0.1072   56.9  0.2195 -159.8
 2.060  0.5150  150.2   4.544   64.9  0.1081   56.7  0.2198 -160.2
 2.080  0.5157  149.8   4.501   64.6  0.1090   56.5  0.2200 -160.6
 2.100  0.5166  149.4   4.459   64.2  0.1099   56.4  0.2203 -161.0
 2.120  0.5174  149.0   4.417   63.9  0.1109   56.2  0.2206 -161.4
 2.140  0.5182  148.5   4.375   63.6  0.1118   56.1  0.2209 -161.7
 2.160  0.5191  148.1   4.333   63.2  0.1127   55.9  0.2212 -162.1
 2.180  0.5201  147.7   4.292   62.9  0.1137   55.7  0.2216 -162.5
 2.200  0.5210  147.3   4.250   62.5  0.1146   55.6  0.2219 -162.9
 2.220  0.5218  146.9   4.214   62.2  0.1155   55.4  0.2223 -163.3
 2.240  0.5225  146.5   4.179   61.9  0.1164   55.3  0.2227 -163.7
 2.260  0.5234  146.1   4.143   61.6  0.1173   55.1  0.2232 -164.1
 2.280  0.5242  145.7   4.108   61.2  0.1181   54.9  0.2236 -164.5
 2.300  0.5250  145.3   4.072   60.9  0.1190   54.8  0.2241 -164.9
 2.320  0.5259  144.9   4.037   60.6  0.1199   54.6  0.2245 -165.3
 2.340  0.5268  144.6   4.002   60.3  0.1208   54.5  0.2250 -165.7
 2.360  0.5278  144.2   3.967   59.9  0.1217   54.3  0.2255 -166.1
 2.380  0.5287  143.8   3.933   59.6  0.1226   54.1  0.2260 -166.5
 2.400  0.5297  143.4   3.898   59.2  0.1235   54.0  0.2265 -166.9
 2.420  0.5305  143.0   3.867   58.9  0.1244   53.8  0.2271 -167.3
 2.440  0.5313  142.6   3.837   58.6  0.1253   53.6  0.2277 -167.7
 2.460  0.5321  142.2   3.806   58.3  0.1261   53.5  0.2283 -168.1
 2.480  0.5330  141.8   3.776   58.0  0.1270   53.3  0.2289 -168.4
 2.500  0.5339  141.4   3.746   57.7  0.1279   53.1  0.2296 -168.8
 2.520  0.5348  141.0   3.716   57.3  0.1288   53.0  0.2302 -169.2
 2.540  0.5357  140.6   3.686   57.0  0.1296   52.8  0.2309 -169.6
 2.560  0.5367  140.2   3.656   56.7  0.1305   52.6  0.2315 -170.0
 2.580  0.5377  139.8   3.627   56.3  0.1314   52.5  0.2322 -170.3
 2.600  0.5387  139.4   3.597   56.0  0.1323   52.3  0.2329 -170.7
 2.620  0.5395  139.0   3.571   55.7  0.1331   52.1  0.2336 -171.1
 2.640  0.5403  138.7   3.544   55.4  0.1340   51.9  0.2344 -171.4
 2.660  0.5411  138.3   3.518   55.1  0.1348   51.8  0.2352 -171.7
 2.680  0.5419  138.0   3.492   54.8  0.1357   51.6  0.2359 -172.1
 2.700  0.5428  137.6   3.466   54.5  0.1365   51.4  0.2367 -172.4
 2.720  0.5437  137.3   3.440   54.2  0.1374   51.3  0.2375 -172.8
 2.740  0.5446  136.9   3.414   53.9  0.1382   51.1  0.2383 -173.1
 2.760  0.5455  136.6   3.388   53.6  0.1391   50.9  0.2391 -173.4
 2.780  0.5464  136.2   3.363   53.2  0.1399   50.8  0.2399 -173.8
 2.800  0.5474  135.9   3.337   52.9  0.1408   50.6  0.2407 -174.1
 2.820  0.5482  135.6   3.314   52.6  0.1416   50.4  0.2415 -174.4
 2.840  0.5490  135.2   3.291   52.3  0.1424   50.2  0.2423 -174.8
 2.860  0.5499  134.9   3.268   52.0  0.1432   50.0  0.2431 -175.1
 2.880  0.5507  134.5   3.245   51.8  0.1441   49.9  0.2439 -175.4
 2.900  0.5516  134.2   3.222   51.5  0.1449   49.7  0.2448 -175.7
 2.920  0.5525  133.8   3.199   51.2  0.1457   49.5  0.2456 -176.0
 2.940  0.5534  133.5   3.176   50.8  0.1465   49.3  0.2464 -176.4
 2.960  0.5544  133.2   3.154   50.5  0.1473   49.1  0.2473 -176.7
 2.980  0.5553  132.8   3.131   50.2  0.1482   49.0  0.2481 -177.0
 3.000  0.5563  132.5   3.109   49.9  0.1490   48.8  0.2490 -177.3
 3.100  0.5603  130.8   3.014   48.6  0.1528   47.8  0.2531 -178.9
 3.200  0.5647  129.1   2.920   47.3  0.1567   46.8  0.2575  179.6
 3.300  0.5696  127.5   2.829   45.8  0.1606   45.9  0.2620  178.1
 3.400  0.5750  125.9   2.739   44.3  0.1645   45.0  0.2667  176.7
 3.500  0.5808  124.3   2.651   42.6  0.1685   44.2  0.2715  175.3
 3.600  0.5858  122.8   2.578   41.4  0.1719   43.2  0.2763  173.7
 3.700  0.5913  121.3   2.507   40.1  0.1753   42.3  0.2814  172.1
 3.800  0.5971  119.9   2.437   38.7  0.1787   41.5  0.2866  170.6
 3.900  0.6033  118.5   2.368   37.2  0.1822   40.6  0.2921  169.1
 4.000  0.6098  117.1   2.301   35.7  0.1857   39.8  0.2977  167.7
 4.100  0.6150  115.9   2.244   34.5  0.1887   38.9  0.3036  166.2
 4.200  0.6204  114.6   2.187   33.3  0.1917   38.1  0.3096  164.8
 4.300  0.6261  113.4   2.132   32.1  0.1948   37.3  0.3158  163.5
 4.400  0.6321  112.3   2.077   30.7  0.1979   36.5  0.3222  162.2
 4.500  0.6384  111.1   2.024   29.3  0.2011   35.7  0.3288  160.9
 4.600  0.6421  110.0   1.980   28.3  0.2040   35.0  0.3333  159.8
 4.700  0.6460  108.9   1.937   27.2  0.2070   34.2  0.3379  158.8
 4.800  0.6502  107.8   1.894   26.0  0.2100   33.5  0.3427  157.8
 4.900  0.6546  106.7   1.852   24.8  0.2130   32.9  0.3475  156.8
 5.000  0.6592  105.6   1.811   23.6  0.2161   32.2  0.3524  155.9
 5.100  0.6619  104.7   1.777   22.6  0.2193   31.4  0.3552  155.0
 5.200  0.6647  103.7   1.743   21.6  0.2225   30.7  0.3580  154.2
 5.300  0.6677  102.8   1.710   20.5  0.2258   29.9  0.3609  153.3
 5.400  0.6709  101.9   1.678   19.4  0.2291   29.2  0.3639  152.5
 5.500  0.6742  101.0   1.646   18.3  0.2324   28.5  0.3670  151.7
 5.600  0.6760  100.2   1.619   17.3  0.2353   27.6  0.3702  150.9
 5.700  0.6779   99.4   1.593   16.2  0.2383   26.8  0.3734  150.2
 5.800  0.6800   98.6   1.567   15.1  0.2413   26.0  0.3767  149.4
 5.900  0.6822   97.8   1.542   14.0  0.2444   25.2  0.3801  148.7
 6.000  0.6845   97.0   1.518   12.8  0.2475   24.4  0.3835  148.0
 6.100  0.6847   96.2   1.495   11.8  0.2501   23.6  0.3854  147.5
 6.200  0.6851   95.4   1.473   10.9  0.2527   22.9  0.3873  147.0
 6.300  0.6856   94.7   1.451    9.8  0.2553   22.1  0.3892  146.5
 6.400  0.6862   93.9   1.429    8.8  0.2580   21.4  0.3911  146.0
 6.500  0.6869   93.1   1.408    7.7  0.2607   20.7  0.3931  145.5
 6.600  0.6862   92.2   1.391    6.8  0.2637   20.0  0.3922  145.1
 6.800  0.6853   90.3   1.358    4.8  0.2698   18.6  0.3903  144.2
 7.000  0.6852   88.5   1.326    2.8  0.2760   17.2  0.3886  143.4
 7.200  0.6866   86.3   1.299    0.7  0.2825   15.5  0.3877  141.9
 7.400  0.6890   84.2   1.274   -1.5  0.2892   13.9  0.3870  140.4
 7.600  0.6927   81.8   1.249   -3.8  0.2954   12.1  0.3885  138.5
 7.800  0.6979   79.4   1.223   -6.2  0.3014   10.1  0.3922  136.3
 8.000  0.7044   76.9   1.200   -8.7  0.3077    8.2  0.3966  134.1
 8.200  0.7093   74.3   1.170  -11.0  0.3114    6.0  0.4010  131.3
 8.400  0.7157   71.8   1.141  -13.5  0.3156    3.9  0.4064  128.6
 8.600  0.7244   69.3   1.112  -15.9  0.3179    1.7  0.4134  125.4
 8.800  0.7351   67.1   1.080  -18.2  0.3185   -0.4  0.4228  121.7
 9.000  0.7470   64.9   1.050  -20.6  0.3195   -2.5  0.4339  118.1
 9.200  0.7623   63.0   1.015  -22.4  0.3178   -4.0  0.4510  114.0
 9.400  0.7783   61.3   0.981  -24.3  0.3163   -5.6  0.4703  110.3
 9.600  0.7926   59.6   0.949  -26.0  0.3148   -6.9  0.4896  107.0
 9.800  0.8049   58.1   0.917  -27.4  0.3130   -7.8  0.5085  104.1
10.000  0.8178   56.7   0.885  -28.9  0.3113   -8.8  0.5286  101.4
!
!  f       NFmin   Gammaopt  rn/50
! GHz       dB    MAG  ANG    -
 0.450      1.56  0.23 -168   0.12
 0.900      1.59  0.20 -163   0.13
 1.900      1.71  0.31 -143   0.14
 3.500      1.58  0.54 -119   0.20
!
! (c) 2016  Infineon Technologies AG, Munich
