! Infineon Technologies  Discrete & RF Semiconductors
! BFP460
! VCE =  1.5 V,  IC =  20 mA
! Common Emitter S-Parameters:                            Jan 2016
# GHz  S  MA  R  50
!  f         S11            S21            S12            S22
! GHz     MAG   ANG      MAG   ANG      MAG   ANG      MAG   ANG
 0.030  0.5972  -15.9  45.456  171.5  0.0055   84.8  0.9369   -9.8
 0.035  0.5944  -18.4  45.230  169.9  0.0064   83.1  0.9336  -11.4
 0.040  0.5928  -20.9  45.039  168.3  0.0074   81.8  0.9310  -13.1
 0.045  0.5891  -23.3  44.704  166.6  0.0081   80.4  0.9263  -14.8
 0.050  0.5864  -25.8  44.411  164.8  0.0089   79.2  0.9224  -16.5
 0.055  0.5872  -28.5  44.146  163.6  0.0097   78.6  0.9169  -18.1
 0.060  0.5892  -31.1  43.903  162.3  0.0105   78.0  0.9121  -19.7
 0.065  0.5838  -33.7  43.680  160.8  0.0113   76.7  0.9057  -21.3
 0.070  0.5796  -36.3  43.487  159.3  0.0121   75.6  0.9001  -22.9
 0.075  0.5807  -38.6  43.106  158.2  0.0129   74.6  0.8930  -24.4
 0.080  0.5826  -40.8  42.742  157.0  0.0138   73.8  0.8865  -26.0
 0.085  0.5801  -43.2  42.331  155.7  0.0145   72.9  0.8784  -27.5
 0.090  0.5786  -45.7  41.944  154.3  0.0153   72.0  0.8710  -29.0
 0.095  0.5751  -47.7  41.444  153.1  0.0159   71.0  0.8631  -30.4
 0.100  0.5724  -49.8  40.962  151.9  0.0166   70.1  0.8557  -31.9
 0.105  0.5721  -52.0  40.598  150.7  0.0173   69.5  0.8471  -33.3
 0.110  0.5727  -54.2  40.251  149.5  0.0180   68.9  0.8391  -34.8
 0.115  0.5686  -56.4  39.803  148.3  0.0186   68.1  0.8303  -36.1
 0.120  0.5654  -58.7  39.373  147.1  0.0193   67.3  0.8219  -37.5
 0.125  0.5624  -60.6  38.923  146.1  0.0198   66.6  0.8130  -38.8
 0.130  0.5600  -62.6  38.487  145.0  0.0204   66.0  0.8046  -40.1
 0.135  0.5573  -64.6  38.060  143.9  0.0210   65.4  0.7956  -41.4
 0.140  0.5553  -66.7  37.648  142.8  0.0216   64.8  0.7870  -42.7
 0.145  0.5528  -68.5  37.144  141.8  0.0221   64.1  0.7781  -43.9
 0.150  0.5509  -70.4  36.652  140.7  0.0226   63.5  0.7695  -45.1
 0.155  0.5472  -72.0  36.195  139.9  0.0231   62.9  0.7600  -46.1
 0.160  0.5440  -73.6  35.745  139.1  0.0235   62.4  0.7508  -47.1
 0.165  0.5412  -75.3  35.303  138.3  0.0240   61.9  0.7418  -48.1
 0.170  0.5389  -76.9  34.867  137.5  0.0244   61.4  0.7330  -49.1
 0.175  0.5370  -78.6  34.439  136.6  0.0249   60.9  0.7245  -50.2
 0.180  0.5356  -80.3  34.019  135.7  0.0253   60.4  0.7163  -51.3
 0.185  0.5346  -82.0  33.608  134.8  0.0258   60.0  0.7083  -52.4
 0.190  0.5342  -83.7  33.205  133.9  0.0263   59.5  0.7006  -53.5
 0.195  0.5341  -85.4  32.810  133.0  0.0267   59.1  0.6931  -54.7
 0.200  0.5346  -87.1  32.425  132.0  0.0272   58.7  0.6860  -55.9
 0.220  0.5248  -92.4  30.850  129.4  0.0285   57.3  0.6547  -59.3
 0.240  0.5197  -97.9  29.347  126.5  0.0299   56.1  0.6260  -62.9
 0.260  0.5154 -102.9  27.965  123.9  0.0312   55.0  0.5995  -66.3
 0.280  0.5107 -107.3  26.672  121.7  0.0323   54.2  0.5743  -69.2
 0.300  0.5091 -111.7  25.421  119.3  0.0334   53.4  0.5508  -72.4
 0.320  0.5039 -115.3  24.320  117.6  0.0344   52.9  0.5298  -74.9
 0.340  0.5009 -119.0  23.243  115.7  0.0353   52.5  0.5098  -77.5
 0.360  0.4981 -122.4  22.259  114.0  0.0363   52.2  0.4915  -79.9
 0.380  0.4951 -125.4  21.359  112.5  0.0372   51.9  0.4747  -82.1
 0.400  0.4935 -128.5  20.475  110.8  0.0381   51.6  0.4586  -84.5
 0.420  0.4913 -131.1  19.712  109.6  0.0389   51.5  0.4445  -86.4
 0.440  0.4902 -133.8  18.958  108.2  0.0398   51.4  0.4309  -88.4
 0.450  0.4900 -135.1  18.586  107.5  0.0402   51.3  0.4243  -89.5
 0.460  0.4887 -136.2  18.265  107.0  0.0406   51.3  0.4185  -90.3
 0.480  0.4868 -138.4  17.629  105.9  0.0414   51.3  0.4070  -92.1
 0.500  0.4856 -140.7  16.999  104.7  0.0422   51.3  0.3960  -93.9
 0.520  0.4839 -142.5  16.487  103.9  0.0430   51.4  0.3867  -95.3
 0.540  0.4827 -144.4  15.978  103.0  0.0438   51.5  0.3777  -96.8
 0.560  0.4819 -146.2  15.474  102.0  0.0446   51.5  0.3689  -98.4
 0.580  0.4817 -148.1  14.974  101.0  0.0454   51.6  0.3605 -100.0
 0.600  0.4820 -149.9  14.479   99.9  0.0462   51.7  0.3523 -101.7
 0.620  0.4810 -151.4  14.095   99.2  0.0470   51.8  0.3457 -102.9
 0.640  0.4803 -152.9  13.712   98.5  0.0478   52.0  0.3393 -104.2
 0.660  0.4800 -154.4  13.333   97.7  0.0486   52.1  0.3331 -105.6
 0.680  0.4800 -155.9  12.955   96.9  0.0494   52.2  0.3270 -107.0
 0.700  0.4803 -157.4  12.581   96.0  0.0502   52.3  0.3212 -108.4
 0.720  0.4798 -158.6  12.285   95.4  0.0510   52.4  0.3164 -109.5
 0.740  0.4796 -159.8  11.990   94.8  0.0518   52.6  0.3117 -110.6
 0.760  0.4796 -161.1  11.697   94.1  0.0526   52.7  0.3071 -111.7
 0.780  0.4798 -162.3  11.406   93.4  0.0534   52.9  0.3026 -112.9
 0.800  0.4802 -163.5  11.116   92.7  0.0542   53.0  0.2983 -114.1
 0.820  0.4801 -164.6  10.883   92.2  0.0550   53.1  0.2947 -115.1
 0.840  0.4802 -165.6  10.650   91.6  0.0558   53.2  0.2913 -116.0
 0.860  0.4804 -166.7  10.419   91.0  0.0567   53.3  0.2879 -117.0
 0.880  0.4808 -167.7  10.189   90.4  0.0575   53.4  0.2846 -118.1
 0.900  0.4814 -168.8   9.960   89.8  0.0583   53.5  0.2814 -119.1
 0.920  0.4811 -169.7   9.770   89.3  0.0591   53.6  0.2787 -120.0
 0.940  0.4810 -170.6   9.580   88.8  0.0600   53.7  0.2760 -120.8
 0.960  0.4809 -171.5   9.391   88.2  0.0608   53.7  0.2734 -121.7
 0.980  0.4810 -172.4   9.203   87.7  0.0617   53.8  0.2709 -122.7
 1.000  0.4812 -173.3   9.016   87.1  0.0625   53.9  0.2684 -123.6
 1.020  0.4812 -174.1   8.858   86.7  0.0634   54.0  0.2664 -124.4
 1.040  0.4814 -174.9   8.700   86.2  0.0642   54.0  0.2644 -125.2
 1.060  0.4816 -175.8   8.543   85.7  0.0651   54.1  0.2625 -126.0
 1.080  0.4820 -176.6   8.386   85.2  0.0659   54.1  0.2607 -126.9
 1.100  0.4824 -177.4   8.230   84.7  0.0668   54.2  0.2589 -127.7
 1.120  0.4824 -178.2   8.097   84.3  0.0677   54.3  0.2573 -128.4
 1.140  0.4826 -178.9   7.965   83.8  0.0686   54.3  0.2557 -129.1
 1.160  0.4828 -179.7   7.833   83.4  0.0694   54.4  0.2542 -129.8
 1.180  0.4831  179.6   7.702   82.9  0.0703   54.4  0.2527 -130.6
 1.200  0.4835  178.8   7.571   82.4  0.0712   54.5  0.2512 -131.3
 1.220  0.4838  178.1   7.457   82.0  0.0721   54.5  0.2500 -131.9
 1.240  0.4842  177.5   7.344   81.6  0.0730   54.5  0.2488 -132.6
 1.260  0.4847  176.8   7.231   81.2  0.0738   54.5  0.2477 -133.3
 1.280  0.4852  176.2   7.119   80.7  0.0747   54.5  0.2466 -133.9
 1.300  0.4858  175.5   7.007   80.3  0.0756   54.5  0.2455 -134.6
 1.320  0.4860  174.8   6.910   79.9  0.0765   54.5  0.2445 -135.2
 1.340  0.4862  174.2   6.813   79.5  0.0774   54.5  0.2435 -135.8
 1.360  0.4865  173.5   6.716   79.1  0.0782   54.5  0.2425 -136.4
 1.380  0.4869  172.9   6.620   78.6  0.0791   54.5  0.2416 -137.1
 1.400  0.4873  172.2   6.524   78.2  0.0800   54.5  0.2407 -137.7
 1.420  0.4877  171.6   6.439   77.8  0.0809   54.5  0.2400 -138.3
 1.440  0.4881  171.0   6.354   77.4  0.0818   54.4  0.2394 -138.8
 1.460  0.4886  170.3   6.270   77.0  0.0826   54.4  0.2387 -139.4
 1.480  0.4891  169.7   6.186   76.6  0.0835   54.3  0.2381 -139.9
 1.500  0.4897  169.1   6.102   76.2  0.0844   54.3  0.2375 -140.5
 1.520  0.4902  168.5   6.027   75.8  0.0853   54.3  0.2369 -141.0
 1.540  0.4907  167.9   5.953   75.5  0.0862   54.2  0.2364 -141.6
 1.560  0.4913  167.4   5.879   75.1  0.0870   54.2  0.2358 -142.1
 1.580  0.4919  166.8   5.805   74.7  0.0879   54.1  0.2353 -142.7
 1.600  0.4926  166.2   5.731   74.3  0.0888   54.1  0.2348 -143.2
 1.620  0.4929  165.7   5.666   73.9  0.0897   54.0  0.2344 -143.7
 1.640  0.4932  165.2   5.601   73.6  0.0906   54.0  0.2339 -144.2
 1.660  0.4936  164.6   5.536   73.2  0.0915   53.9  0.2335 -144.7
 1.680  0.4940  164.1   5.471   72.8  0.0924   53.9  0.2332 -145.2
 1.700  0.4945  163.6   5.407   72.4  0.0933   53.8  0.2328 -145.7
 1.720  0.4950  163.1   5.348   72.1  0.0942   53.7  0.2325 -146.2
 1.740  0.4955  162.5   5.288   71.7  0.0951   53.6  0.2323 -146.7
 1.760  0.4961  162.0   5.229   71.3  0.0960   53.6  0.2320 -147.1
 1.780  0.4967  161.4   5.171   71.0  0.0969   53.5  0.2318 -147.6
 1.800  0.4974  160.9   5.112   70.6  0.0978   53.4  0.2316 -148.1
 1.820  0.4978  160.4   5.060   70.3  0.0987   53.3  0.2314 -148.6
 1.840  0.4982  159.9   5.008   69.9  0.0996   53.2  0.2312 -149.0
 1.860  0.4987  159.3   4.957   69.5  0.1004   53.2  0.2310 -149.5
 1.880  0.4992  158.8   4.905   69.2  0.1013   53.1  0.2309 -149.9
 1.900  0.4998  158.3   4.854   68.8  0.1022   53.0  0.2307 -150.4
 1.920  0.5006  157.8   4.806   68.5  0.1031   52.9  0.2306 -150.9
 1.940  0.5015  157.3   4.759   68.1  0.1040   52.8  0.2306 -151.3
 1.960  0.5023  156.9   4.712   67.7  0.1049   52.7  0.2305 -151.8
 1.980  0.5032  156.4   4.665   67.4  0.1058   52.6  0.2305 -152.2
 2.000  0.5042  155.9   4.618   67.0  0.1067   52.5  0.2305 -152.7
 2.020  0.5048  155.4   4.576   66.7  0.1076   52.4  0.2305 -153.1
 2.040  0.5055  154.9   4.534   66.4  0.1085   52.3  0.2306 -153.6
 2.060  0.5063  154.4   4.492   66.0  0.1093   52.2  0.2306 -154.0
 2.080  0.5070  154.0   4.450   65.7  0.1102   52.0  0.2307 -154.5
 2.100  0.5078  153.5   4.409   65.3  0.1111   51.9  0.2308 -154.9
 2.120  0.5086  153.0   4.368   65.0  0.1120   51.8  0.2309 -155.3
 2.140  0.5095  152.5   4.326   64.6  0.1129   51.7  0.2310 -155.8
 2.160  0.5104  152.0   4.285   64.3  0.1137   51.6  0.2311 -156.2
 2.180  0.5113  151.6   4.245   63.9  0.1146   51.5  0.2312 -156.7
 2.200  0.5123  151.1   4.204   63.5  0.1155   51.4  0.2314 -157.1
 2.220  0.5129  150.7   4.169   63.2  0.1164   51.3  0.2316 -157.6
 2.240  0.5136  150.2   4.134   62.9  0.1172   51.1  0.2318 -158.0
 2.260  0.5142  149.8   4.099   62.5  0.1181   51.0  0.2321 -158.5
 2.280  0.5149  149.3   4.064   62.2  0.1189   50.9  0.2323 -158.9
 2.300  0.5157  148.9   4.029   61.9  0.1198   50.7  0.2326 -159.4
 2.320  0.5164  148.4   3.995   61.5  0.1207   50.6  0.2329 -159.8
 2.340  0.5172  148.0   3.960   61.2  0.1215   50.5  0.2332 -160.3
 2.360  0.5181  147.6   3.926   60.8  0.1224   50.3  0.2335 -160.7
 2.380  0.5189  147.1   3.892   60.5  0.1232   50.2  0.2339 -161.2
 2.400  0.5198  146.7   3.858   60.1  0.1241   50.1  0.2342 -161.6
 2.420  0.5206  146.3   3.828   59.8  0.1249   49.9  0.2346 -162.0
 2.440  0.5215  145.8   3.797   59.5  0.1258   49.8  0.2351 -162.5
 2.460  0.5224  145.4   3.767   59.2  0.1266   49.6  0.2355 -162.9
 2.480  0.5233  145.0   3.737   58.8  0.1274   49.5  0.2360 -163.3
 2.500  0.5242  144.6   3.707   58.5  0.1282   49.3  0.2365 -163.7
 2.520  0.5252  144.2   3.678   58.2  0.1291   49.2  0.2370 -164.1
 2.540  0.5262  143.7   3.648   57.8  0.1299   49.0  0.2375 -164.6
 2.560  0.5273  143.3   3.619   57.5  0.1307   48.9  0.2380 -165.0
 2.580  0.5283  142.9   3.589   57.2  0.1316   48.7  0.2386 -165.4
 2.600  0.5294  142.5   3.560   56.8  0.1324   48.6  0.2391 -165.8
 2.620  0.5302  142.1   3.534   56.5  0.1332   48.4  0.2397 -166.2
 2.640  0.5310  141.7   3.508   56.2  0.1340   48.3  0.2403 -166.6
 2.660  0.5319  141.3   3.482   55.9  0.1349   48.1  0.2410 -167.0
 2.680  0.5327  140.9   3.456   55.6  0.1357   48.0  0.2416 -167.4
 2.700  0.5336  140.5   3.431   55.3  0.1365   47.8  0.2423 -167.8
 2.720  0.5346  140.1   3.405   54.9  0.1373   47.7  0.2429 -168.2
 2.740  0.5355  139.8   3.380   54.6  0.1381   47.5  0.2436 -168.6
 2.760  0.5365  139.4   3.354   54.3  0.1390   47.4  0.2443 -169.0
 2.780  0.5375  139.0   3.329   53.9  0.1398   47.2  0.2450 -169.4
 2.800  0.5385  138.6   3.304   53.6  0.1406   47.1  0.2457 -169.8
 2.820  0.5393  138.2   3.281   53.3  0.1414   46.9  0.2464 -170.2
 2.840  0.5401  137.9   3.258   53.0  0.1422   46.8  0.2471 -170.5
 2.860  0.5410  137.5   3.236   52.7  0.1430   46.6  0.2478 -170.9
 2.880  0.5419  137.1   3.213   52.4  0.1438   46.5  0.2485 -171.3
 2.900  0.5428  136.7   3.190   52.1  0.1446   46.3  0.2492 -171.6
 2.920  0.5437  136.4   3.168   51.8  0.1454   46.2  0.2500 -172.0
 2.940  0.5446  136.0   3.146   51.5  0.1462   46.0  0.2507 -172.3
 2.960  0.5456  135.6   3.123   51.2  0.1470   45.9  0.2515 -172.7
 2.980  0.5466  135.3   3.101   50.8  0.1478   45.7  0.2522 -173.0
 3.000  0.5476  134.9   3.079   50.5  0.1486   45.6  0.2530 -173.4
 3.100  0.5516  133.1   2.985   49.2  0.1523   44.7  0.2567 -175.1
 3.200  0.5562  131.3   2.893   47.8  0.1560   43.8  0.2605 -176.7
 3.300  0.5613  129.6   2.802   46.3  0.1597   43.0  0.2646 -178.3
 3.400  0.5669  127.9   2.714   44.7  0.1635   42.2  0.2689 -179.9
 3.500  0.5730  126.2   2.628   43.0  0.1673   41.5  0.2734  178.6
 3.600  0.5781  124.6   2.556   41.8  0.1706   40.6  0.2778  176.8
 3.700  0.5836  123.1   2.485   40.4  0.1739   39.8  0.2824  175.1
 3.800  0.5895  121.6   2.416   39.0  0.1773   38.9  0.2873  173.4
 3.900  0.5958  120.1   2.348   37.6  0.1807   38.2  0.2925  171.8
 4.000  0.6025  118.7   2.282   36.0  0.1841   37.4  0.2978  170.3
 4.100  0.6077  117.4   2.225   34.8  0.1870   36.6  0.3034  168.7
 4.200  0.6133  116.1   2.169   33.6  0.1900   35.9  0.3091  167.3
 4.300  0.6191  114.8   2.114   32.3  0.1930   35.1  0.3151  165.8
 4.400  0.6253  113.6   2.061   30.9  0.1960   34.4  0.3213  164.4
 4.500  0.6317  112.4   2.008   29.5  0.1991   33.7  0.3276  163.1
 4.600  0.6355  111.2   1.964   28.4  0.2020   33.0  0.3319  162.0
 4.700  0.6395  110.1   1.920   27.3  0.2049   32.3  0.3363  160.9
 4.800  0.6438  108.9   1.878   26.1  0.2078   31.7  0.3409  159.8
 4.900  0.6484  107.8   1.836   24.9  0.2107   31.0  0.3455  158.8
 5.000  0.6532  106.7   1.795   23.6  0.2137   30.4  0.3503  157.8
 5.100  0.6558  105.7   1.761   22.6  0.2168   29.7  0.3530  156.9
 5.200  0.6586  104.8   1.728   21.6  0.2200   28.9  0.3557  156.0
 5.300  0.6615  103.8   1.696   20.5  0.2232   28.2  0.3586  155.2
 5.400  0.6647  102.8   1.664   19.4  0.2264   27.6  0.3615  154.3
 5.500  0.6680  101.9   1.633   18.2  0.2297   26.9  0.3645  153.5
 5.600  0.6700  101.1   1.606   17.2  0.2326   26.1  0.3677  152.7
 5.700  0.6721  100.3   1.580   16.1  0.2355   25.3  0.3709  151.9
 5.800  0.6744   99.5   1.555   15.0  0.2385   24.6  0.3743  151.2
 5.900  0.6768   98.7   1.530   13.9  0.2415   23.8  0.3777  150.4
 6.000  0.6793   97.9   1.506   12.7  0.2446   23.1  0.3811  149.7
 6.100  0.6795   97.1   1.483   11.7  0.2471   22.3  0.3830  149.2
 6.200  0.6798   96.3   1.461   10.8  0.2497   21.6  0.3849  148.6
 6.300  0.6803   95.5   1.439    9.7  0.2523   20.9  0.3869  148.1
 6.400  0.6809   94.7   1.417    8.7  0.2549   20.2  0.3889  147.6
 6.500  0.6816   93.9   1.396    7.6  0.2576   19.5  0.3909  147.1
 6.600  0.6810   93.0   1.379    6.6  0.2605   18.8  0.3901  146.7
 6.800  0.6803   91.1   1.346    4.7  0.2666   17.5  0.3884  145.8
 7.000  0.6803   89.2   1.314    2.6  0.2727   16.2  0.3869  145.0
 7.200  0.6818   87.0   1.287    0.5  0.2791   14.5  0.3861  143.5
 7.400  0.6844   84.8   1.263   -1.7  0.2858   13.0  0.3855  142.0
 7.600  0.6880   82.4   1.238   -4.0  0.2920   11.2  0.3869  140.1
 7.800  0.6931   80.0   1.213   -6.4  0.2980    9.3  0.3906  137.8
 8.000  0.6995   77.5   1.190   -9.0  0.3042    7.5  0.3949  135.6
 8.200  0.7049   74.9   1.160  -11.3  0.3080    5.3  0.3993  132.8
 8.400  0.7117   72.3   1.131  -13.8  0.3122    3.2  0.4046  130.0
 8.600  0.7207   69.8   1.102  -16.2  0.3147    1.2  0.4115  126.8
 8.800  0.7316   67.5   1.070  -18.5  0.3154   -0.9  0.4207  123.0
 9.000  0.7436   65.3   1.041  -20.9  0.3165   -3.0  0.4316  119.4
 9.200  0.7592   63.4   1.007  -22.7  0.3149   -4.6  0.4484  115.2
 9.400  0.7756   61.6   0.973  -24.7  0.3136   -6.2  0.4675  111.4
 9.600  0.7901   60.0   0.941  -26.4  0.3121   -7.5  0.4867  108.1
 9.800  0.8024   58.5   0.909  -27.8  0.3104   -8.4  0.5056  105.2
10.000  0.8152   57.1   0.878  -29.3  0.3088   -9.3  0.5257  102.5
!
!  f       NFmin   Gammaopt  rn/50
! GHz       dB    MAG  ANG    -
 0.450      1.24  0.07 -176   0.13
 0.900      1.26  0.04  175   0.15
 1.900      1.38  0.18 -150   0.12
 3.500      1.34  0.41 -125   0.15
!
! (c) 2016  Infineon Technologies AG, Munich
