! Infineon Technologies  Discrete & RF Semiconductors
! BFP460
! VCE =  2.5 V,  IC =  70 mA
! Common Emitter S-Parameters:                            Jan 2016
# GHz  S  MA  R  50
!  f         S11            S21            S12            S22
! GHz     MAG   ANG      MAG   ANG      MAG   ANG      MAG   ANG
 0.030  0.2491  -44.0  65.244  167.6  0.0043   84.3  0.8345  -12.2
 0.035  0.2543  -50.1  64.607  165.4  0.0048   81.7  0.8292  -14.6
 0.040  0.2623  -55.8  64.070  163.1  0.0054   79.6  0.8255  -17.1
 0.045  0.2662  -61.1  63.201  160.7  0.0059   78.0  0.8171  -19.4
 0.050  0.2723  -66.3  62.443  158.3  0.0065   76.7  0.8101  -21.8
 0.055  0.2839  -70.9  61.649  156.4  0.0071   75.9  0.8004  -24.0
 0.060  0.2972  -75.2  60.923  154.5  0.0077   75.3  0.7918  -26.2
 0.065  0.3063  -79.8  60.054  152.5  0.0082   73.7  0.7802  -28.3
 0.070  0.3173  -84.2  59.258  150.5  0.0087   72.2  0.7696  -30.5
 0.075  0.3259  -87.3  58.280  148.9  0.0091   71.5  0.7572  -32.5
 0.080  0.3354  -90.3  57.350  147.2  0.0095   70.9  0.7457  -34.5
 0.085  0.3429  -93.7  56.269  145.5  0.0099   70.2  0.7328  -36.3
 0.090  0.3515  -97.0  55.241  143.7  0.0103   69.5  0.7206  -38.2
 0.095  0.3569  -99.6  54.141  142.2  0.0107   68.2  0.7076  -39.9
 0.100  0.3630 -102.2  53.079  140.7  0.0112   67.0  0.6953  -41.6
 0.105  0.3704 -104.5  52.140  139.3  0.0115   66.7  0.6824  -43.2
 0.110  0.3783 -106.8  51.235  137.8  0.0119   66.4  0.6701  -44.9
 0.115  0.3836 -109.4  50.207  136.5  0.0122   65.8  0.6576  -46.4
 0.120  0.3896 -112.0  49.206  135.1  0.0126   65.3  0.6455  -47.9
 0.125  0.3931 -114.2  48.252  133.9  0.0129   64.7  0.6332  -49.3
 0.130  0.3971 -116.4  47.319  132.7  0.0133   64.2  0.6212  -50.7
 0.135  0.4027 -118.2  46.429  131.5  0.0136   63.8  0.6096  -52.0
 0.140  0.4086 -120.0  45.559  130.3  0.0139   63.4  0.5983  -53.4
 0.145  0.4128 -121.8  44.616  129.2  0.0141   63.0  0.5872  -54.6
 0.150  0.4174 -123.5  43.690  128.1  0.0143   62.6  0.5763  -55.9
 0.155  0.4194 -124.9  42.912  127.4  0.0145   62.4  0.5662  -56.8
 0.160  0.4216 -126.3  42.142  126.6  0.0148   62.2  0.5563  -57.6
 0.165  0.4240 -127.7  41.378  125.9  0.0150   62.0  0.5465  -58.6
 0.170  0.4267 -129.1  40.622  125.1  0.0153   61.9  0.5369  -59.5
 0.175  0.4297 -130.4  39.875  124.2  0.0155   61.7  0.5274  -60.5
 0.180  0.4329 -131.8  39.136  123.4  0.0158   61.5  0.5181  -61.5
 0.185  0.4363 -133.1  38.407  122.5  0.0160   61.4  0.5089  -62.6
 0.190  0.4400 -134.4  37.687  121.6  0.0163   61.2  0.5000  -63.7
 0.195  0.4438 -135.7  36.977  120.6  0.0165   61.0  0.4912  -64.8
 0.200  0.4479 -136.9  36.278  119.6  0.0168   60.9  0.4826  -66.0
 0.220  0.4539 -140.7  33.978  117.3  0.0177   60.9  0.4537  -68.8
 0.240  0.4618 -144.3  31.739  114.7  0.0186   60.8  0.4259  -72.0
 0.260  0.4681 -147.5  29.781  112.5  0.0194   60.9  0.4018  -74.8
 0.280  0.4724 -150.2  28.072  110.7  0.0203   61.0  0.3806  -77.2
 0.300  0.4777 -152.8  26.395  108.6  0.0212   61.1  0.3602  -79.9
 0.320  0.4805 -154.9  25.056  107.2  0.0220   61.4  0.3440  -81.8
 0.340  0.4840 -157.1  23.733  105.7  0.0229   61.8  0.3281  -83.9
 0.360  0.4866 -159.0  22.554  104.3  0.0237   62.1  0.3141  -85.8
 0.380  0.4882 -160.7  21.514  103.1  0.0246   62.4  0.3018  -87.5
 0.400  0.4902 -162.4  20.484  101.8  0.0254   62.7  0.2898  -89.3
 0.420  0.4925 -163.8  19.640  100.9  0.0263   63.0  0.2799  -90.7
 0.440  0.4952 -165.2  18.801   99.8  0.0272   63.3  0.2702  -92.3
 0.450  0.4966 -165.9  18.384   99.3  0.0276   63.4  0.2654  -93.1
 0.460  0.4971 -166.5  18.039   98.9  0.0280   63.5  0.2614  -93.7
 0.480  0.4982 -167.8  17.352   98.0  0.0289   63.8  0.2537  -95.1
 0.500  0.4995 -169.0  16.669   97.1  0.0298   64.1  0.2460  -96.5
 0.520  0.5002 -170.0  16.136   96.4  0.0307   64.4  0.2400  -97.6
 0.540  0.5010 -171.1  15.604   95.7  0.0316   64.6  0.2342  -98.7
 0.560  0.5020 -172.1  15.076   95.0  0.0324   64.9  0.2284  -99.9
 0.580  0.5031 -173.1  14.550   94.2  0.0333   65.1  0.2227 -101.2
 0.600  0.5044 -174.1  14.027   93.3  0.0342   65.3  0.2172 -102.5
 0.620  0.5050 -174.9  13.638   92.8  0.0351   65.4  0.2131 -103.4
 0.640  0.5057 -175.8  13.251   92.2  0.0360   65.6  0.2091 -104.4
 0.660  0.5065 -176.6  12.864   91.6  0.0369   65.7  0.2052 -105.4
 0.680  0.5074 -177.5  12.480   90.9  0.0378   65.8  0.2013 -106.4
 0.700  0.5084 -178.3  12.097   90.2  0.0387   65.9  0.1975 -107.5
 0.720  0.5090 -179.0  11.803   89.7  0.0396   66.0  0.1946 -108.3
 0.740  0.5096 -179.7  11.510   89.2  0.0405   66.1  0.1917 -109.2
 0.760  0.5103  179.5  11.218   88.6  0.0415   66.2  0.1889 -110.1
 0.780  0.5111  178.8  10.927   88.0  0.0424   66.2  0.1861 -111.0
 0.800  0.5120  178.1  10.637   87.4  0.0433   66.3  0.1834 -112.0
 0.820  0.5125  177.4  10.407   87.0  0.0442   66.3  0.1813 -112.7
 0.840  0.5131  176.8  10.178   86.5  0.0451   66.4  0.1793 -113.5
 0.860  0.5137  176.1   9.950   86.0  0.0461   66.4  0.1773 -114.3
 0.880  0.5144  175.5   9.722   85.5  0.0470   66.5  0.1753 -115.1
 0.900  0.5152  174.8   9.495   85.0  0.0479   66.5  0.1734 -115.9
 0.920  0.5154  174.2   9.309   84.6  0.0488   66.5  0.1719 -116.6
 0.940  0.5156  173.6   9.123   84.1  0.0497   66.5  0.1704 -117.2
 0.960  0.5159  173.1   8.938   83.7  0.0507   66.5  0.1689 -117.9
 0.980  0.5162  172.5   8.754   83.2  0.0516   66.5  0.1674 -118.6
 1.000  0.5166  171.9   8.570   82.7  0.0525   66.5  0.1660 -119.3
 1.020  0.5171  171.3   8.417   82.3  0.0534   66.5  0.1650 -119.9
 1.040  0.5176  170.8   8.265   81.9  0.0543   66.4  0.1639 -120.6
 1.060  0.5182  170.2   8.113   81.5  0.0553   66.4  0.1629 -121.2
 1.080  0.5188  169.7   7.962   81.1  0.0562   66.3  0.1620 -121.8
 1.100  0.5195  169.1   7.811   80.6  0.0571   66.3  0.1610 -122.5
 1.120  0.5199  168.6   7.682   80.2  0.0580   66.2  0.1602 -123.0
 1.140  0.5203  168.1   7.554   79.8  0.0589   66.2  0.1594 -123.6
 1.160  0.5208  167.5   7.426   79.4  0.0599   66.1  0.1586 -124.2
 1.180  0.5213  167.0   7.298   79.0  0.0608   66.1  0.1578 -124.7
 1.200  0.5219  166.5   7.171   78.6  0.0617   66.0  0.1570 -125.3
 1.220  0.5223  166.0   7.062   78.2  0.0626   65.9  0.1565 -125.8
 1.240  0.5228  165.6   6.954   77.8  0.0636   65.8  0.1560 -126.3
 1.260  0.5232  165.1   6.846   77.4  0.0645   65.8  0.1555 -126.8
 1.280  0.5238  164.7   6.738   77.0  0.0655   65.7  0.1551 -127.3
 1.300  0.5243  164.2   6.631   76.6  0.0664   65.6  0.1546 -127.8
 1.320  0.5247  163.7   6.538   76.3  0.0673   65.5  0.1541 -128.3
 1.340  0.5251  163.2   6.445   75.9  0.0682   65.4  0.1537 -128.8
 1.360  0.5256  162.8   6.352   75.6  0.0692   65.3  0.1532 -129.3
 1.380  0.5261  162.3   6.259   75.2  0.0701   65.2  0.1528 -129.8
 1.400  0.5267  161.8   6.167   74.8  0.0710   65.1  0.1524 -130.3
 1.420  0.5272  161.3   6.086   74.4  0.0719   65.0  0.1522 -130.7
 1.440  0.5277  160.9   6.005   74.1  0.0728   64.9  0.1520 -131.2
 1.460  0.5283  160.4   5.924   73.7  0.0738   64.8  0.1518 -131.6
 1.480  0.5289  160.0   5.844   73.3  0.0747   64.7  0.1517 -132.1
 1.500  0.5295  159.5   5.764   72.9  0.0756   64.6  0.1515 -132.5
 1.520  0.5299  159.0   5.693   72.6  0.0765   64.5  0.1513 -132.9
 1.540  0.5304  158.6   5.621   72.2  0.0774   64.4  0.1512 -133.4
 1.560  0.5308  158.1   5.550   71.8  0.0784   64.2  0.1511 -133.8
 1.580  0.5314  157.7   5.480   71.5  0.0793   64.1  0.1509 -134.3
 1.600  0.5319  157.2   5.409   71.1  0.0802   64.0  0.1508 -134.7
 1.620  0.5324  156.8   5.347   70.8  0.0811   63.9  0.1507 -135.1
 1.640  0.5329  156.4   5.285   70.4  0.0820   63.7  0.1507 -135.5
 1.660  0.5334  155.9   5.223   70.0  0.0830   63.6  0.1507 -135.9
 1.680  0.5339  155.5   5.161   69.7  0.0839   63.4  0.1506 -136.3
 1.700  0.5345  155.1   5.100   69.3  0.0848   63.3  0.1506 -136.7
 1.720  0.5350  154.7   5.044   69.0  0.0857   63.2  0.1506 -137.1
 1.740  0.5356  154.3   4.988   68.7  0.0866   63.0  0.1507 -137.5
 1.760  0.5362  153.8   4.932   68.4  0.0876   62.9  0.1508 -137.9
 1.780  0.5368  153.4   4.876   68.0  0.0885   62.7  0.1508 -138.3
 1.800  0.5374  153.0   4.820   67.7  0.0894   62.6  0.1509 -138.7
 1.820  0.5379  152.6   4.771   67.4  0.0903   62.4  0.1510 -139.1
 1.840  0.5384  152.2   4.721   67.0  0.0912   62.3  0.1510 -139.5
 1.860  0.5390  151.7   4.672   66.6  0.0921   62.1  0.1511 -139.9
 1.880  0.5396  151.3   4.624   66.3  0.0930   62.0  0.1512 -140.3
 1.900  0.5402  150.9   4.575   65.9  0.0939   61.8  0.1513 -140.7
 1.920  0.5408  150.5   4.530   65.6  0.0948   61.6  0.1515 -141.1
 1.940  0.5415  150.1   4.484   65.2  0.0957   61.5  0.1517 -141.5
 1.960  0.5422  149.6   4.439   64.8  0.0966   61.3  0.1519 -141.9
 1.980  0.5429  149.2   4.395   64.5  0.0975   61.2  0.1521 -142.3
 2.000  0.5436  148.8   4.350   64.1  0.0984   61.0  0.1523 -142.7
 2.020  0.5442  148.4   4.310   63.8  0.0993   60.8  0.1525 -143.1
 2.040  0.5449  148.0   4.270   63.5  0.1002   60.7  0.1528 -143.6
 2.060  0.5455  147.6   4.230   63.2  0.1011   60.5  0.1531 -144.0
 2.080  0.5462  147.2   4.190   62.9  0.1020   60.3  0.1533 -144.4
 2.100  0.5469  146.8   4.151   62.5  0.1029   60.2  0.1536 -144.8
 2.120  0.5477  146.4   4.111   62.2  0.1038   60.0  0.1539 -145.2
 2.140  0.5484  146.1   4.072   61.9  0.1047   59.9  0.1542 -145.7
 2.160  0.5492  145.7   4.033   61.5  0.1056   59.7  0.1545 -146.1
 2.180  0.5501  145.3   3.994   61.2  0.1065   59.5  0.1548 -146.5
 2.200  0.5509  144.9   3.955   60.8  0.1074   59.4  0.1551 -146.9
 2.220  0.5516  144.5   3.922   60.5  0.1083   59.2  0.1555 -147.4
 2.240  0.5524  144.2   3.889   60.2  0.1091   59.0  0.1558 -147.8
 2.260  0.5532  143.8   3.856   59.9  0.1100   58.9  0.1562 -148.2
 2.280  0.5540  143.4   3.823   59.5  0.1108   58.7  0.1566 -148.7
 2.300  0.5549  143.0   3.790   59.2  0.1117   58.5  0.1570 -149.1
 2.320  0.5557  142.7   3.758   58.9  0.1125   58.3  0.1574 -149.6
 2.340  0.5566  142.3   3.725   58.6  0.1134   58.2  0.1579 -150.0
 2.360  0.5575  141.9   3.693   58.2  0.1143   58.0  0.1583 -150.4
 2.380  0.5584  141.6   3.661   57.9  0.1151   57.9  0.1587 -150.9
 2.400  0.5594  141.2   3.629   57.5  0.1160   57.7  0.1592 -151.3
 2.420  0.5601  140.8   3.600   57.2  0.1168   57.5  0.1598 -151.8
 2.440  0.5608  140.5   3.572   56.9  0.1177   57.3  0.1603 -152.2
 2.460  0.5616  140.1   3.544   56.6  0.1185   57.1  0.1609 -152.7
 2.480  0.5623  139.7   3.515   56.3  0.1194   56.9  0.1615 -153.1
 2.500  0.5631  139.3   3.487   56.0  0.1202   56.8  0.1621 -153.5
 2.520  0.5639  139.0   3.459   55.6  0.1211   56.6  0.1627 -154.0
 2.540  0.5648  138.6   3.431   55.3  0.1219   56.4  0.1634 -154.4
 2.560  0.5656  138.2   3.403   55.0  0.1228   56.2  0.1640 -154.8
 2.580  0.5665  137.9   3.376   54.6  0.1236   56.1  0.1646 -155.3
 2.600  0.5674  137.5   3.348   54.3  0.1245   55.9  0.1653 -155.7
 2.620  0.5681  137.2   3.323   54.0  0.1253   55.7  0.1660 -156.1
 2.640  0.5689  136.8   3.299   53.7  0.1261   55.5  0.1667 -156.5
 2.660  0.5696  136.5   3.275   53.4  0.1270   55.3  0.1675 -157.0
 2.680  0.5704  136.1   3.250   53.1  0.1278   55.2  0.1682 -157.4
 2.700  0.5712  135.8   3.226   52.8  0.1286   55.0  0.1690 -157.8
 2.720  0.5720  135.4   3.202   52.5  0.1295   54.8  0.1698 -158.2
 2.740  0.5729  135.1   3.178   52.2  0.1303   54.6  0.1705 -158.6
 2.760  0.5737  134.8   3.154   51.9  0.1311   54.4  0.1713 -159.0
 2.780  0.5746  134.4   3.131   51.5  0.1320   54.3  0.1721 -159.4
 2.800  0.5755  134.1   3.107   51.2  0.1328   54.1  0.1729 -159.8
 2.820  0.5763  133.8   3.085   50.9  0.1336   53.9  0.1737 -160.2
 2.840  0.5771  133.5   3.064   50.6  0.1344   53.7  0.1745 -160.6
 2.860  0.5779  133.1   3.042   50.3  0.1352   53.6  0.1753 -161.0
 2.880  0.5787  132.8   3.021   50.0  0.1360   53.4  0.1762 -161.4
 2.900  0.5796  132.5   2.999   49.7  0.1368   53.2  0.1770 -161.7
 2.920  0.5804  132.2   2.978   49.4  0.1376   53.1  0.1778 -162.1
 2.940  0.5813  131.8   2.957   49.1  0.1385   52.9  0.1787 -162.5
 2.960  0.5822  131.5   2.936   48.8  0.1393   52.7  0.1796 -162.9
 2.980  0.5832  131.2   2.915   48.4  0.1401   52.6  0.1804 -163.2
 3.000  0.5841  130.9   2.894   48.1  0.1409   52.4  0.1813 -163.6
 3.100  0.5878  129.3   2.806   46.8  0.1446   51.4  0.1855 -165.5
 3.200  0.5921  127.7   2.720   45.4  0.1484   50.4  0.1899 -167.2
 3.300  0.5967  126.1   2.635   43.9  0.1522   49.4  0.1944 -168.9
 3.400  0.6018  124.6   2.552   42.4  0.1561   48.5  0.1991 -170.6
 3.500  0.6073  123.1   2.471   40.7  0.1600   47.7  0.2040 -172.1
 3.600  0.6120  121.7   2.404   39.5  0.1634   46.7  0.2088 -174.0
 3.700  0.6172  120.2   2.337   38.2  0.1668   45.8  0.2138 -175.9
 3.800  0.6227  118.8   2.273   36.8  0.1703   44.9  0.2190 -177.6
 3.900  0.6286  117.4   2.209   35.3  0.1738   44.0  0.2244 -179.3
 4.000  0.6348  116.1   2.147   33.8  0.1773   43.2  0.2300  179.1
 4.100  0.6395  114.9   2.094   32.6  0.1803   42.3  0.2361  177.4
 4.200  0.6445  113.7   2.042   31.4  0.1834   41.5  0.2424  175.7
 4.300  0.6498  112.5   1.990   30.1  0.1865   40.7  0.2488  174.2
 4.400  0.6553  111.3   1.940   28.7  0.1896   39.9  0.2555  172.7
 4.500  0.6611  110.2   1.891   27.3  0.1928   39.2  0.2623  171.3
 4.600  0.6647  109.1   1.850   26.2  0.1958   38.4  0.2674  170.1
 4.700  0.6685  108.0   1.809   25.1  0.1989   37.7  0.2726  169.0
 4.800  0.6726  107.0   1.769   23.9  0.2019   37.0  0.2780  167.9
 4.900  0.6769  105.9   1.730   22.6  0.2051   36.3  0.2834  166.8
 5.000  0.6814  104.9   1.692   21.3  0.2082   35.6  0.2889  165.8
 5.100  0.6839  104.0   1.660   20.3  0.2114   34.8  0.2924  164.9
 5.200  0.6866  103.0   1.629   19.2  0.2147   34.1  0.2961  164.1
 5.300  0.6894  102.1   1.598   18.1  0.2181   33.3  0.2997  163.2
 5.400  0.6925  101.2   1.568   17.0  0.2214   32.6  0.3035  162.4
 5.500  0.6957  100.3   1.539   15.8  0.2248   31.9  0.3073  161.6
 5.600  0.6975   99.5   1.514   14.8  0.2278   31.0  0.3113  160.8
 5.700  0.6994   98.8   1.489   13.7  0.2309   30.2  0.3154  160.0
 5.800  0.7015   98.0   1.464   12.6  0.2340   29.4  0.3196  159.2
 5.900  0.7036   97.3   1.440   11.5  0.2371   28.6  0.3238  158.4
 6.000  0.7059   96.5   1.417   10.3  0.2403   27.8  0.3281  157.7
 6.100  0.7060   95.7   1.395    9.3  0.2430   27.0  0.3311  157.2
 6.200  0.7063   94.9   1.374    8.3  0.2456   26.2  0.3341  156.7
 6.300  0.7067   94.2   1.353    7.3  0.2484   25.5  0.3371  156.2
 6.400  0.7072   93.4   1.333    6.2  0.2512   24.7  0.3402  155.8
 6.500  0.7079   92.6   1.313    5.1  0.2540   24.0  0.3433  155.3
 6.600  0.7073   91.7   1.296    4.1  0.2571   23.3  0.3435  154.9
 6.800  0.7066   89.8   1.264    2.2  0.2633   21.8  0.3439  154.2
 7.000  0.7066   88.0   1.234    0.1  0.2697   20.5  0.3443  153.5
 7.200  0.7079   85.8   1.208   -2.0  0.2763   18.8  0.3446  152.0
 7.400  0.7102   83.7   1.184   -4.2  0.2831   17.2  0.3451  150.5
 7.600  0.7138   81.3   1.160   -6.5  0.2896   15.4  0.3474  148.6
 7.800  0.7190   78.9   1.136   -8.9  0.2957   13.5  0.3516  146.3
 8.000  0.7256   76.4   1.114  -11.4  0.3022   11.6  0.3563  144.1
 8.200  0.7302   73.8   1.085  -13.7  0.3064    9.4  0.3609  141.2
 8.400  0.7364   71.2   1.057  -16.1  0.3110    7.2  0.3664  138.4
 8.600  0.7445   68.8   1.029  -18.5  0.3139    5.1  0.3731  134.9
 8.800  0.7544   66.5   1.000  -20.7  0.3150    3.0  0.3819  130.9
 9.000  0.7655   64.3   0.972  -23.1  0.3166    0.9  0.3924  127.0
 9.200  0.7800   62.4   0.940  -24.9  0.3155   -0.7  0.4090  122.4
 9.400  0.7952   60.7   0.910  -26.8  0.3147   -2.3  0.4279  118.3
 9.600  0.8087   59.0   0.880  -28.5  0.3138   -3.6  0.4477  114.6
 9.800  0.8203   57.5   0.850  -29.9  0.3125   -4.6  0.4678  111.4
10.000  0.8324   56.1   0.821  -31.4  0.3114   -5.6  0.4892  108.5
!
!  f       NFmin   Gammaopt  rn/50
! GHz       dB    MAG  ANG    -
 0.450      2.18  0.41 -169   0.13
 0.900      2.25  0.38 -159   0.14
 1.900      2.41  0.49 -138   0.20
 3.500      2.03  0.78 -114   0.43
!
! (c) 2016  Infineon Technologies AG, Munich
