! Infineon Technologies  Discrete & RF Semiconductors
! BFP460
! VCE =  2.0 V,  IC =  6.0 mA
! Common Emitter S-Parameters:                            Jan 2016
# GHz  S  MA  R  50
!  f         S11            S21            S12            S22
! GHz     MAG   ANG      MAG   ANG      MAG   ANG      MAG   ANG
 0.030  0.8466   -6.6  19.070  175.9  0.0062   86.4  0.9826   -4.5
 0.035  0.8459   -7.7  19.049  175.0  0.0072   85.7  0.9817   -5.2
 0.040  0.8455   -8.8  19.033  174.1  0.0082   85.1  0.9809   -5.9
 0.045  0.8452   -9.7  18.974  173.1  0.0091   84.7  0.9798   -6.6
 0.050  0.8451  -10.7  18.921  172.0  0.0101   84.3  0.9789   -7.4
 0.055  0.8415  -12.0  18.901  171.4  0.0112   83.6  0.9775   -8.1
 0.060  0.8384  -13.3  18.883  170.8  0.0123   83.1  0.9762   -8.8
 0.065  0.8382  -14.3  18.921  170.0  0.0133   82.5  0.9747   -9.5
 0.070  0.8383  -15.4  18.963  169.2  0.0144   81.9  0.9733  -10.3
 0.075  0.8387  -16.5  18.900  168.7  0.0153   81.3  0.9715  -11.0
 0.080  0.8394  -17.6  18.838  168.1  0.0162   80.8  0.9698  -11.8
 0.085  0.8376  -18.7  18.805  167.4  0.0171   80.2  0.9674  -12.5
 0.090  0.8361  -19.8  18.775  166.6  0.0181   79.6  0.9652  -13.2
 0.095  0.8337  -20.8  18.677  165.9  0.0191   79.0  0.9629  -13.9
 0.100  0.8315  -21.9  18.582  165.2  0.0202   78.5  0.9607  -14.7
 0.105  0.8313  -22.9  18.554  164.6  0.0211   77.9  0.9580  -15.4
 0.110  0.8314  -24.0  18.529  163.9  0.0220   77.3  0.9555  -16.1
 0.115  0.8289  -25.1  18.488  163.2  0.0229   76.8  0.9529  -16.8
 0.120  0.8268  -26.2  18.451  162.4  0.0239   76.3  0.9504  -17.5
 0.125  0.8240  -27.2  18.388  161.8  0.0248   75.7  0.9473  -18.2
 0.130  0.8215  -28.2  18.327  161.2  0.0257   75.2  0.9443  -18.9
 0.135  0.8191  -29.2  18.279  160.5  0.0266   74.7  0.9413  -19.5
 0.140  0.8170  -30.3  18.234  159.7  0.0276   74.3  0.9385  -20.2
 0.145  0.8145  -31.3  18.142  159.0  0.0284   73.7  0.9351  -20.9
 0.150  0.8122  -32.3  18.054  158.2  0.0292   73.1  0.9319  -21.6
 0.155  0.8089  -33.3  17.977  157.6  0.0300   72.5  0.9278  -22.2
 0.160  0.8058  -34.3  17.901  157.0  0.0308   71.9  0.9238  -22.9
 0.165  0.8029  -35.2  17.828  156.4  0.0317   71.4  0.9199  -23.5
 0.170  0.8003  -36.2  17.757  155.7  0.0325   70.9  0.9161  -24.1
 0.175  0.7980  -37.2  17.688  155.1  0.0333   70.4  0.9124  -24.8
 0.180  0.7958  -38.2  17.621  154.5  0.0342   69.9  0.9089  -25.4
 0.185  0.7939  -39.2  17.557  153.8  0.0350   69.5  0.9055  -26.1
 0.190  0.7923  -40.3  17.494  153.2  0.0358   69.1  0.9021  -26.8
 0.195  0.7909  -41.3  17.434  152.6  0.0367   68.7  0.8990  -27.4
 0.200  0.7898  -42.3  17.376  151.9  0.0375   68.3  0.8959  -28.1
 0.220  0.7773  -46.0  17.029  149.6  0.0403   66.3  0.8788  -30.4
 0.240  0.7682  -49.9  16.711  147.1  0.0432   64.6  0.8631  -32.9
 0.260  0.7582  -53.5  16.383  144.8  0.0460   62.9  0.8467  -35.2
 0.280  0.7470  -56.9  16.037  142.7  0.0485   61.3  0.8292  -37.3
 0.300  0.7385  -60.5  15.715  140.4  0.0511   59.9  0.8130  -39.6
 0.320  0.7262  -63.7  15.358  138.5  0.0533   58.4  0.7954  -41.5
 0.340  0.7162  -67.1  15.019  136.4  0.0555   57.0  0.7787  -43.6
 0.360  0.7064  -70.3  14.684  134.5  0.0575   55.8  0.7621  -45.5
 0.380  0.6963  -73.2  14.348  132.7  0.0594   54.5  0.7453  -47.2
 0.400  0.6881  -76.3  14.027  130.8  0.0613   53.4  0.7293  -49.1
 0.420  0.6774  -79.1  13.699  129.2  0.0629   52.3  0.7134  -50.7
 0.440  0.6684  -82.0  13.382  127.6  0.0646   51.2  0.6982  -52.4
 0.450  0.6645  -83.5  13.228  126.7  0.0654   50.7  0.6908  -53.3
 0.460  0.6595  -84.8  13.075  126.0  0.0661   50.2  0.6833  -54.0
 0.480  0.6503  -87.3  12.776  124.5  0.0675   49.4  0.6686  -55.5
 0.500  0.6426  -90.0  12.486  123.0  0.0689   48.5  0.6544  -57.0
 0.520  0.6337  -92.3  12.207  121.8  0.0700   47.7  0.6409  -58.2
 0.540  0.6257  -94.6  11.934  120.5  0.0711   47.0  0.6277  -59.4
 0.560  0.6189  -97.0  11.668  119.2  0.0723   46.3  0.6149  -60.7
 0.580  0.6131  -99.4  11.408  117.8  0.0734   45.6  0.6023  -62.1
 0.600  0.6085 -101.9  11.155  116.3  0.0746   44.9  0.5901  -63.5
 0.620  0.6012 -103.9  10.920  115.3  0.0755   44.3  0.5788  -64.6
 0.640  0.5947 -105.9  10.689  114.2  0.0764   43.8  0.5676  -65.6
 0.660  0.5890 -108.0  10.462  113.1  0.0773   43.2  0.5567  -66.8
 0.680  0.5840 -110.1  10.239  111.9  0.0783   42.7  0.5460  -68.0
 0.700  0.5798 -112.2  10.021  110.7  0.0792   42.2  0.5356  -69.2
 0.720  0.5745 -114.0   9.824  109.8  0.0799   41.8  0.5262  -70.1
 0.740  0.5697 -115.8   9.629  108.9  0.0807   41.4  0.5170  -71.0
 0.760  0.5655 -117.6   9.438  107.9  0.0814   41.0  0.5079  -72.0
 0.780  0.5618 -119.4   9.248  106.9  0.0822   40.6  0.4990  -73.0
 0.800  0.5588 -121.3   9.062  105.9  0.0829   40.2  0.4902  -74.0
 0.820  0.5547 -122.9   8.900  105.1  0.0836   39.9  0.4825  -74.8
 0.840  0.5511 -124.5   8.740  104.3  0.0842   39.6  0.4749  -75.6
 0.860  0.5479 -126.1   8.581  103.5  0.0849   39.3  0.4673  -76.4
 0.880  0.5451 -127.7   8.425  102.6  0.0855   39.1  0.4599  -77.2
 0.900  0.5428 -129.4   8.270  101.7  0.0862   38.8  0.4526  -78.1
 0.920  0.5394 -130.8   8.130  101.0  0.0868   38.6  0.4461  -78.8
 0.940  0.5363 -132.2   7.991  100.3  0.0874   38.4  0.4396  -79.6
 0.960  0.5336 -133.7   7.854   99.5  0.0880   38.1  0.4333  -80.4
 0.980  0.5312 -135.1   7.718   98.7  0.0886   37.9  0.4270  -81.2
 1.000  0.5291 -136.6   7.584   97.9  0.0892   37.7  0.4208  -82.0
 1.020  0.5267 -137.9   7.464   97.3  0.0897   37.5  0.4153  -82.7
 1.040  0.5245 -139.2   7.345   96.6  0.0903   37.4  0.4099  -83.3
 1.060  0.5227 -140.5   7.227   95.9  0.0908   37.2  0.4046  -84.0
 1.080  0.5211 -141.9   7.110   95.2  0.0914   37.1  0.3993  -84.8
 1.100  0.5198 -143.2   6.994   94.5  0.0919   36.9  0.3941  -85.5
 1.120  0.5179 -144.4   6.891   93.9  0.0924   36.8  0.3895  -86.1
 1.140  0.5163 -145.5   6.789   93.3  0.0930   36.7  0.3849  -86.7
 1.160  0.5148 -146.7   6.687   92.6  0.0935   36.5  0.3803  -87.4
 1.180  0.5136 -147.9   6.587   92.0  0.0941   36.4  0.3758  -88.0
 1.200  0.5126 -149.1   6.487   91.3  0.0946   36.3  0.3714  -88.7
 1.220  0.5113 -150.2   6.397   90.8  0.0951   36.2  0.3675  -89.3
 1.240  0.5102 -151.2   6.308   90.2  0.0956   36.1  0.3637  -89.8
 1.260  0.5092 -152.3   6.220   89.6  0.0962   36.0  0.3599  -90.4
 1.280  0.5085 -153.4   6.132   89.0  0.0967   35.9  0.3562  -91.0
 1.300  0.5079 -154.5   6.045   88.4  0.0972   35.8  0.3525  -91.6
 1.320  0.5069 -155.5   5.966   87.9  0.0977   35.7  0.3490  -92.1
 1.340  0.5060 -156.5   5.888   87.3  0.0982   35.7  0.3456  -92.7
 1.360  0.5052 -157.5   5.810   86.8  0.0987   35.6  0.3421  -93.2
 1.380  0.5046 -158.5   5.733   86.2  0.0992   35.6  0.3388  -93.8
 1.400  0.5042 -159.5   5.656   85.6  0.0997   35.5  0.3354  -94.4
 1.420  0.5035 -160.5   5.587   85.1  0.1002   35.4  0.3325  -94.9
 1.440  0.5029 -161.4   5.518   84.6  0.1007   35.4  0.3297  -95.4
 1.460  0.5024 -162.4   5.450   84.1  0.1012   35.3  0.3269  -95.9
 1.480  0.5021 -163.3   5.382   83.5  0.1017   35.3  0.3241  -96.5
 1.500  0.5019 -164.3   5.315   83.0  0.1022   35.2  0.3213  -97.0
 1.520  0.5014 -165.2   5.253   82.5  0.1027   35.2  0.3187  -97.5
 1.540  0.5010 -166.1   5.191   82.0  0.1032   35.1  0.3161  -98.1
 1.560  0.5007 -167.0   5.130   81.5  0.1037   35.1  0.3135  -98.6
 1.580  0.5006 -167.9   5.069   81.0  0.1042   35.0  0.3110  -99.1
 1.600  0.5006 -168.8   5.009   80.5  0.1047   35.0  0.3085  -99.7
 1.620  0.5004 -169.6   4.955   80.0  0.1052   35.0  0.3063 -100.1
 1.640  0.5003 -170.4   4.901   79.6  0.1057   35.0  0.3041 -100.6
 1.660  0.5002 -171.2   4.848   79.1  0.1062   34.9  0.3020 -101.1
 1.680  0.5003 -172.0   4.795   78.6  0.1067   34.9  0.2998 -101.5
 1.700  0.5005 -172.8   4.742   78.1  0.1072   34.9  0.2977 -102.0
 1.720  0.5003 -173.6   4.693   77.7  0.1077   34.9  0.2958 -102.5
 1.740  0.5002 -174.4   4.644   77.2  0.1082   34.8  0.2939 -103.0
 1.760  0.5001 -175.2   4.595   76.7  0.1088   34.8  0.2921 -103.5
 1.780  0.5002 -176.0   4.546   76.3  0.1093   34.7  0.2902 -104.0
 1.800  0.5004 -176.8   4.498   75.8  0.1098   34.7  0.2884 -104.5
 1.820  0.5004 -177.5   4.454   75.4  0.1103   34.7  0.2866 -104.9
 1.840  0.5004 -178.3   4.411   74.9  0.1108   34.6  0.2849 -105.4
 1.860  0.5005 -179.0   4.368   74.4  0.1114   34.6  0.2831 -105.9
 1.880  0.5007 -179.8   4.325   74.0  0.1119   34.5  0.2814 -106.3
 1.900  0.5010  179.5   4.283   73.5  0.1124   34.5  0.2797 -106.8
 1.920  0.5013  178.8   4.242   73.1  0.1129   34.5  0.2782 -107.3
 1.940  0.5016  178.1   4.202   72.6  0.1134   34.5  0.2766 -107.7
 1.960  0.5021  177.3   4.162   72.2  0.1139   34.4  0.2751 -108.2
 1.980  0.5026  176.6   4.122   71.8  0.1144   34.4  0.2737 -108.7
 2.000  0.5032  175.9   4.082   71.3  0.1149   34.4  0.2722 -109.2
 2.020  0.5034  175.2   4.046   70.9  0.1154   34.4  0.2708 -109.7
 2.040  0.5036  174.5   4.010   70.5  0.1160   34.3  0.2695 -110.1
 2.060  0.5039  173.8   3.975   70.1  0.1165   34.3  0.2682 -110.6
 2.080  0.5043  173.1   3.939   69.7  0.1171   34.2  0.2669 -111.1
 2.100  0.5047  172.4   3.904   69.3  0.1176   34.2  0.2656 -111.6
 2.120  0.5053  171.7   3.869   68.9  0.1181   34.2  0.2643 -112.1
 2.140  0.5059  171.1   3.834   68.4  0.1187   34.1  0.2631 -112.6
 2.160  0.5065  170.4   3.799   68.0  0.1192   34.1  0.2619 -113.1
 2.180  0.5073  169.7   3.765   67.6  0.1198   34.0  0.2607 -113.6
 2.200  0.5081  169.0   3.731   67.1  0.1203   34.0  0.2595 -114.1
 2.220  0.5085  168.4   3.701   66.7  0.1208   34.0  0.2584 -114.6
 2.240  0.5089  167.8   3.671   66.3  0.1213   33.9  0.2574 -115.0
 2.260  0.5094  167.2   3.641   65.9  0.1219   33.9  0.2563 -115.5
 2.280  0.5099  166.5   3.611   65.5  0.1224   33.8  0.2553 -116.0
 2.300  0.5105  165.9   3.581   65.1  0.1229   33.8  0.2543 -116.5
 2.320  0.5112  165.3   3.552   64.7  0.1234   33.8  0.2533 -117.0
 2.340  0.5119  164.7   3.523   64.3  0.1239   33.7  0.2524 -117.5
 2.360  0.5127  164.1   3.493   63.9  0.1245   33.7  0.2514 -118.0
 2.380  0.5135  163.5   3.465   63.4  0.1250   33.6  0.2505 -118.5
 2.400  0.5144  162.9   3.436   63.0  0.1255   33.6  0.2496 -119.0
 2.420  0.5151  162.3   3.410   62.6  0.1260   33.5  0.2488 -119.5
 2.440  0.5159  161.7   3.383   62.3  0.1266   33.5  0.2481 -120.0
 2.460  0.5167  161.2   3.357   61.9  0.1271   33.4  0.2473 -120.5
 2.480  0.5176  160.6   3.331   61.5  0.1276   33.4  0.2466 -121.0
 2.500  0.5185  160.0   3.305   61.1  0.1281   33.3  0.2459 -121.6
 2.520  0.5195  159.5   3.279   60.7  0.1287   33.3  0.2453 -122.1
 2.540  0.5205  158.9   3.254   60.3  0.1292   33.2  0.2446 -122.6
 2.560  0.5216  158.3   3.228   59.9  0.1297   33.2  0.2440 -123.1
 2.580  0.5227  157.8   3.203   59.5  0.1303   33.1  0.2434 -123.7
 2.600  0.5239  157.2   3.178   59.1  0.1308   33.1  0.2428 -124.2
 2.620  0.5245  156.7   3.155   58.8  0.1313   33.0  0.2423 -124.7
 2.640  0.5251  156.1   3.133   58.4  0.1318   33.0  0.2418 -125.2
 2.660  0.5258  155.6   3.110   58.0  0.1323   32.9  0.2414 -125.7
 2.680  0.5265  155.1   3.088   57.7  0.1328   32.9  0.2410 -126.2
 2.700  0.5272  154.6   3.066   57.3  0.1333   32.8  0.2406 -126.7
 2.720  0.5280  154.1   3.044   56.9  0.1339   32.8  0.2402 -127.2
 2.740  0.5288  153.5   3.022   56.6  0.1344   32.7  0.2398 -127.8
 2.760  0.5297  153.0   3.000   56.2  0.1349   32.7  0.2394 -128.3
 2.780  0.5306  152.5   2.979   55.8  0.1354   32.6  0.2391 -128.8
 2.800  0.5316  152.0   2.957   55.4  0.1359   32.6  0.2388 -129.3
 2.820  0.5324  151.5   2.937   55.1  0.1364   32.5  0.2385 -129.8
 2.840  0.5333  151.0   2.917   54.7  0.1370   32.5  0.2383 -130.3
 2.860  0.5342  150.5   2.897   54.4  0.1375   32.4  0.2380 -130.8
 2.880  0.5351  150.0   2.878   54.0  0.1380   32.4  0.2378 -131.3
 2.900  0.5361  149.5   2.858   53.7  0.1385   32.3  0.2376 -131.8
 2.920  0.5371  149.0   2.839   53.3  0.1391   32.2  0.2374 -132.4
 2.940  0.5382  148.6   2.819   52.9  0.1396   32.2  0.2373 -132.9
 2.960  0.5393  148.1   2.800   52.6  0.1401   32.1  0.2371 -133.4
 2.980  0.5404  147.6   2.781   52.2  0.1407   32.1  0.2370 -133.9
 3.000  0.5416  147.1   2.762   51.8  0.1412   32.0  0.2369 -134.4
 3.100  0.5449  144.8   2.678   50.3  0.1437   31.6  0.2366 -136.8
 3.200  0.5491  142.5   2.596   48.7  0.1463   31.2  0.2367 -139.1
 3.300  0.5541  140.3   2.517   47.0  0.1489   30.9  0.2372 -141.5
 3.400  0.5600  138.1   2.440   45.1  0.1514   30.5  0.2381 -143.8
 3.500  0.5666  136.0   2.365   43.2  0.1540   30.2  0.2394 -146.1
 3.600  0.5714  134.0   2.301   41.8  0.1564   29.8  0.2403 -148.5
 3.700  0.5768  132.1   2.238   40.3  0.1589   29.4  0.2417 -150.8
 3.800  0.5829  130.2   2.177   38.7  0.1613   29.0  0.2434 -153.2
 3.900  0.5897  128.3   2.117   37.0  0.1637   28.6  0.2456 -155.5
 4.000  0.5970  126.5   2.060   35.2  0.1662   28.2  0.2481 -157.7
 4.100  0.6021  124.9   2.009   33.9  0.1685   27.8  0.2513 -159.9
 4.200  0.6076  123.3   1.959   32.5  0.1707   27.4  0.2548 -162.1
 4.300  0.6136  121.8   1.910   31.0  0.1730   27.0  0.2587 -164.3
 4.400  0.6200  120.3   1.862   29.5  0.1753   26.7  0.2629 -166.3
 4.500  0.6269  118.8   1.816   27.9  0.1776   26.3  0.2675 -168.3
 4.600  0.6307  117.4   1.776   26.7  0.1799   26.0  0.2713 -169.9
 4.700  0.6348  116.1   1.736   25.4  0.1823   25.6  0.2753 -171.4
 4.800  0.6392  114.8   1.698   24.1  0.1847   25.3  0.2794 -172.9
 4.900  0.6440  113.5   1.660   22.7  0.1870   25.0  0.2838 -174.3
 5.000  0.6491  112.2   1.624   21.2  0.1894   24.7  0.2883 -175.7
 5.100  0.6520  111.1   1.592   20.1  0.1921   24.3  0.2915 -176.9
 5.200  0.6551  110.0   1.562   18.9  0.1949   23.9  0.2949 -178.0
 5.300  0.6584  108.9   1.531   17.7  0.1977   23.5  0.2984 -179.1
 5.400  0.6620  107.9   1.502   16.4  0.2004   23.1  0.3019  179.8
 5.500  0.6658  106.8   1.473   15.1  0.2032   22.7  0.3056  178.8
 5.600  0.6683  105.9   1.448   14.0  0.2059   22.2  0.3097  177.7
 5.700  0.6709  105.0   1.424   12.8  0.2086   21.6  0.3139  176.7
 5.800  0.6737  104.1   1.400   11.6  0.2114   21.1  0.3182  175.7
 5.900  0.6767  103.2   1.377   10.4  0.2141   20.6  0.3226  174.7
 6.000  0.6798  102.3   1.354    9.1  0.2169   20.1  0.3271  173.7
 6.100  0.6804  101.4   1.333    8.1  0.2193   19.6  0.3307  172.9
 6.200  0.6812  100.5   1.312    7.0  0.2218   19.1  0.3344  172.2
 6.300  0.6821   99.7   1.291    5.9  0.2243   18.6  0.3382  171.5
 6.400  0.6832   98.8   1.271    4.8  0.2268   18.2  0.3420  170.8
 6.500  0.6845   97.9   1.252    3.6  0.2293   17.7  0.3458  170.1
 6.600  0.6842   96.9   1.236    2.6  0.2321   17.2  0.3470  169.6
 6.800  0.6843   94.9   1.204    0.5  0.2379   16.2  0.3494  168.7
 7.000  0.6852   92.9   1.174   -1.7  0.2437   15.3  0.3519  167.8
 7.200  0.6875   90.6   1.148   -3.8  0.2502   14.1  0.3532  166.2
 7.400  0.6910   88.3   1.124   -6.1  0.2568   12.9  0.3548  164.6
 7.600  0.6956   85.8   1.100   -8.4  0.2632   11.5  0.3575  162.5
 7.800  0.7017   83.1   1.076  -10.9  0.2696    9.9  0.3617  160.0
 8.000  0.7093   80.5   1.055  -13.5  0.2761    8.4  0.3666  157.6
 8.200  0.7150   77.7   1.027  -15.8  0.2810    6.5  0.3707  154.5
 8.400  0.7224   74.9   1.001  -18.3  0.2862    4.6  0.3758  151.6
 8.600  0.7316   72.2   0.974  -20.7  0.2898    2.7  0.3812  147.9
 8.800  0.7424   69.7   0.946  -23.0  0.2920    0.9  0.3878  143.6
 9.000  0.7546   67.3   0.920  -25.4  0.2944   -1.0  0.3966  139.4
 9.200  0.7697   65.2   0.890  -27.3  0.2943   -2.5  0.4106  134.3
 9.400  0.7857   63.3   0.860  -29.3  0.2945   -4.0  0.4276  129.6
 9.600  0.7999   61.5   0.831  -31.0  0.2943   -5.3  0.4463  125.4
 9.800  0.8119   59.9   0.802  -32.6  0.2939   -6.2  0.4661  121.8
10.000  0.8245   58.4   0.774  -34.2  0.2935   -7.1  0.4877  118.4
!
!  f       NFmin   Gammaopt  rn/50
! GHz       dB    MAG  ANG    -
 0.450      0.83  0.28   16   0.15
 0.900      0.84  0.26   37   0.16
 1.900      1.07  0.14  103   0.12
 3.500      1.18  0.31 -149   0.11
!
! (c) 2016  Infineon Technologies AG, Munich
