! Infineon Technologies  Discrete & RF Semiconductors
! BFP460
! VCE =  1.5 V,  IC =  2.0 mA
! Common Emitter S-Parameters:                            Jan 2016
# GHz  S  MA  R  50
!  f         S11            S21            S12            S22
! GHz     MAG   ANG      MAG   ANG      MAG   ANG      MAG   ANG
 0.030  0.9404   -3.7   7.367  177.8  0.0069   88.4  0.9933   -2.3
 0.035  0.9403   -4.3   7.362  177.2  0.0080   87.6  0.9929   -2.7
 0.040  0.9404   -4.9   7.358  176.6  0.0091   87.0  0.9925   -3.1
 0.045  0.9419   -5.4   7.343  175.9  0.0102   86.9  0.9922   -3.4
 0.050  0.9435   -5.8   7.329  175.1  0.0113   86.9  0.9920   -3.7
 0.055  0.9400   -6.6   7.331  174.8  0.0124   86.4  0.9914   -4.1
 0.060  0.9368   -7.5   7.333  174.5  0.0136   85.9  0.9909   -4.5
 0.065  0.9370   -8.0   7.359  174.0  0.0147   85.0  0.9906   -4.9
 0.070  0.9373   -8.5   7.386  173.5  0.0159   84.2  0.9904   -5.3
 0.075  0.9394   -9.1   7.371  173.3  0.0171   84.3  0.9900   -5.6
 0.080  0.9416   -9.7   7.357  173.0  0.0183   84.4  0.9896   -6.0
 0.085  0.9404  -10.3   7.359  172.5  0.0193   83.7  0.9889   -6.4
 0.090  0.9394  -11.0   7.362  172.1  0.0204   83.1  0.9882   -6.8
 0.095  0.9386  -11.6   7.337  171.7  0.0215   82.9  0.9875   -7.1
 0.100  0.9380  -12.2   7.312  171.2  0.0226   82.8  0.9869   -7.5
 0.105  0.9378  -12.7   7.316  170.8  0.0237   82.3  0.9861   -7.9
 0.110  0.9377  -13.3   7.320  170.5  0.0249   81.8  0.9854   -8.3
 0.115  0.9363  -14.0   7.325  170.0  0.0260   81.4  0.9846   -8.7
 0.120  0.9351  -14.7   7.330  169.5  0.0271   81.0  0.9838   -9.1
 0.125  0.9336  -15.2   7.322  169.2  0.0282   80.7  0.9829   -9.4
 0.130  0.9322  -15.7   7.314  168.8  0.0293   80.5  0.9820   -9.7
 0.135  0.9323  -16.4   7.315  168.3  0.0304   80.1  0.9812  -10.1
 0.140  0.9325  -17.0   7.316  167.8  0.0316   79.7  0.9805  -10.5
 0.145  0.9314  -17.6   7.300  167.3  0.0326   79.4  0.9794  -10.8
 0.150  0.9304  -18.2   7.284  166.8  0.0337   79.1  0.9783  -11.2
 0.155  0.9292  -18.8   7.275  166.4  0.0348   78.6  0.9770  -11.6
 0.160  0.9280  -19.4   7.267  166.0  0.0358   78.2  0.9757  -11.9
 0.165  0.9270  -20.0   7.259  165.6  0.0369   77.8  0.9745  -12.3
 0.170  0.9260  -20.5   7.252  165.2  0.0380   77.4  0.9733  -12.7
 0.175  0.9252  -21.1   7.244  164.8  0.0390   77.1  0.9721  -13.0
 0.180  0.9244  -21.7   7.238  164.3  0.0401   76.7  0.9710  -13.4
 0.185  0.9238  -22.3   7.231  163.9  0.0412   76.4  0.9700  -13.8
 0.190  0.9232  -22.9   7.225  163.5  0.0422   76.1  0.9689  -14.2
 0.195  0.9228  -23.5   7.219  163.1  0.0433   75.8  0.9679  -14.5
 0.200  0.9224  -24.1   7.214  162.7  0.0444   75.5  0.9670  -14.9
 0.220  0.9163  -26.4   7.164  161.0  0.0485   73.9  0.9611  -16.3
 0.240  0.9118  -28.8   7.121  159.4  0.0525   72.6  0.9557  -17.7
 0.260  0.9071  -31.1   7.072  157.7  0.0565   71.2  0.9496  -19.1
 0.280  0.9022  -33.3   7.019  156.1  0.0604   69.9  0.9428  -20.4
 0.300  0.8987  -35.6   6.971  154.5  0.0643   68.7  0.9365  -21.8
 0.320  0.8918  -37.9   6.910  152.9  0.0679   67.3  0.9288  -23.1
 0.340  0.8863  -40.1   6.854  151.3  0.0716   66.1  0.9216  -24.4
 0.360  0.8804  -42.3   6.793  149.8  0.0751   64.8  0.9139  -25.7
 0.380  0.8740  -44.5   6.727  148.2  0.0784   63.5  0.9056  -26.9
 0.400  0.8687  -46.6   6.665  146.7  0.0818   62.3  0.8978  -28.2
 0.420  0.8611  -48.7   6.597  145.2  0.0850   61.1  0.8897  -29.4
 0.440  0.8547  -50.8   6.533  143.8  0.0882   59.9  0.8819  -30.6
 0.450  0.8520  -51.9   6.503  143.0  0.0898   59.4  0.8782  -31.2
 0.460  0.8481  -52.9   6.466  142.3  0.0912   58.8  0.8736  -31.7
 0.480  0.8412  -54.9   6.396  141.0  0.0942   57.7  0.8647  -32.9
 0.500  0.8354  -57.0   6.329  139.6  0.0971   56.7  0.8561  -34.0
 0.520  0.8268  -58.9   6.254  138.3  0.0996   55.6  0.8472  -35.0
 0.540  0.8192  -60.9   6.181  137.0  0.1021   54.5  0.8385  -36.1
 0.560  0.8125  -62.8   6.113  135.6  0.1047   53.4  0.8302  -37.2
 0.580  0.8069  -64.9   6.048  134.2  0.1073   52.4  0.8221  -38.3
 0.600  0.8022  -66.9   5.986  132.8  0.1099   51.5  0.8144  -39.4
 0.620  0.7941  -68.7   5.911  131.6  0.1120   50.5  0.8054  -40.3
 0.640  0.7868  -70.4   5.839  130.4  0.1141   49.5  0.7966  -41.3
 0.660  0.7802  -72.3   5.769  129.2  0.1162   48.6  0.7880  -42.3
 0.680  0.7744  -74.1   5.701  128.0  0.1184   47.7  0.7797  -43.3
 0.700  0.7695  -76.0   5.637  126.7  0.1206   46.8  0.7716  -44.3
 0.720  0.7623  -77.6   5.565  125.7  0.1223   45.9  0.7632  -45.1
 0.740  0.7558  -79.3   5.495  124.6  0.1240   45.0  0.7549  -46.0
 0.760  0.7500  -81.0   5.426  123.5  0.1258   44.2  0.7468  -46.8
 0.780  0.7448  -82.7   5.360  122.4  0.1276   43.4  0.7389  -47.7
 0.800  0.7403  -84.5   5.296  121.2  0.1294   42.6  0.7311  -48.6
 0.820  0.7339  -86.1   5.233  120.2  0.1308   41.8  0.7233  -49.3
 0.840  0.7280  -87.7   5.171  119.2  0.1322   41.1  0.7157  -50.1
 0.860  0.7228  -89.3   5.110  118.2  0.1337   40.4  0.7082  -50.8
 0.880  0.7181  -90.9   5.052  117.2  0.1351   39.7  0.7008  -51.6
 0.900  0.7140  -92.6   4.995  116.1  0.1366   39.0  0.6935  -52.4
 0.920  0.7082  -94.1   4.935  115.2  0.1378   38.3  0.6864  -53.1
 0.940  0.7028  -95.6   4.876  114.2  0.1389   37.6  0.6794  -53.8
 0.960  0.6979  -97.1   4.819  113.3  0.1401   37.0  0.6726  -54.5
 0.980  0.6936  -98.6   4.763  112.3  0.1414   36.3  0.6658  -55.2
 1.000  0.6897 -100.2   4.708  111.3  0.1426   35.7  0.6591  -55.9
 1.020  0.6846 -101.6   4.652  110.5  0.1435   35.1  0.6527  -56.5
 1.040  0.6800 -102.9   4.596  109.6  0.1445   34.5  0.6464  -57.2
 1.060  0.6757 -104.3   4.542  108.7  0.1455   33.9  0.6402  -57.8
 1.080  0.6718 -105.8   4.489  107.8  0.1465   33.4  0.6341  -58.5
 1.100  0.6684 -107.2   4.437  106.9  0.1475   32.8  0.6281  -59.2
 1.120  0.6639 -108.5   4.386  106.1  0.1483   32.2  0.6223  -59.8
 1.140  0.6598 -109.8   4.336  105.3  0.1490   31.7  0.6165  -60.3
 1.160  0.6560 -111.2   4.287  104.5  0.1498   31.2  0.6108  -60.9
 1.180  0.6526 -112.5   4.239  103.7  0.1506   30.6  0.6051  -61.5
 1.200  0.6496 -113.9   4.192  102.8  0.1514   30.1  0.5995  -62.1
 1.220  0.6460 -115.2   4.146  102.1  0.1520   29.6  0.5943  -62.6
 1.240  0.6427 -116.4   4.100  101.3  0.1527   29.1  0.5891  -63.2
 1.260  0.6397 -117.7   4.055  100.6  0.1533   28.6  0.5840  -63.8
 1.280  0.6370 -119.0   4.011   99.8  0.1540   28.2  0.5790  -64.3
 1.300  0.6347 -120.3   3.967   99.0  0.1547   27.7  0.5740  -64.9
 1.320  0.6315 -121.5   3.925   98.3  0.1552   27.3  0.5692  -65.4
 1.340  0.6286 -122.7   3.884   97.6  0.1558   26.9  0.5645  -65.9
 1.360  0.6260 -123.9   3.844   96.8  0.1563   26.4  0.5598  -66.4
 1.380  0.6236 -125.1   3.804   96.1  0.1568   26.0  0.5552  -66.9
 1.400  0.6215 -126.3   3.765   95.3  0.1574   25.6  0.5506  -67.4
 1.420  0.6185 -127.4   3.727   94.6  0.1578   25.2  0.5463  -67.8
 1.440  0.6158 -128.6   3.689   93.9  0.1582   24.8  0.5421  -68.3
 1.460  0.6133 -129.7   3.652   93.2  0.1586   24.5  0.5378  -68.8
 1.480  0.6111 -130.8   3.616   92.5  0.1591   24.1  0.5336  -69.2
 1.500  0.6091 -132.0   3.580   91.8  0.1595   23.7  0.5295  -69.7
 1.520  0.6067 -133.1   3.545   91.2  0.1598   23.3  0.5255  -70.1
 1.540  0.6045 -134.2   3.510   90.5  0.1601   23.0  0.5216  -70.6
 1.560  0.6026 -135.3   3.475   89.9  0.1604   22.6  0.5176  -71.1
 1.580  0.6008 -136.4   3.441   89.2  0.1608   22.3  0.5138  -71.5
 1.600  0.5993 -137.5   3.408   88.5  0.1611   21.9  0.5099  -72.0
 1.620  0.5975 -138.5   3.377   87.9  0.1614   21.6  0.5066  -72.4
 1.640  0.5959 -139.5   3.346   87.3  0.1617   21.3  0.5032  -72.8
 1.660  0.5945 -140.5   3.316   86.7  0.1620   20.9  0.4999  -73.2
 1.680  0.5932 -141.6   3.286   86.0  0.1624   20.6  0.4967  -73.6
 1.700  0.5922 -142.6   3.256   85.4  0.1627   20.3  0.4934  -74.0
 1.720  0.5907 -143.6   3.226   84.8  0.1629   20.0  0.4902  -74.4
 1.740  0.5893 -144.6   3.197   84.2  0.1631   19.7  0.4871  -74.9
 1.760  0.5881 -145.6   3.168   83.6  0.1633   19.4  0.4840  -75.3
 1.780  0.5871 -146.6   3.139   83.0  0.1635   19.1  0.4809  -75.7
 1.800  0.5863 -147.6   3.111   82.4  0.1637   18.8  0.4779  -76.2
 1.820  0.5850 -148.6   3.085   81.8  0.1639   18.5  0.4750  -76.6
 1.840  0.5838 -149.5   3.059   81.3  0.1641   18.2  0.4721  -76.9
 1.860  0.5829 -150.5   3.033   80.7  0.1643   18.0  0.4692  -77.3
 1.880  0.5821 -151.4   3.008   80.1  0.1645   17.7  0.4663  -77.7
 1.900  0.5814 -152.4   2.983   79.5  0.1647   17.4  0.4635  -78.1
 1.920  0.5803 -153.3   2.958   79.0  0.1648   17.2  0.4609  -78.5
 1.940  0.5793 -154.3   2.933   78.4  0.1649   16.9  0.4582  -78.9
 1.960  0.5785 -155.2   2.909   77.8  0.1650   16.7  0.4556  -79.3
 1.980  0.5778 -156.2   2.885   77.3  0.1651   16.4  0.4531  -79.7
 2.000  0.5773 -157.1   2.861   76.7  0.1652   16.2  0.4505  -80.1
 2.020  0.5764 -158.0   2.838   76.2  0.1653   16.0  0.4481  -80.5
 2.040  0.5757 -158.8   2.815   75.7  0.1654   15.7  0.4457  -80.8
 2.060  0.5750 -159.7   2.792   75.2  0.1654   15.5  0.4433  -81.2
 2.080  0.5745 -160.6   2.770   74.6  0.1655   15.3  0.4409  -81.6
 2.100  0.5742 -161.4   2.747   74.1  0.1656   15.0  0.4386  -81.9
 2.120  0.5740 -162.3   2.725   73.6  0.1657   14.8  0.4363  -82.3
 2.140  0.5739 -163.2   2.704   73.0  0.1658   14.6  0.4340  -82.7
 2.160  0.5739 -164.1   2.682   72.5  0.1659   14.4  0.4317  -83.1
 2.180  0.5741 -164.9   2.661   71.9  0.1660   14.1  0.4294  -83.5
 2.200  0.5744 -165.8   2.640   71.3  0.1661   13.9  0.4272  -83.9
 2.220  0.5738 -166.6   2.620   70.8  0.1661   13.7  0.4251  -84.3
 2.240  0.5733 -167.4   2.601   70.3  0.1661   13.5  0.4230  -84.7
 2.260  0.5730 -168.3   2.582   69.8  0.1661   13.3  0.4210  -85.0
 2.280  0.5727 -169.1   2.563   69.3  0.1661   13.1  0.4190  -85.4
 2.300  0.5726 -169.9   2.544   68.8  0.1661   13.0  0.4170  -85.8
 2.320  0.5726 -170.7   2.525   68.3  0.1661   12.8  0.4150  -86.2
 2.340  0.5727 -171.5   2.507   67.7  0.1661   12.6  0.4130  -86.6
 2.360  0.5729 -172.4   2.489   67.2  0.1661   12.4  0.4110  -87.0
 2.380  0.5732 -173.2   2.471   66.7  0.1661   12.2  0.4091  -87.4
 2.400  0.5737 -174.0   2.453   66.1  0.1661   12.0  0.4072  -87.8
 2.420  0.5736 -174.8   2.436   65.6  0.1661   11.8  0.4055  -88.2
 2.440  0.5735 -175.5   2.418   65.2  0.1660   11.7  0.4037  -88.6
 2.460  0.5736 -176.3   2.401   64.7  0.1660   11.5  0.4020  -89.0
 2.480  0.5738 -177.0   2.384   64.2  0.1660   11.4  0.4003  -89.4
 2.500  0.5741 -177.8   2.367   63.7  0.1659   11.2  0.3987  -89.8
 2.520  0.5745 -178.6   2.351   63.2  0.1659   11.0  0.3970  -90.2
 2.540  0.5749 -179.3   2.334   62.7  0.1659   10.9  0.3954  -90.6
 2.560  0.5755  179.9   2.318   62.2  0.1658   10.7  0.3938  -91.0
 2.580  0.5762  179.2   2.302   61.7  0.1658   10.6  0.3922  -91.4
 2.600  0.5770  178.4   2.286   61.2  0.1658   10.4  0.3906  -91.8
 2.620  0.5770  177.7   2.271   60.8  0.1657   10.3  0.3892  -92.2
 2.640  0.5771  177.0   2.256   60.3  0.1656   10.1  0.3879  -92.6
 2.660  0.5773  176.3   2.241   59.9  0.1655   10.0  0.3865  -93.0
 2.680  0.5775  175.6   2.226   59.4  0.1654    9.8  0.3852  -93.4
 2.700  0.5779  174.9   2.211   58.9  0.1653    9.7  0.3839  -93.8
 2.720  0.5783  174.2   2.197   58.5  0.1652    9.5  0.3826  -94.2
 2.740  0.5788  173.5   2.182   58.0  0.1652    9.4  0.3814  -94.6
 2.760  0.5794  172.8   2.168   57.5  0.1651    9.2  0.3801  -95.1
 2.780  0.5801  172.1   2.154   57.0  0.1650    9.1  0.3789  -95.5
 2.800  0.5809  171.4   2.140   56.5  0.1649    8.9  0.3777  -95.9
 2.820  0.5812  170.7   2.126   56.1  0.1648    8.8  0.3765  -96.3
 2.840  0.5815  170.1   2.113   55.6  0.1647    8.7  0.3753  -96.7
 2.860  0.5819  169.4   2.099   55.2  0.1645    8.6  0.3741  -97.1
 2.880  0.5824  168.8   2.086   54.8  0.1644    8.5  0.3729  -97.5
 2.900  0.5829  168.1   2.072   54.3  0.1643    8.4  0.3718  -97.9
 2.920  0.5835  167.5   2.059   53.9  0.1642    8.3  0.3706  -98.3
 2.940  0.5842  166.8   2.046   53.4  0.1641    8.2  0.3695  -98.7
 2.960  0.5850  166.2   2.033   52.9  0.1639    8.1  0.3684  -99.2
 2.980  0.5859  165.5   2.021   52.5  0.1638    8.0  0.3674  -99.6
 3.000  0.5868  164.9   2.008   52.0  0.1637    7.9  0.3663 -100.0
 3.100  0.5877  161.9   1.949   50.2  0.1630    7.6  0.3621 -102.0
 3.200  0.5902  159.0   1.891   48.2  0.1623    7.2  0.3584 -104.0
 3.300  0.5942  156.1   1.836   46.1  0.1616    6.9  0.3552 -106.0
 3.400  0.5997  153.2   1.784   43.9  0.1610    6.5  0.3523 -108.1
 3.500  0.6067  150.4   1.734   41.6  0.1603    6.2  0.3500 -110.2
 3.600  0.6098  147.9   1.687   39.9  0.1597    6.1  0.3474 -112.3
 3.700  0.6140  145.4   1.642   38.1  0.1591    6.1  0.3452 -114.4
 3.800  0.6194  142.9   1.598   36.2  0.1586    6.0  0.3435 -116.6
 3.900  0.6260  140.5   1.557   34.2  0.1580    6.0  0.3423 -118.7
 4.000  0.6336  138.1   1.517   32.1  0.1574    5.9  0.3416 -120.9
 4.100  0.6375  136.1   1.479   30.5  0.1571    6.1  0.3418 -123.1
 4.200  0.6422  134.0   1.442   28.8  0.1568    6.3  0.3426 -125.4
 4.300  0.6477  132.1   1.407   27.1  0.1565    6.5  0.3438 -127.6
 4.400  0.6539  130.1   1.373   25.2  0.1562    6.7  0.3456 -129.8
 4.500  0.6609  128.2   1.340   23.3  0.1559    6.9  0.3479 -132.0
 4.600  0.6643  126.6   1.309   21.9  0.1562    7.3  0.3507 -134.0
 4.700  0.6682  124.9   1.279   20.4  0.1565    7.7  0.3540 -135.9
 4.800  0.6727  123.3   1.250   18.9  0.1568    8.1  0.3576 -137.8
 4.900  0.6776  121.8   1.222   17.3  0.1571    8.5  0.3616 -139.7
 5.000  0.6831  120.2   1.195   15.6  0.1574    8.9  0.3660 -141.5
 5.100  0.6861  118.9   1.170   14.4  0.1587    9.3  0.3698 -143.1
 5.200  0.6894  117.6   1.146   13.0  0.1599    9.8  0.3739 -144.7
 5.300  0.6931  116.3   1.122   11.7  0.1612   10.2  0.3783 -146.3
 5.400  0.6972  115.0   1.099   10.3  0.1625   10.6  0.3830 -147.8
 5.500  0.7016  113.7   1.077    8.8  0.1638   11.0  0.3879 -149.3
 5.600  0.7044  112.6   1.058    7.6  0.1657   11.2  0.3925 -151.0
 5.700  0.7074  111.5   1.039    6.4  0.1677   11.5  0.3975 -152.6
 5.800  0.7107  110.4   1.020    5.2  0.1696   11.7  0.4027 -154.2
 5.900  0.7143  109.3   1.002    3.9  0.1716   11.9  0.4083 -155.8
 6.000  0.7181  108.2   0.985    2.5  0.1735   12.1  0.4142 -157.3
 6.100  0.7188  107.2   0.968    1.4  0.1757   12.2  0.4191 -158.7
 6.200  0.7197  106.1   0.951    0.3  0.1779   12.4  0.4242 -160.1
 6.300  0.7208  105.1   0.935   -0.9  0.1801   12.5  0.4296 -161.4
 6.400  0.7222  104.0   0.919   -2.1  0.1823   12.7  0.4352 -162.7
 6.500  0.7238  103.0   0.904   -3.3  0.1845   12.8  0.4410 -164.0
 6.600  0.7239  101.9   0.891   -4.3  0.1873   12.9  0.4441 -165.0
 6.800  0.7248   99.7   0.865   -6.3  0.1930   13.0  0.4506 -166.9
 7.000  0.7268   97.5   0.840   -8.4  0.1987   13.2  0.4576 -168.8
 7.200  0.7295   94.9   0.820  -10.4  0.2061   12.9  0.4610 -171.2
 7.400  0.7338   92.3   0.801  -12.4  0.2134   12.5  0.4652 -173.5
 7.600  0.7389   89.5   0.782  -14.6  0.2210   11.9  0.4695 -176.3
 7.800  0.7453   86.6   0.764  -16.8  0.2290   11.0  0.4744 -179.3
 8.000  0.7536   83.7   0.747  -19.2  0.2370   10.1  0.4806  177.7
 8.200  0.7583   80.5   0.727  -21.4  0.2442    8.6  0.4841  174.3
 8.400  0.7652   77.4   0.708  -23.6  0.2515    7.1  0.4893  170.9
 8.600  0.7734   74.5   0.689  -25.7  0.2574    5.5  0.4932  167.0
 8.800  0.7825   71.6   0.669  -27.7  0.2621    3.7  0.4968  162.5
 9.000  0.7935   68.9   0.650  -29.8  0.2670    2.0  0.5034  158.2
 9.200  0.8062   66.6   0.629  -31.4  0.2693    0.5  0.5124  152.8
 9.400  0.8202   64.4   0.608  -33.2  0.2717   -1.0  0.5257  147.7
 9.600  0.8320   62.4   0.587  -34.7  0.2736   -2.2  0.5414  142.8
 9.800  0.8413   60.8   0.565  -35.9  0.2750   -3.2  0.5592  138.3
10.000  0.8514   59.1   0.544  -37.3  0.2764   -4.2  0.5803  134.0
!
!  f       NFmin   Gammaopt  rn/50
! GHz       dB    MAG  ANG    -
 0.450      0.68  0.58   19   0.26
 0.900      0.74  0.54   38   0.26
 1.900      1.17  0.35   94   0.17
 3.500      1.69  0.37 -166   0.13
!
! (c) 2016  Infineon Technologies AG, Munich
