! Infineon Technologies  Discrete & RF Semiconductors
! BFP460
! VCE =  2.5 V,  IC =  14 mA
! Common Emitter S-Parameters:                            Jan 2016
# GHz  S  MA  R  50
!  f         S11            S21            S12            S22
! GHz     MAG   ANG      MAG   ANG      MAG   ANG      MAG   ANG
 0.030  0.6972  -11.5  36.348  173.0  0.0055   84.2  0.9645   -7.5
 0.035  0.6947  -13.2  36.222  171.7  0.0063   83.5  0.9621   -8.7
 0.040  0.6928  -15.0  36.115  170.4  0.0072   82.9  0.9602   -9.9
 0.045  0.6930  -16.8  35.905  169.0  0.0081   82.1  0.9572  -11.1
 0.050  0.6938  -18.5  35.716  167.6  0.0090   81.5  0.9547  -12.3
 0.055  0.6890  -20.5  35.577  166.6  0.0097   80.6  0.9508  -13.5
 0.060  0.6851  -22.6  35.448  165.6  0.0105   79.8  0.9474  -14.8
 0.065  0.6830  -24.6  35.381  164.4  0.0114   79.2  0.9431  -16.0
 0.070  0.6817  -26.6  35.331  163.1  0.0123   78.6  0.9393  -17.2
 0.075  0.6823  -28.3  35.115  162.2  0.0131   77.3  0.9344  -18.4
 0.080  0.6835  -29.9  34.907  161.3  0.0139   76.2  0.9300  -19.6
 0.085  0.6790  -31.7  34.686  160.2  0.0146   75.4  0.9243  -20.7
 0.090  0.6752  -33.6  34.477  159.1  0.0154   74.7  0.9190  -21.9
 0.095  0.6730  -35.2  34.171  158.1  0.0161   74.2  0.9136  -23.0
 0.100  0.6713  -36.8  33.875  157.1  0.0169   73.7  0.9085  -24.1
 0.105  0.6699  -38.5  33.688  156.1  0.0176   72.9  0.9022  -25.2
 0.110  0.6691  -40.3  33.511  155.1  0.0183   72.2  0.8963  -26.3
 0.115  0.6642  -42.0  33.267  154.1  0.0190   71.5  0.8897  -27.4
 0.120  0.6600  -43.8  33.035  153.0  0.0198   70.8  0.8835  -28.6
 0.125  0.6566  -45.3  32.770  152.1  0.0205   70.1  0.8767  -29.6
 0.130  0.6537  -46.9  32.513  151.2  0.0212   69.5  0.8702  -30.6
 0.135  0.6513  -48.6  32.273  150.2  0.0218   68.8  0.8635  -31.6
 0.140  0.6494  -50.3  32.042  149.2  0.0225   68.2  0.8570  -32.6
 0.145  0.6452  -51.8  31.727  148.2  0.0231   67.5  0.8500  -33.6
 0.150  0.6415  -53.4  31.421  147.2  0.0237   66.8  0.8432  -34.7
 0.155  0.6368  -54.8  31.127  146.4  0.0242   66.2  0.8353  -35.5
 0.160  0.6325  -56.2  30.839  145.7  0.0248   65.6  0.8276  -36.4
 0.165  0.6286  -57.6  30.556  144.9  0.0253   65.0  0.8200  -37.2
 0.170  0.6250  -59.0  30.279  144.1  0.0259   64.5  0.8126  -38.1
 0.175  0.6219  -60.4  30.009  143.3  0.0264   64.0  0.8055  -39.0
 0.180  0.6191  -61.9  29.744  142.5  0.0270   63.5  0.7985  -39.9
 0.185  0.6167  -63.3  29.486  141.6  0.0275   63.0  0.7917  -40.8
 0.190  0.6148  -64.8  29.234  140.8  0.0281   62.6  0.7852  -41.8
 0.195  0.6132  -66.3  28.988  139.9  0.0286   62.1  0.7788  -42.7
 0.200  0.6121  -67.8  28.750  139.0  0.0292   61.7  0.7727  -43.7
 0.220  0.5980  -72.8  27.643  136.4  0.0309   60.0  0.7441  -46.6
 0.240  0.5886  -78.0  26.600  133.5  0.0326   58.4  0.7176  -49.7
 0.260  0.5795  -82.7  25.604  130.9  0.0342   57.0  0.6921  -52.6
 0.280  0.5696  -87.0  24.629  128.7  0.0356   55.8  0.6668  -55.3
 0.300  0.5631  -91.5  23.697  126.2  0.0371   54.7  0.6431  -58.1
 0.320  0.5534  -95.3  22.815  124.3  0.0383   53.8  0.6207  -60.2
 0.340  0.5461  -99.1  21.960  122.3  0.0394   52.9  0.5992  -62.5
 0.360  0.5393 -102.7  21.161  120.4  0.0405   52.2  0.5791  -64.6
 0.380  0.5325 -106.0  20.409  118.7  0.0415   51.5  0.5601  -66.6
 0.400  0.5275 -109.4  19.676  116.9  0.0425   50.9  0.5418  -68.7
 0.420  0.5214 -112.3  19.014  115.5  0.0434   50.5  0.5252  -70.4
 0.440  0.5166 -115.2  18.364  114.0  0.0443   50.1  0.5091  -72.2
 0.450  0.5147 -116.7  18.044  113.2  0.0448   49.9  0.5012  -73.1
 0.460  0.5121 -118.0  17.759  112.6  0.0452   49.7  0.4940  -73.8
 0.480  0.5075 -120.5  17.195  111.4  0.0460   49.4  0.4799  -75.3
 0.500  0.5040 -123.1  16.639  110.1  0.0468   49.1  0.4662  -76.9
 0.520  0.4997 -125.2  16.167  109.1  0.0476   49.0  0.4545  -78.1
 0.540  0.4962 -127.4  15.701  108.1  0.0483   48.8  0.4430  -79.4
 0.560  0.4933 -129.6  15.239  107.0  0.0491   48.7  0.4317  -80.7
 0.580  0.4912 -131.9  14.784  105.8  0.0498   48.6  0.4207  -82.1
 0.600  0.4899 -134.1  14.335  104.6  0.0506   48.5  0.4099  -83.6
 0.620  0.4871 -135.9  13.972  103.8  0.0513   48.5  0.4011  -84.7
 0.640  0.4849 -137.7  13.611  102.9  0.0520   48.4  0.3923  -85.8
 0.660  0.4831 -139.5  13.254  102.0  0.0528   48.4  0.3838  -86.9
 0.680  0.4817 -141.3  12.900  101.1  0.0535   48.3  0.3754  -88.1
 0.700  0.4809 -143.1  12.550  100.1  0.0542   48.3  0.3672  -89.4
 0.720  0.4791 -144.6  12.265   99.4  0.0549   48.3  0.3604  -90.3
 0.740  0.4776 -146.0  11.982   98.7  0.0556   48.3  0.3538  -91.3
 0.760  0.4765 -147.5  11.700   98.0  0.0564   48.4  0.3472  -92.3
 0.780  0.4756 -149.0  11.421   97.2  0.0571   48.4  0.3407  -93.3
 0.800  0.4751 -150.5  11.144   96.4  0.0578   48.4  0.3344  -94.4
 0.820  0.4741 -151.8  10.917   95.8  0.0585   48.5  0.3291  -95.2
 0.840  0.4733 -153.1  10.692   95.2  0.0592   48.5  0.3239  -96.1
 0.860  0.4727 -154.4  10.468   94.5  0.0599   48.6  0.3188  -97.0
 0.880  0.4725 -155.7  10.245   93.8  0.0606   48.6  0.3138  -97.9
 0.900  0.4724 -157.0  10.024   93.1  0.0613   48.7  0.3088  -98.8
 0.920  0.4714 -158.1   9.837   92.5  0.0620   48.8  0.3046  -99.6
 0.940  0.4706 -159.2   9.650   92.0  0.0627   48.8  0.3005 -100.3
 0.960  0.4699 -160.4   9.465   91.4  0.0635   48.9  0.2964 -101.1
 0.980  0.4695 -161.5   9.280   90.7  0.0642   48.9  0.2924 -102.0
 1.000  0.4692 -162.6   9.097   90.1  0.0649   49.0  0.2884 -102.8
 1.020  0.4687 -163.6   8.940   89.6  0.0656   49.1  0.2851 -103.5
 1.040  0.4684 -164.6   8.784   89.1  0.0664   49.1  0.2818 -104.2
 1.060  0.4682 -165.6   8.629   88.5  0.0671   49.2  0.2786 -105.0
 1.080  0.4681 -166.6   8.475   88.0  0.0679   49.2  0.2754 -105.7
 1.100  0.4682 -167.6   8.321   87.4  0.0686   49.3  0.2723 -106.5
 1.120  0.4680 -168.5   8.189   86.9  0.0693   49.3  0.2696 -107.2
 1.140  0.4679 -169.4   8.057   86.4  0.0701   49.4  0.2669 -107.8
 1.160  0.4679 -170.3   7.926   85.9  0.0708   49.4  0.2643 -108.5
 1.180  0.4680 -171.2   7.795   85.4  0.0716   49.5  0.2617 -109.2
 1.200  0.4682 -172.1   7.665   84.9  0.0723   49.5  0.2591 -109.9
 1.220  0.4682 -172.9   7.552   84.5  0.0731   49.5  0.2570 -110.5
 1.240  0.4683 -173.7   7.440   84.0  0.0739   49.6  0.2548 -111.1
 1.260  0.4685 -174.5   7.328   83.6  0.0746   49.6  0.2528 -111.8
 1.280  0.4688 -175.3   7.217   83.1  0.0754   49.7  0.2507 -112.4
 1.300  0.4692 -176.1   7.106   82.6  0.0762   49.7  0.2487 -113.1
 1.320  0.4692 -176.9   7.008   82.2  0.0769   49.7  0.2468 -113.7
 1.340  0.4693 -177.6   6.911   81.7  0.0777   49.7  0.2449 -114.3
 1.360  0.4695 -178.4   6.814   81.3  0.0784   49.8  0.2431 -114.9
 1.380  0.4698 -179.1   6.718   80.8  0.0792   49.8  0.2413 -115.5
 1.400  0.4701 -179.9   6.622   80.3  0.0799   49.8  0.2395 -116.1
 1.420  0.4703  179.4   6.537   79.9  0.0807   49.8  0.2381 -116.6
 1.440  0.4705  178.7   6.452   79.5  0.0815   49.8  0.2366 -117.2
 1.460  0.4708  177.9   6.367   79.1  0.0822   49.9  0.2352 -117.7
 1.480  0.4712  177.2   6.283   78.6  0.0830   49.9  0.2339 -118.2
 1.500  0.4716  176.5   6.199   78.2  0.0838   49.9  0.2325 -118.8
 1.520  0.4718  175.8   6.124   77.8  0.0846   49.9  0.2312 -119.3
 1.540  0.4721  175.1   6.049   77.4  0.0854   49.9  0.2300 -119.9
 1.560  0.4724  174.4   5.974   77.0  0.0861   49.8  0.2288 -120.5
 1.580  0.4728  173.7   5.900   76.6  0.0869   49.8  0.2276 -121.0
 1.600  0.4733  173.0   5.826   76.2  0.0877   49.8  0.2264 -121.6
 1.620  0.4736  172.4   5.760   75.8  0.0885   49.8  0.2254 -122.1
 1.640  0.4739  171.8   5.695   75.4  0.0893   49.8  0.2244 -122.6
 1.660  0.4743  171.2   5.630   75.0  0.0900   49.7  0.2234 -123.1
 1.680  0.4747  170.6   5.565   74.6  0.0908   49.7  0.2224 -123.7
 1.700  0.4752  170.0   5.500   74.2  0.0916   49.7  0.2215 -124.2
 1.720  0.4757  169.4   5.440   73.8  0.0924   49.7  0.2207 -124.7
 1.740  0.4762  168.8   5.381   73.4  0.0932   49.6  0.2198 -125.2
 1.760  0.4767  168.2   5.322   73.0  0.0939   49.6  0.2190 -125.7
 1.780  0.4773  167.6   5.263   72.6  0.0947   49.5  0.2183 -126.2
 1.800  0.4780  167.0   5.204   72.2  0.0955   49.5  0.2175 -126.7
 1.820  0.4784  166.4   5.151   71.8  0.0963   49.5  0.2167 -127.2
 1.840  0.4788  165.8   5.099   71.5  0.0971   49.4  0.2160 -127.7
 1.860  0.4793  165.2   5.047   71.1  0.0979   49.4  0.2153 -128.2
 1.880  0.4799  164.6   4.995   70.7  0.0987   49.3  0.2146 -128.8
 1.900  0.4805  164.0   4.943   70.3  0.0995   49.3  0.2139 -129.3
 1.920  0.4811  163.4   4.895   69.9  0.1003   49.2  0.2134 -129.8
 1.940  0.4817  162.9   4.847   69.6  0.1011   49.2  0.2128 -130.3
 1.960  0.4824  162.3   4.800   69.2  0.1018   49.1  0.2123 -130.7
 1.980  0.4831  161.8   4.752   68.8  0.1026   49.1  0.2118 -131.2
 2.000  0.4839  161.2   4.705   68.4  0.1034   49.0  0.2113 -131.7
 2.020  0.4845  160.7   4.662   68.1  0.1042   48.9  0.2109 -132.2
 2.040  0.4851  160.1   4.620   67.7  0.1050   48.8  0.2104 -132.7
 2.060  0.4858  159.6   4.577   67.4  0.1058   48.7  0.2100 -133.2
 2.080  0.4865  159.1   4.535   67.0  0.1066   48.7  0.2097 -133.7
 2.100  0.4872  158.6   4.493   66.7  0.1073   48.6  0.2093 -134.2
 2.120  0.4880  158.1   4.451   66.3  0.1081   48.5  0.2089 -134.7
 2.140  0.4889  157.5   4.410   66.0  0.1089   48.4  0.2086 -135.3
 2.160  0.4897  157.0   4.368   65.6  0.1097   48.4  0.2083 -135.8
 2.180  0.4907  156.5   4.327   65.2  0.1105   48.3  0.2080 -136.3
 2.200  0.4916  156.0   4.286   64.8  0.1113   48.2  0.2077 -136.8
 2.220  0.4922  155.5   4.250   64.5  0.1121   48.1  0.2075 -137.3
 2.240  0.4929  155.0   4.215   64.1  0.1129   48.0  0.2073 -137.8
 2.260  0.4936  154.5   4.180   63.8  0.1136   47.9  0.2071 -138.3
 2.280  0.4944  154.0   4.144   63.4  0.1144   47.8  0.2069 -138.8
 2.300  0.4951  153.5   4.109   63.1  0.1152   47.7  0.2067 -139.3
 2.320  0.4960  153.0   4.075   62.7  0.1160   47.6  0.2066 -139.9
 2.340  0.4968  152.6   4.040   62.3  0.1168   47.6  0.2065 -140.4
 2.360  0.4977  152.1   4.005   62.0  0.1175   47.5  0.2064 -140.9
 2.380  0.4986  151.6   3.971   61.6  0.1183   47.4  0.2063 -141.4
 2.400  0.4996  151.1   3.937   61.2  0.1191   47.3  0.2062 -141.9
 2.420  0.5005  150.6   3.906   60.9  0.1199   47.2  0.2062 -142.4
 2.440  0.5013  150.2   3.876   60.6  0.1206   47.1  0.2063 -142.9
 2.460  0.5023  149.7   3.845   60.2  0.1214   47.0  0.2064 -143.5
 2.480  0.5032  149.2   3.815   59.9  0.1222   46.8  0.2064 -144.0
 2.500  0.5042  148.8   3.784   59.6  0.1229   46.7  0.2065 -144.5
 2.520  0.5052  148.3   3.754   59.2  0.1237   46.6  0.2067 -145.0
 2.540  0.5063  147.9   3.724   58.9  0.1245   46.5  0.2068 -145.5
 2.560  0.5073  147.4   3.694   58.5  0.1253   46.4  0.2069 -146.1
 2.580  0.5085  147.0   3.665   58.2  0.1260   46.3  0.2071 -146.6
 2.600  0.5096  146.5   3.635   57.8  0.1268   46.2  0.2073 -147.1
 2.620  0.5104  146.1   3.609   57.5  0.1275   46.1  0.2076 -147.6
 2.640  0.5112  145.6   3.582   57.2  0.1283   45.9  0.2078 -148.1
 2.660  0.5120  145.2   3.556   56.9  0.1290   45.8  0.2081 -148.6
 2.680  0.5129  144.8   3.530   56.5  0.1298   45.7  0.2084 -149.1
 2.700  0.5137  144.3   3.504   56.2  0.1305   45.6  0.2088 -149.6
 2.720  0.5147  143.9   3.478   55.9  0.1313   45.5  0.2091 -150.1
 2.740  0.5156  143.5   3.452   55.5  0.1320   45.3  0.2095 -150.5
 2.760  0.5166  143.0   3.427   55.2  0.1328   45.2  0.2098 -151.0
 2.780  0.5176  142.6   3.401   54.9  0.1335   45.1  0.2102 -151.5
 2.800  0.5186  142.2   3.376   54.5  0.1343   45.0  0.2106 -152.0
 2.820  0.5195  141.8   3.353   54.2  0.1350   44.9  0.2110 -152.5
 2.840  0.5204  141.4   3.330   53.9  0.1358   44.7  0.2114 -152.9
 2.860  0.5214  141.0   3.307   53.6  0.1365   44.6  0.2119 -153.4
 2.880  0.5223  140.6   3.284   53.3  0.1373   44.5  0.2124 -153.9
 2.900  0.5233  140.2   3.261   53.0  0.1380   44.3  0.2128 -154.3
 2.920  0.5244  139.8   3.238   52.6  0.1387   44.2  0.2133 -154.8
 2.940  0.5254  139.5   3.215   52.3  0.1395   44.1  0.2138 -155.2
 2.960  0.5265  139.1   3.193   52.0  0.1402   43.9  0.2143 -155.7
 2.980  0.5276  138.7   3.170   51.6  0.1410   43.8  0.2149 -156.1
 3.000  0.5287  138.3   3.148   51.3  0.1417   43.7  0.2154 -156.6
 3.100  0.5328  136.4   3.052   49.9  0.1452   43.0  0.2179 -158.7
 3.200  0.5375  134.5   2.958   48.5  0.1486   42.2  0.2208 -160.8
 3.300  0.5427  132.6   2.866   46.9  0.1521   41.6  0.2239 -162.8
 3.400  0.5485  130.8   2.776   45.3  0.1557   40.9  0.2273 -164.8
 3.500  0.5549  129.0   2.689   43.5  0.1592   40.3  0.2309 -166.7
 3.600  0.5601  127.3   2.616   42.2  0.1623   39.5  0.2343 -168.8
 3.700  0.5658  125.7   2.544   40.9  0.1655   38.8  0.2381 -170.9
 3.800  0.5720  124.0   2.474   39.4  0.1687   38.1  0.2421 -172.9
 3.900  0.5786  122.4   2.405   37.9  0.1719   37.4  0.2464 -174.8
 4.000  0.5856  120.9   2.338   36.3  0.1752   36.7  0.2510 -176.7
 4.100  0.5911  119.5   2.280   35.1  0.1781   36.0  0.2560 -178.6
 4.200  0.5969  118.2   2.223   33.8  0.1809   35.3  0.2613  179.5
 4.300  0.6030  116.9   2.168   32.5  0.1838   34.7  0.2668  177.7
 4.400  0.6095  115.6   2.113   31.1  0.1868   34.0  0.2726  176.0
 4.500  0.6162  114.3   2.060   29.6  0.1897   33.4  0.2786  174.4
 4.600  0.6201  113.1   2.014   28.5  0.1925   32.8  0.2829  173.1
 4.700  0.6243  111.9   1.970   27.3  0.1953   32.1  0.2873  171.8
 4.800  0.6287  110.7   1.926   26.0  0.1981   31.5  0.2919  170.5
 4.900  0.6334  109.5   1.883   24.8  0.2009   31.0  0.2966  169.3
 5.000  0.6384  108.4   1.841   23.4  0.2038   30.4  0.3015  168.1
 5.100  0.6413  107.4   1.806   22.4  0.2069   29.7  0.3045  167.1
 5.200  0.6444  106.4   1.772   21.3  0.2100   29.1  0.3076  166.2
 5.300  0.6477  105.4   1.738   20.2  0.2131   28.5  0.3107  165.3
 5.400  0.6511  104.5   1.705   19.0  0.2162   27.9  0.3140  164.4
 5.500  0.6548  103.5   1.673   17.8  0.2194   27.3  0.3173  163.5
 5.600  0.6571  102.7   1.645   16.8  0.2223   26.5  0.3209  162.6
 5.700  0.6595  101.8   1.618   15.7  0.2252   25.8  0.3246  161.7
 5.800  0.6620  101.0   1.591   14.6  0.2282   25.1  0.3284  160.9
 5.900  0.6647  100.2   1.565   13.4  0.2312   24.4  0.3322  160.0
 6.000  0.6675   99.4   1.540   12.2  0.2342   23.7  0.3361  159.2
 6.100  0.6680   98.6   1.516   11.2  0.2367   23.0  0.3387  158.6
 6.200  0.6687   97.7   1.493   10.1  0.2393   22.3  0.3414  158.1
 6.300  0.6695   96.9   1.471    9.1  0.2418   21.6  0.3440  157.6
 6.400  0.6705   96.0   1.449    7.9  0.2445   21.0  0.3468  157.0
 6.500  0.6716   95.2   1.427    6.8  0.2471   20.3  0.3495  156.5
 6.600  0.6711   94.3   1.409    5.8  0.2500   19.7  0.3494  156.1
 6.800  0.6706   92.4   1.373    3.8  0.2560   18.4  0.3492  155.3
 7.000  0.6709   90.5   1.340    1.7  0.2620   17.2  0.3491  154.5
 7.200  0.6728   88.3   1.312   -0.4  0.2684   15.6  0.3489  153.0
 7.400  0.6756   86.1   1.285   -2.7  0.2750   14.1  0.3490  151.5
 7.600  0.6797   83.7   1.259   -5.0  0.2813   12.5  0.3508  149.6
 7.800  0.6853   81.1   1.233   -7.4  0.2874   10.6  0.3546  147.3
 8.000  0.6923   78.6   1.209  -10.0  0.2937    8.9  0.3589  145.1
 8.200  0.6980   75.9   1.178  -12.4  0.2979    6.8  0.3632  142.2
 8.400  0.7052   73.3   1.149  -14.9  0.3025    4.8  0.3684  139.3
 8.600  0.7145   70.8   1.119  -17.3  0.3054    2.8  0.3749  135.8
 8.800  0.7258   68.5   1.087  -19.6  0.3068    0.7  0.3832  131.7
 9.000  0.7382   66.2   1.057  -22.0  0.3085   -1.3  0.3935  127.8
 9.200  0.7543   64.3   1.023  -23.9  0.3076   -2.9  0.4096  123.2
 9.400  0.7713   62.4   0.989  -25.9  0.3069   -4.4  0.4282  118.9
 9.600  0.7862   60.7   0.956  -27.6  0.3060   -5.7  0.4476  115.2
 9.800  0.7988   59.2   0.924  -29.2  0.3049   -6.6  0.4674  111.9
10.000  0.8119   57.8   0.892  -30.8  0.3038   -7.6  0.4886  108.9
!
!  f       NFmin   Gammaopt  rn/50
! GHz       dB    MAG  ANG    -
 0.450      1.09  0.04   41   0.14
 1.900      1.24  0.11 -165   0.12
 3.500      1.23  0.36 -131   0.13
!
! (c) 2016  Infineon Technologies AG, Munich
