! Infineon Technologies  Discrete & RF Semiconductors
! BFP460
! VCE =  3.0 V,  IC =  60 mA
! Common Emitter S-Parameters:                            Jan 2016
# GHz  S  MA  R  50
!  f         S11            S21            S12            S22
! GHz     MAG   ANG      MAG   ANG      MAG   ANG      MAG   ANG
 0.030  0.3047  -33.0  66.877  167.9  0.0042   85.7  0.8829  -11.7
 0.035  0.3061  -37.9  66.282  165.8  0.0048   83.5  0.8782  -14.0
 0.040  0.3096  -42.7  65.781  163.6  0.0055   81.9  0.8749  -16.3
 0.045  0.3126  -47.2  64.936  161.6  0.0060   80.1  0.8669  -18.4
 0.050  0.3175  -51.5  64.174  159.5  0.0065   78.6  0.8600  -20.5
 0.055  0.3205  -55.9  63.443  157.8  0.0071   76.6  0.8509  -22.6
 0.060  0.3254  -60.2  62.771  156.0  0.0078   75.0  0.8429  -24.7
 0.065  0.3296  -64.8  61.997  154.1  0.0083   74.8  0.8323  -26.7
 0.070  0.3358  -69.2  61.291  152.2  0.0088   74.7  0.8228  -28.7
 0.075  0.3427  -72.2  60.383  150.6  0.0093   73.3  0.8109  -30.6
 0.080  0.3504  -75.0  59.523  149.0  0.0098   72.1  0.7999  -32.6
 0.085  0.3544  -78.9  58.507  147.4  0.0102   70.9  0.7871  -34.4
 0.090  0.3601  -82.7  57.540  145.7  0.0107   69.8  0.7750  -36.2
 0.095  0.3615  -85.5  56.487  144.3  0.0111   69.1  0.7628  -37.8
 0.100  0.3637  -88.2  55.468  142.9  0.0115   68.4  0.7513  -39.5
 0.105  0.3695  -90.8  54.585  141.5  0.0118   67.8  0.7386  -41.1
 0.110  0.3761  -93.4  53.736  140.0  0.0122   67.2  0.7264  -42.7
 0.115  0.3780  -96.0  52.754  138.7  0.0126   66.5  0.7140  -44.2
 0.120  0.3807  -98.6  51.802  137.3  0.0130   65.9  0.7020  -45.7
 0.125  0.3841 -101.0  50.875  136.2  0.0133   65.4  0.6896  -47.1
 0.130  0.3881 -103.4  49.969  135.0  0.0137   64.9  0.6777  -48.5
 0.135  0.3916 -105.5  49.096  133.8  0.0140   64.4  0.6661  -49.8
 0.140  0.3957 -107.6  48.245  132.6  0.0143   63.9  0.6548  -51.1
 0.145  0.3976 -109.7  47.308  131.5  0.0146   63.7  0.6434  -52.3
 0.150  0.4001 -111.7  46.388  130.4  0.0149   63.5  0.6323  -53.6
 0.155  0.4011 -113.3  45.602  129.7  0.0152   63.2  0.6218  -54.5
 0.160  0.4023 -114.9  44.823  128.9  0.0154   63.0  0.6114  -55.4
 0.165  0.4039 -116.4  44.053  128.1  0.0157   62.7  0.6012  -56.3
 0.170  0.4058 -118.0  43.291  127.3  0.0160   62.5  0.5912  -57.3
 0.175  0.4079 -119.5  42.539  126.4  0.0162   62.3  0.5814  -58.3
 0.180  0.4104 -121.0  41.796  125.6  0.0165   62.0  0.5717  -59.4
 0.185  0.4131 -122.5  41.064  124.6  0.0168   61.8  0.5622  -60.4
 0.190  0.4161 -124.0  40.342  123.7  0.0171   61.6  0.5530  -61.6
 0.195  0.4194 -125.5  39.632  122.7  0.0173   61.4  0.5439  -62.7
 0.200  0.4230 -126.9  38.934  121.7  0.0176   61.2  0.5351  -63.9
 0.220  0.4263 -131.3  36.552  119.4  0.0185   60.9  0.5040  -66.8
 0.240  0.4321 -135.6  34.238  116.8  0.0194   60.6  0.4743  -70.0
 0.260  0.4374 -139.3  32.200  114.4  0.0203   60.5  0.4482  -72.9
 0.280  0.4413 -142.4  30.401  112.5  0.0212   60.6  0.4251  -75.4
 0.300  0.4466 -145.5  28.640  110.4  0.0220   60.7  0.4029  -78.2
 0.320  0.4487 -148.0  27.219  109.0  0.0229   60.9  0.3849  -80.1
 0.340  0.4516 -150.4  25.816  107.4  0.0238   61.1  0.3674  -82.3
 0.360  0.4536 -152.6  24.560  106.0  0.0246   61.3  0.3519  -84.2
 0.380  0.4548 -154.7  23.444  104.8  0.0255   61.6  0.3382  -86.0
 0.400  0.4565 -156.8  22.340  103.4  0.0263   61.8  0.3249  -88.0
 0.420  0.4581 -158.4  21.430  102.4  0.0271   62.1  0.3138  -89.5
 0.440  0.4600 -160.0  20.527  101.3  0.0280   62.4  0.3029  -91.1
 0.450  0.4611 -160.8  20.079  100.7  0.0284   62.5  0.2976  -91.9
 0.460  0.4615 -161.5  19.707  100.3  0.0288   62.6  0.2931  -92.6
 0.480  0.4625 -163.0  18.966   99.4  0.0297   62.9  0.2842  -93.9
 0.500  0.4638 -164.4  18.230   98.5  0.0306   63.1  0.2755  -95.4
 0.520  0.4644 -165.6  17.650   97.8  0.0315   63.3  0.2687  -96.5
 0.540  0.4652 -166.8  17.074   97.1  0.0324   63.6  0.2621  -97.7
 0.560  0.4662 -168.0  16.500   96.3  0.0332   63.8  0.2555  -98.9
 0.580  0.4674 -169.1  15.930   95.4  0.0341   64.0  0.2491 -100.2
 0.600  0.4688 -170.3  15.363   94.5  0.0350   64.2  0.2428 -101.6
 0.620  0.4693 -171.2  14.940   93.9  0.0359   64.4  0.2381 -102.6
 0.640  0.4700 -172.2  14.519   93.3  0.0368   64.5  0.2334 -103.6
 0.660  0.4708 -173.1  14.099   92.7  0.0377   64.7  0.2288 -104.7
 0.680  0.4717 -174.1  13.682   92.0  0.0386   64.9  0.2243 -105.8
 0.700  0.4727 -175.0  13.266   91.3  0.0395   65.0  0.2199 -106.9
 0.720  0.4731 -175.8  12.945   90.8  0.0404   65.1  0.2165 -107.8
 0.740  0.4736 -176.6  12.624   90.3  0.0413   65.1  0.2132 -108.7
 0.760  0.4742 -177.4  12.305   89.7  0.0422   65.2  0.2100 -109.6
 0.780  0.4748 -178.2  11.988   89.1  0.0431   65.2  0.2067 -110.5
 0.800  0.4756 -179.0  11.671   88.5  0.0440   65.3  0.2036 -111.5
 0.820  0.4761 -179.7  11.420   88.1  0.0449   65.4  0.2012 -112.3
 0.840  0.4768  179.6  11.170   87.6  0.0458   65.4  0.1988 -113.1
 0.860  0.4775  178.8  10.920   87.1  0.0468   65.5  0.1965 -113.9
 0.880  0.4782  178.1  10.672   86.6  0.0477   65.5  0.1942 -114.7
 0.900  0.4791  177.4  10.424   86.1  0.0486   65.6  0.1919 -115.6
 0.920  0.4794  176.7  10.220   85.7  0.0495   65.6  0.1900 -116.3
 0.940  0.4797  176.1  10.017   85.2  0.0504   65.6  0.1882 -117.0
 0.960  0.4801  175.4   9.815   84.8  0.0513   65.6  0.1864 -117.8
 0.980  0.4806  174.8   9.613   84.3  0.0522   65.6  0.1846 -118.5
 1.000  0.4811  174.1   9.412   83.8  0.0531   65.6  0.1829 -119.3
 1.020  0.4814  173.5   9.244   83.4  0.0540   65.6  0.1816 -119.9
 1.040  0.4818  172.9   9.077   83.0  0.0550   65.6  0.1803 -120.6
 1.060  0.4823  172.4   8.910   82.5  0.0559   65.5  0.1790 -121.3
 1.080  0.4828  171.8   8.744   82.1  0.0569   65.5  0.1778 -121.9
 1.100  0.4833  171.2   8.578   81.6  0.0578   65.5  0.1766 -122.6
 1.120  0.4837  170.6   8.437   81.2  0.0587   65.4  0.1756 -123.2
 1.140  0.4842  170.1   8.297   80.8  0.0596   65.4  0.1745 -123.8
 1.160  0.4847  169.5   8.157   80.4  0.0606   65.3  0.1735 -124.4
 1.180  0.4853  169.0   8.018   80.0  0.0615   65.3  0.1726 -125.0
 1.200  0.4859  168.4   7.879   79.6  0.0624   65.2  0.1716 -125.6
 1.220  0.4863  167.9   7.760   79.2  0.0633   65.1  0.1709 -126.1
 1.240  0.4868  167.4   7.641   78.9  0.0643   65.0  0.1703 -126.7
 1.260  0.4873  166.9   7.522   78.5  0.0652   65.0  0.1696 -127.2
 1.280  0.4878  166.4   7.404   78.1  0.0662   64.9  0.1690 -127.8
 1.300  0.4884  165.9   7.286   77.7  0.0671   64.8  0.1684 -128.3
 1.320  0.4887  165.4   7.183   77.3  0.0680   64.7  0.1678 -128.8
 1.340  0.4891  164.9   7.081   77.0  0.0689   64.6  0.1672 -129.3
 1.360  0.4895  164.4   6.979   76.6  0.0699   64.6  0.1666 -129.8
 1.380  0.4900  163.9   6.877   76.2  0.0708   64.5  0.1661 -130.4
 1.400  0.4905  163.4   6.776   75.8  0.0717   64.4  0.1655 -130.9
 1.420  0.4910  162.9   6.687   75.4  0.0726   64.3  0.1652 -131.3
 1.440  0.4915  162.4   6.598   75.1  0.0735   64.2  0.1648 -131.8
 1.460  0.4921  162.0   6.510   74.7  0.0745   64.0  0.1645 -132.2
 1.480  0.4927  161.5   6.422   74.3  0.0754   63.9  0.1642 -132.7
 1.500  0.4933  161.0   6.334   73.9  0.0763   63.8  0.1639 -133.1
 1.520  0.4939  160.5   6.256   73.6  0.0772   63.7  0.1636 -133.6
 1.540  0.4946  160.0   6.178   73.2  0.0781   63.6  0.1634 -134.1
 1.560  0.4953  159.6   6.100   72.9  0.0791   63.5  0.1631 -134.5
 1.580  0.4960  159.1   6.022   72.6  0.0800   63.4  0.1629 -135.0
 1.600  0.4968  158.6   5.945   72.2  0.0809   63.3  0.1627 -135.5
 1.620  0.4971  158.2   5.876   71.9  0.0818   63.2  0.1625 -135.9
 1.640  0.4975  157.8   5.808   71.5  0.0827   63.0  0.1624 -136.3
 1.660  0.4979  157.3   5.740   71.1  0.0837   62.9  0.1622 -136.8
 1.680  0.4983  156.9   5.672   70.8  0.0846   62.7  0.1620 -137.2
 1.700  0.4987  156.5   5.604   70.4  0.0855   62.6  0.1619 -137.6
 1.720  0.4992  156.1   5.542   70.1  0.0864   62.5  0.1618 -138.0
 1.740  0.4998  155.6   5.480   69.7  0.0873   62.3  0.1618 -138.4
 1.760  0.5004  155.2   5.419   69.4  0.0882   62.2  0.1618 -138.9
 1.780  0.5010  154.7   5.357   69.1  0.0891   62.0  0.1617 -139.3
 1.800  0.5017  154.3   5.296   68.7  0.0900   61.9  0.1617 -139.7
 1.820  0.5023  153.9   5.242   68.4  0.0909   61.8  0.1617 -140.1
 1.840  0.5029  153.4   5.188   68.1  0.0918   61.6  0.1617 -140.5
 1.860  0.5036  153.0   5.135   67.8  0.0928   61.5  0.1617 -141.0
 1.880  0.5043  152.5   5.081   67.4  0.0937   61.3  0.1618 -141.4
 1.900  0.5050  152.1   5.028   67.1  0.0946   61.2  0.1618 -141.8
 1.920  0.5056  151.7   4.978   66.8  0.0955   61.0  0.1619 -142.2
 1.940  0.5063  151.2   4.929   66.4  0.0964   60.9  0.1620 -142.6
 1.960  0.5070  150.8   4.879   66.0  0.0973   60.7  0.1621 -143.1
 1.980  0.5077  150.3   4.830   65.7  0.0982   60.6  0.1623 -143.5
 2.000  0.5084  149.9   4.781   65.3  0.0991   60.4  0.1624 -143.9
 2.020  0.5090  149.5   4.737   65.0  0.1000   60.2  0.1626 -144.3
 2.040  0.5097  149.1   4.693   64.7  0.1009   60.1  0.1628 -144.8
 2.060  0.5103  148.7   4.650   64.4  0.1018   59.9  0.1630 -145.2
 2.080  0.5110  148.3   4.606   64.1  0.1027   59.7  0.1632 -145.6
 2.100  0.5117  147.9   4.563   63.7  0.1035   59.6  0.1634 -146.1
 2.120  0.5125  147.5   4.519   63.4  0.1044   59.4  0.1636 -146.5
 2.140  0.5132  147.1   4.476   63.1  0.1053   59.3  0.1638 -146.9
 2.160  0.5140  146.7   4.433   62.7  0.1062   59.1  0.1641 -147.3
 2.180  0.5149  146.3   4.391   62.4  0.1071   58.9  0.1643 -147.8
 2.200  0.5157  145.9   4.348   62.0  0.1080   58.8  0.1646 -148.2
 2.220  0.5164  145.5   4.311   61.7  0.1089   58.6  0.1649 -148.6
 2.240  0.5171  145.2   4.275   61.4  0.1097   58.4  0.1653 -149.1
 2.260  0.5179  144.8   4.239   61.1  0.1106   58.3  0.1656 -149.5
 2.280  0.5187  144.4   4.202   60.8  0.1115   58.1  0.1660 -150.0
 2.300  0.5195  144.0   4.166   60.5  0.1123   57.9  0.1664 -150.4
 2.320  0.5203  143.7   4.130   60.1  0.1132   57.7  0.1668 -150.9
 2.340  0.5211  143.3   4.095   59.8  0.1141   57.6  0.1672 -151.3
 2.360  0.5220  142.9   4.059   59.5  0.1150   57.4  0.1676 -151.7
 2.380  0.5229  142.6   4.023   59.1  0.1158   57.3  0.1680 -152.2
 2.400  0.5238  142.2   3.988   58.8  0.1167   57.1  0.1684 -152.6
 2.420  0.5247  141.8   3.957   58.5  0.1175   56.9  0.1689 -153.1
 2.440  0.5256  141.4   3.925   58.2  0.1184   56.7  0.1695 -153.5
 2.460  0.5266  141.1   3.894   57.9  0.1192   56.6  0.1700 -154.0
 2.480  0.5276  140.7   3.863   57.6  0.1201   56.4  0.1706 -154.4
 2.500  0.5286  140.3   3.832   57.3  0.1209   56.2  0.1712 -154.8
 2.520  0.5296  140.0   3.801   56.9  0.1218   56.1  0.1718 -155.3
 2.540  0.5306  139.6   3.770   56.6  0.1226   55.9  0.1724 -155.7
 2.560  0.5317  139.2   3.740   56.3  0.1235   55.7  0.1730 -156.1
 2.580  0.5328  138.9   3.709   55.9  0.1243   55.6  0.1736 -156.6
 2.600  0.5339  138.5   3.679   55.6  0.1252   55.4  0.1742 -157.0
 2.620  0.5346  138.1   3.652   55.3  0.1260   55.2  0.1749 -157.4
 2.640  0.5354  137.8   3.625   55.0  0.1268   55.0  0.1756 -157.9
 2.660  0.5361  137.4   3.599   54.7  0.1277   54.8  0.1763 -158.3
 2.680  0.5369  137.1   3.572   54.4  0.1285   54.7  0.1770 -158.7
 2.700  0.5377  136.7   3.546   54.1  0.1293   54.5  0.1777 -159.1
 2.720  0.5386  136.4   3.519   53.8  0.1302   54.3  0.1784 -159.6
 2.740  0.5394  136.0   3.493   53.5  0.1310   54.1  0.1791 -160.0
 2.760  0.5403  135.7   3.467   53.2  0.1318   53.9  0.1799 -160.4
 2.780  0.5412  135.3   3.441   52.8  0.1327   53.8  0.1806 -160.8
 2.800  0.5421  135.0   3.415   52.5  0.1335   53.6  0.1814 -161.2
 2.820  0.5430  134.7   3.391   52.2  0.1343   53.4  0.1822 -161.6
 2.840  0.5439  134.4   3.368   51.9  0.1351   53.2  0.1830 -162.0
 2.860  0.5448  134.0   3.344   51.6  0.1359   53.0  0.1838 -162.4
 2.880  0.5457  133.7   3.321   51.4  0.1367   52.9  0.1846 -162.8
 2.900  0.5466  133.4   3.297   51.1  0.1375   52.7  0.1854 -163.1
 2.920  0.5476  133.1   3.274   50.8  0.1383   52.5  0.1862 -163.5
 2.940  0.5486  132.7   3.251   50.4  0.1392   52.3  0.1871 -163.9
 2.960  0.5496  132.4   3.228   50.1  0.1400   52.1  0.1879 -164.3
 2.980  0.5506  132.1   3.205   49.8  0.1408   52.0  0.1887 -164.6
 3.000  0.5516  131.8   3.182   49.5  0.1416   51.8  0.1896 -165.0
 3.100  0.5556  130.2   3.085   48.2  0.1453   50.8  0.1937 -166.9
 3.200  0.5600  128.6   2.990   46.9  0.1491   49.8  0.1979 -168.7
 3.300  0.5649  127.0   2.896   45.4  0.1529   48.9  0.2024 -170.4
 3.400  0.5702  125.4   2.804   43.9  0.1568   48.0  0.2070 -172.0
 3.500  0.5759  123.9   2.715   42.2  0.1607   47.2  0.2118 -173.6
 3.600  0.5811  122.4   2.641   41.0  0.1641   46.2  0.2165 -175.5
 3.700  0.5867  121.0   2.568   39.7  0.1675   45.3  0.2215 -177.4
 3.800  0.5927  119.6   2.497   38.4  0.1709   44.4  0.2267 -179.1
 3.900  0.5990  118.2   2.427   36.9  0.1744   43.5  0.2320  179.2
 4.000  0.6056  116.9   2.359   35.4  0.1779   42.7  0.2376  177.6
 4.100  0.6108  115.7   2.300   34.2  0.1809   41.8  0.2436  175.9
 4.200  0.6162  114.5   2.243   33.0  0.1840   41.0  0.2498  174.2
 4.300  0.6219  113.3   2.186   31.7  0.1871   40.2  0.2562  172.6
 4.400  0.6279  112.1   2.131   30.3  0.1902   39.4  0.2628  171.1
 4.500  0.6341  111.0   2.077   28.9  0.1934   38.7  0.2695  169.7
 4.600  0.6380  109.9   2.031   27.8  0.1964   37.9  0.2744  168.5
 4.700  0.6421  108.8   1.987   26.7  0.1994   37.2  0.2794  167.4
 4.800  0.6464  107.7   1.942   25.5  0.2024   36.5  0.2845  166.3
 4.900  0.6510  106.7   1.899   24.3  0.2055   35.8  0.2897  165.2
 5.000  0.6558  105.6   1.857   23.0  0.2086   35.1  0.2950  164.2
 5.100  0.6585  104.7   1.822   22.0  0.2118   34.3  0.2983  163.3
 5.200  0.6614  103.7   1.788   21.0  0.2151   33.6  0.3017  162.4
 5.300  0.6645  102.8   1.754   19.9  0.2184   32.8  0.3051  161.6
 5.400  0.6678  101.9   1.721   18.8  0.2217   32.1  0.3086  160.7
 5.500  0.6712  101.0   1.688   17.6  0.2251   31.4  0.3122  159.9
 5.600  0.6731  100.2   1.660   16.6  0.2280   30.5  0.3160  159.1
 5.700  0.6751   99.5   1.633   15.5  0.2310   29.7  0.3199  158.3
 5.800  0.6773   98.7   1.606   14.4  0.2341   28.9  0.3238  157.5
 5.900  0.6795   98.0   1.580   13.3  0.2372   28.1  0.3278  156.7
 6.000  0.6819   97.2   1.555   12.1  0.2403   27.3  0.3318  156.0
 6.100  0.6823   96.4   1.531   11.1  0.2429   26.5  0.3345  155.5
 6.200  0.6829   95.6   1.508   10.1  0.2456   25.7  0.3371  155.0
 6.300  0.6836   94.9   1.485    9.1  0.2483   25.0  0.3398  154.5
 6.400  0.6844   94.1   1.463    8.0  0.2510   24.2  0.3426  154.1
 6.500  0.6854   93.3   1.441    6.9  0.2538   23.5  0.3453  153.6
 6.600  0.6849   92.4   1.423    5.9  0.2568   22.8  0.3451  153.2
 6.800  0.6845   90.5   1.387    3.9  0.2629   21.4  0.3447  152.5
 7.000  0.6847   88.7   1.353    1.8  0.2691   20.0  0.3444  151.7
 7.200  0.6862   86.6   1.325   -0.3  0.2756   18.3  0.3442  150.3
 7.400  0.6887   84.5   1.298   -2.4  0.2824   16.7  0.3443  148.8
 7.600  0.6923   82.1   1.272   -4.7  0.2888   14.9  0.3462  147.0
 7.800  0.6974   79.7   1.245   -7.1  0.2948   13.0  0.3501  144.7
 8.000  0.7037   77.2   1.221   -9.7  0.3012   11.2  0.3546  142.5
 8.200  0.7089   74.6   1.189  -12.0  0.3053    9.0  0.3592  139.6
 8.400  0.7156   72.0   1.160  -14.5  0.3098    6.8  0.3647  136.9
 8.600  0.7244   69.5   1.129  -16.9  0.3126    4.7  0.3715  133.4
 8.800  0.7352   67.3   1.097  -19.2  0.3137    2.6  0.3805  129.4
 9.000  0.7470   65.1   1.066  -21.6  0.3153    0.5  0.3913  125.6
 9.200  0.7627   63.3   1.031  -23.4  0.3141   -1.1  0.4081  121.1
 9.400  0.7791   61.5   0.997  -25.4  0.3132   -2.7  0.4273  116.9
 9.600  0.7937   59.9   0.964  -27.1  0.3121   -4.0  0.4472  113.3
 9.800  0.8063   58.4   0.932  -28.5  0.3109   -5.0  0.4672  110.1
10.000  0.8195   57.0   0.900  -30.1  0.3097   -6.0  0.4885  107.2
!
!  f       NFmin   Gammaopt  rn/50
! GHz       dB    MAG  ANG    -
 0.450      2.02  0.36 -170   0.13
 0.900      2.06  0.34 -160   0.14
 1.900      2.16  0.44 -139   0.17
 3.500      1.86  0.70 -115   0.32
!
! (c) 2016  Infineon Technologies AG, Munich
