! Infineon Technologies  Discrete & RF Semiconductors
! BFP460
! VCE =  2.0 V,  IC =  50 mA
! Common Emitter S-Parameters:                            Jan 2016
# GHz  S  MA  R  50
!  f         S11            S21            S12            S22
! GHz     MAG   ANG      MAG   ANG      MAG   ANG      MAG   ANG
 0.030  0.3370  -31.1  65.685  168.4  0.0047   84.5  0.8851  -12.3
 0.035  0.3372  -35.9  65.110  166.3  0.0052   82.6  0.8797  -14.6
 0.040  0.3398  -40.6  64.626  164.1  0.0058   81.1  0.8757  -16.9
 0.045  0.3401  -44.9  63.848  161.9  0.0063   78.9  0.8677  -19.2
 0.050  0.3423  -49.1  63.168  159.6  0.0069   77.1  0.8611  -21.5
 0.055  0.3469  -53.0  62.457  157.9  0.0075   75.9  0.8519  -23.6
 0.060  0.3530  -56.8  61.805  156.1  0.0082   74.9  0.8439  -25.8
 0.065  0.3553  -61.2  61.052  154.2  0.0087   74.0  0.8332  -27.8
 0.070  0.3598  -65.6  60.367  152.3  0.0093   73.2  0.8235  -29.9
 0.075  0.3651  -69.2  59.471  150.8  0.0098   72.1  0.8119  -31.9
 0.080  0.3718  -72.6  58.618  149.2  0.0104   71.2  0.8013  -33.9
 0.085  0.3752  -76.2  57.624  147.5  0.0109   70.4  0.7888  -35.7
 0.090  0.3801  -79.7  56.680  145.8  0.0114   69.7  0.7772  -37.6
 0.095  0.3814  -82.3  55.655  144.4  0.0118   68.7  0.7650  -39.3
 0.100  0.3834  -84.8  54.664  143.0  0.0122   67.8  0.7535  -41.1
 0.105  0.3881  -87.6  53.799  141.6  0.0126   67.2  0.7410  -42.7
 0.110  0.3936  -90.3  52.966  140.2  0.0131   66.7  0.7291  -44.4
 0.115  0.3963  -93.0  51.996  138.9  0.0135   66.0  0.7169  -45.9
 0.120  0.3999  -95.6  51.055  137.5  0.0139   65.4  0.7053  -47.5
 0.125  0.4015  -98.0  50.148  136.3  0.0142   64.8  0.6931  -48.9
 0.130  0.4038 -100.4  49.263  135.1  0.0146   64.3  0.6813  -50.4
 0.135  0.4069 -102.5  48.403  134.0  0.0149   63.9  0.6697  -51.8
 0.140  0.4105 -104.6  47.563  132.8  0.0153   63.6  0.6585  -53.2
 0.145  0.4121 -106.8  46.649  131.7  0.0156   63.2  0.6473  -54.5
 0.150  0.4142 -108.9  45.752  130.6  0.0159   62.8  0.6364  -55.8
 0.155  0.4148 -110.5  44.980  129.9  0.0162   62.5  0.6259  -56.8
 0.160  0.4157 -112.1  44.215  129.1  0.0165   62.2  0.6156  -57.7
 0.165  0.4169 -113.7  43.458  128.3  0.0167   61.9  0.6055  -58.8
 0.170  0.4184 -115.3  42.710  127.5  0.0170   61.7  0.5956  -59.8
 0.175  0.4202 -116.8  41.972  126.6  0.0173   61.4  0.5859  -60.9
 0.180  0.4224 -118.4  41.242  125.7  0.0176   61.1  0.5764  -62.0
 0.185  0.4248 -119.9  40.523  124.8  0.0179   60.9  0.5672  -63.2
 0.190  0.4276 -121.4  39.815  123.9  0.0181   60.7  0.5582  -64.4
 0.195  0.4307 -122.9  39.117  122.9  0.0184   60.4  0.5494  -65.6
 0.200  0.4340 -124.4  38.432  121.9  0.0187   60.2  0.5409  -66.9
 0.220  0.4373 -129.0  36.086  119.6  0.0197   59.8  0.5102  -70.0
 0.240  0.4433 -133.4  33.807  117.0  0.0206   59.4  0.4812  -73.6
 0.260  0.4482 -137.2  31.799  114.6  0.0215   59.2  0.4558  -76.8
 0.280  0.4510 -140.5  30.026  112.7  0.0224   59.3  0.4332  -79.5
 0.300  0.4552 -143.7  28.290  110.6  0.0233   59.3  0.4116  -82.5
 0.320  0.4567 -146.3  26.889  109.2  0.0241   59.6  0.3940  -84.7
 0.340  0.4591 -148.9  25.506  107.6  0.0250   59.8  0.3769  -87.1
 0.360  0.4610 -151.2  24.269  106.1  0.0258   60.0  0.3619  -89.3
 0.380  0.4621 -153.3  23.170  104.9  0.0267   60.3  0.3486  -91.3
 0.400  0.4638 -155.3  22.082  103.5  0.0276   60.5  0.3357  -93.5
 0.420  0.4651 -157.1  21.182  102.5  0.0285   60.8  0.3249  -95.2
 0.440  0.4669 -158.8  20.289  101.4  0.0294   61.1  0.3144  -97.0
 0.450  0.4679 -159.7  19.846  100.8  0.0298   61.2  0.3093  -98.0
 0.460  0.4682 -160.4  19.479  100.4  0.0302   61.3  0.3050  -98.8
 0.480  0.4691 -161.9  18.749   99.5  0.0311   61.6  0.2965 -100.3
 0.500  0.4703 -163.3  18.023   98.6  0.0320   61.9  0.2883 -102.0
 0.520  0.4708 -164.5  17.450   97.9  0.0329   62.1  0.2818 -103.3
 0.540  0.4716 -165.8  16.880   97.2  0.0338   62.3  0.2754 -104.6
 0.560  0.4725 -167.0  16.312   96.4  0.0346   62.5  0.2691 -106.0
 0.580  0.4737 -168.2  15.748   95.5  0.0355   62.7  0.2631 -107.5
 0.600  0.4751 -169.4  15.188   94.6  0.0364   62.9  0.2572 -109.0
 0.620  0.4755 -170.4  14.770   94.0  0.0373   63.1  0.2527 -110.1
 0.640  0.4760 -171.3  14.354   93.4  0.0382   63.2  0.2483 -111.3
 0.660  0.4767 -172.3  13.939   92.8  0.0392   63.4  0.2440 -112.5
 0.680  0.4775 -173.2  13.526   92.1  0.0401   63.6  0.2399 -113.7
 0.700  0.4784 -174.2  13.115   91.4  0.0410   63.7  0.2358 -115.0
 0.720  0.4789 -175.0  12.798   90.9  0.0419   63.8  0.2326 -116.0
 0.740  0.4794 -175.9  12.482   90.4  0.0428   63.9  0.2295 -117.0
 0.760  0.4801 -176.7  12.166   89.8  0.0438   64.0  0.2265 -118.0
 0.780  0.4808 -177.6  11.853   89.2  0.0447   64.1  0.2236 -119.0
 0.800  0.4817 -178.4  11.540   88.6  0.0456   64.2  0.2207 -120.1
 0.820  0.4821 -179.1  11.292   88.1  0.0465   64.2  0.2185 -120.9
 0.840  0.4826 -179.8  11.044   87.7  0.0475   64.3  0.2163 -121.8
 0.860  0.4831  179.4  10.797   87.2  0.0484   64.3  0.2142 -122.7
 0.880  0.4837  178.7  10.551   86.6  0.0494   64.4  0.2121 -123.6
 0.900  0.4844  178.0  10.306   86.1  0.0503   64.4  0.2101 -124.5
 0.920  0.4847  177.3  10.105   85.7  0.0512   64.4  0.2084 -125.3
 0.940  0.4850  176.7   9.905   85.3  0.0522   64.4  0.2068 -126.1
 0.960  0.4855  176.0   9.705   84.8  0.0531   64.5  0.2052 -126.9
 0.980  0.4860  175.4   9.506   84.4  0.0541   64.5  0.2036 -127.7
 1.000  0.4865  174.7   9.307   83.9  0.0550   64.5  0.2021 -128.5
 1.020  0.4868  174.1   9.141   83.5  0.0559   64.5  0.2009 -129.2
 1.040  0.4872  173.5   8.975   83.1  0.0569   64.5  0.1998 -129.8
 1.060  0.4877  172.9   8.810   82.6  0.0578   64.4  0.1987 -130.5
 1.080  0.4882  172.3   8.646   82.2  0.0588   64.4  0.1976 -131.2
 1.100  0.4887  171.7   8.482   81.7  0.0597   64.4  0.1966 -131.9
 1.120  0.4890  171.1   8.343   81.3  0.0606   64.4  0.1957 -132.5
 1.140  0.4894  170.6   8.205   80.9  0.0616   64.3  0.1948 -133.2
 1.160  0.4898  170.0   8.067   80.5  0.0625   64.3  0.1939 -133.8
 1.180  0.4903  169.5   7.930   80.1  0.0635   64.2  0.1931 -134.4
 1.200  0.4908  168.9   7.793   79.7  0.0644   64.2  0.1923 -135.1
 1.220  0.4912  168.4   7.675   79.3  0.0654   64.1  0.1917 -135.6
 1.240  0.4917  167.8   7.557   78.9  0.0663   64.0  0.1912 -136.2
 1.260  0.4922  167.3   7.439   78.5  0.0673   64.0  0.1906 -136.7
 1.280  0.4927  166.7   7.322   78.1  0.0682   63.9  0.1901 -137.3
 1.300  0.4933  166.2   7.205   77.7  0.0692   63.8  0.1896 -137.8
 1.320  0.4937  165.7   7.104   77.3  0.0701   63.7  0.1891 -138.3
 1.340  0.4942  165.2   7.002   77.0  0.0711   63.6  0.1886 -138.9
 1.360  0.4947  164.8   6.902   76.6  0.0720   63.6  0.1881 -139.4
 1.380  0.4952  164.3   6.801   76.2  0.0730   63.5  0.1876 -140.0
 1.400  0.4958  163.8   6.701   75.8  0.0739   63.4  0.1872 -140.5
 1.420  0.4963  163.3   6.613   75.5  0.0749   63.3  0.1869 -141.0
 1.440  0.4968  162.8   6.526   75.1  0.0758   63.2  0.1867 -141.4
 1.460  0.4974  162.3   6.439   74.7  0.0768   63.1  0.1864 -141.9
 1.480  0.4980  161.8   6.352   74.4  0.0777   63.0  0.1862 -142.3
 1.500  0.4986  161.3   6.265   74.0  0.0787   62.9  0.1860 -142.8
 1.520  0.4991  160.8   6.187   73.7  0.0796   62.8  0.1858 -143.3
 1.540  0.4996  160.3   6.110   73.3  0.0805   62.7  0.1856 -143.7
 1.560  0.5002  159.8   6.032   73.0  0.0815   62.5  0.1854 -144.2
 1.580  0.5008  159.3   5.955   72.7  0.0824   62.4  0.1853 -144.6
 1.600  0.5015  158.8   5.878   72.3  0.0833   62.3  0.1851 -145.1
 1.620  0.5020  158.4   5.811   72.0  0.0842   62.2  0.1850 -145.5
 1.640  0.5026  158.0   5.743   71.6  0.0852   62.1  0.1849 -145.9
 1.660  0.5032  157.5   5.676   71.2  0.0861   61.9  0.1848 -146.4
 1.680  0.5038  157.1   5.610   70.9  0.0871   61.8  0.1848 -146.8
 1.700  0.5045  156.7   5.543   70.5  0.0880   61.7  0.1847 -147.2
 1.720  0.5050  156.3   5.481   70.2  0.0889   61.6  0.1847 -147.6
 1.740  0.5055  155.8   5.420   69.8  0.0899   61.4  0.1847 -148.0
 1.760  0.5060  155.4   5.359   69.5  0.0908   61.3  0.1847 -148.4
 1.780  0.5065  154.9   5.298   69.2  0.0918   61.1  0.1848 -148.8
 1.800  0.5071  154.5   5.237   68.8  0.0927   61.0  0.1848 -149.2
 1.820  0.5076  154.1   5.184   68.5  0.0936   60.9  0.1849 -149.6
 1.840  0.5082  153.6   5.130   68.1  0.0946   60.7  0.1850 -150.0
 1.860  0.5088  153.2   5.077   67.8  0.0955   60.6  0.1851 -150.5
 1.880  0.5094  152.7   5.025   67.5  0.0965   60.4  0.1852 -150.9
 1.900  0.5100  152.3   4.972   67.1  0.0974   60.3  0.1853 -151.3
 1.920  0.5106  151.9   4.923   66.8  0.0983   60.1  0.1854 -151.7
 1.940  0.5112  151.5   4.874   66.4  0.0992   60.0  0.1856 -152.1
 1.960  0.5118  151.0   4.825   66.1  0.1001   59.8  0.1858 -152.4
 1.980  0.5124  150.6   4.776   65.8  0.1010   59.7  0.1859 -152.8
 2.000  0.5131  150.2   4.728   65.4  0.1019   59.5  0.1861 -153.2
 2.020  0.5138  149.8   4.685   65.1  0.1028   59.3  0.1863 -153.6
 2.040  0.5144  149.4   4.641   64.8  0.1037   59.2  0.1866 -154.0
 2.060  0.5151  149.0   4.598   64.5  0.1047   59.0  0.1869 -154.4
 2.080  0.5159  148.6   4.555   64.2  0.1056   58.8  0.1871 -154.9
 2.100  0.5166  148.2   4.513   63.8  0.1065   58.7  0.1874 -155.3
 2.120  0.5174  147.8   4.470   63.5  0.1074   58.5  0.1877 -155.7
 2.140  0.5182  147.4   4.428   63.2  0.1083   58.4  0.1880 -156.1
 2.160  0.5191  147.0   4.385   62.8  0.1093   58.2  0.1883 -156.5
 2.180  0.5199  146.6   4.343   62.5  0.1102   58.0  0.1887 -156.9
 2.200  0.5208  146.2   4.301   62.1  0.1111   57.9  0.1890 -157.3
 2.220  0.5215  145.8   4.265   61.8  0.1120   57.7  0.1894 -157.7
 2.240  0.5223  145.4   4.229   61.5  0.1129   57.5  0.1898 -158.1
 2.260  0.5231  145.0   4.192   61.2  0.1137   57.4  0.1903 -158.5
 2.280  0.5239  144.6   4.157   60.8  0.1146   57.2  0.1907 -158.9
 2.300  0.5247  144.2   4.121   60.5  0.1155   57.0  0.1911 -159.3
 2.320  0.5255  143.8   4.085   60.2  0.1164   56.8  0.1916 -159.7
 2.340  0.5264  143.5   4.050   59.9  0.1172   56.7  0.1921 -160.1
 2.360  0.5273  143.1   4.014   59.5  0.1181   56.5  0.1925 -160.5
 2.380  0.5283  142.7   3.979   59.2  0.1190   56.4  0.1930 -160.9
 2.400  0.5292  142.3   3.944   58.8  0.1199   56.2  0.1935 -161.3
 2.420  0.5300  141.9   3.913   58.5  0.1208   56.0  0.1941 -161.7
 2.440  0.5309  141.5   3.882   58.2  0.1216   55.8  0.1947 -162.1
 2.460  0.5318  141.2   3.851   57.9  0.1225   55.6  0.1953 -162.5
 2.480  0.5327  140.8   3.820   57.6  0.1234   55.4  0.1959 -162.9
 2.500  0.5336  140.4   3.790   57.3  0.1242   55.3  0.1966 -163.3
 2.520  0.5346  140.1   3.759   56.9  0.1251   55.1  0.1972 -163.7
 2.540  0.5355  139.7   3.729   56.6  0.1260   54.9  0.1979 -164.1
 2.560  0.5365  139.3   3.698   56.3  0.1269   54.7  0.1985 -164.5
 2.580  0.5376  139.0   3.668   55.9  0.1277   54.6  0.1992 -164.9
 2.600  0.5386  138.6   3.638   55.6  0.1286   54.4  0.1999 -165.3
 2.620  0.5393  138.2   3.611   55.3  0.1294   54.2  0.2006 -165.7
 2.640  0.5401  137.9   3.585   55.0  0.1303   54.0  0.2014 -166.1
 2.660  0.5408  137.5   3.558   54.7  0.1311   53.8  0.2021 -166.4
 2.680  0.5416  137.1   3.532   54.4  0.1319   53.6  0.2029 -166.8
 2.700  0.5424  136.8   3.505   54.1  0.1328   53.4  0.2036 -167.2
 2.720  0.5433  136.4   3.479   53.8  0.1336   53.2  0.2044 -167.6
 2.740  0.5441  136.1   3.453   53.5  0.1345   53.0  0.2052 -167.9
 2.760  0.5450  135.7   3.427   53.2  0.1353   52.9  0.2060 -168.3
 2.780  0.5459  135.4   3.401   52.8  0.1362   52.7  0.2068 -168.6
 2.800  0.5468  135.0   3.375   52.5  0.1370   52.5  0.2076 -169.0
 2.820  0.5477  134.7   3.352   52.2  0.1378   52.3  0.2084 -169.4
 2.840  0.5485  134.4   3.328   51.9  0.1386   52.1  0.2093 -169.7
 2.860  0.5494  134.0   3.305   51.6  0.1394   51.9  0.2101 -170.0
 2.880  0.5504  133.7   3.282   51.4  0.1403   51.8  0.2110 -170.4
 2.900  0.5513  133.4   3.259   51.1  0.1411   51.6  0.2118 -170.7
 2.920  0.5522  133.1   3.236   50.8  0.1419   51.4  0.2127 -171.1
 2.940  0.5532  132.7   3.213   50.4  0.1427   51.2  0.2135 -171.4
 2.960  0.5542  132.4   3.190   50.1  0.1435   51.0  0.2144 -171.7
 2.980  0.5552  132.1   3.168   49.8  0.1444   50.9  0.2153 -172.1
 3.000  0.5562  131.8   3.145   49.5  0.1452   50.7  0.2162 -172.4
 3.100  0.5602  130.1   3.049   48.2  0.1490   49.7  0.2204 -174.0
 3.200  0.5647  128.5   2.955   46.9  0.1528   48.7  0.2248 -175.6
 3.300  0.5696  126.9   2.862   45.5  0.1567   47.8  0.2293 -177.1
 3.400  0.5749  125.3   2.772   43.9  0.1606   46.9  0.2340 -178.6
 3.500  0.5807  123.8   2.683   42.3  0.1646   46.1  0.2388  180.0
 3.600  0.5857  122.3   2.609   41.1  0.1680   45.1  0.2437  178.2
 3.700  0.5911  120.9   2.537   39.8  0.1714   44.2  0.2488  176.6
 3.800  0.5969  119.5   2.466   38.4  0.1749   43.3  0.2541  174.9
 3.900  0.6030  118.1   2.397   36.9  0.1784   42.4  0.2596  173.4
 4.000  0.6095  116.8   2.329   35.4  0.1819   41.6  0.2653  171.9
 4.100  0.6147  115.6   2.271   34.2  0.1849   40.7  0.2713  170.3
 4.200  0.6202  114.3   2.214   33.0  0.1880   39.9  0.2775  168.8
 4.300  0.6259  113.1   2.158   31.8  0.1911   39.1  0.2839  167.4
 4.400  0.6319  112.0   2.104   30.4  0.1942   38.3  0.2905  166.0
 4.500  0.6382  110.8   2.050   29.0  0.1974   37.5  0.2972  164.7
 4.600  0.6420  109.7   2.005   27.9  0.2004   36.7  0.3019  163.6
 4.700  0.6461  108.6   1.961   26.8  0.2033   36.0  0.3068  162.5
 4.800  0.6504  107.6   1.918   25.7  0.2064   35.3  0.3117  161.5
 4.900  0.6549  106.5   1.876   24.5  0.2094   34.6  0.3168  160.5
 5.000  0.6596  105.5   1.834   23.2  0.2125   33.9  0.3219  159.5
 5.100  0.6622  104.6   1.799   22.2  0.2157   33.1  0.3249  158.6
 5.200  0.6649  103.6   1.765   21.2  0.2190   32.3  0.3281  157.8
 5.300  0.6678  102.7   1.732   20.1  0.2223   31.6  0.3312  157.0
 5.400  0.6709  101.8   1.699   19.0  0.2256   30.8  0.3345  156.2
 5.500  0.6741  100.9   1.667   17.8  0.2290   30.1  0.3378  155.4
 5.600  0.6760  100.1   1.640   16.8  0.2319   29.2  0.3413  154.6
 5.700  0.6781   99.3   1.613   15.7  0.2349   28.4  0.3448  153.8
 5.800  0.6803   98.5   1.587   14.6  0.2380   27.6  0.3484  153.1
 5.900  0.6826   97.7   1.561   13.5  0.2411   26.8  0.3521  152.3
 6.000  0.6851   96.9   1.536   12.3  0.2442   26.0  0.3558  151.6
 6.100  0.6855   96.1   1.513   11.3  0.2468   25.2  0.3581  151.1
 6.200  0.6859   95.4   1.490   10.4  0.2494   24.5  0.3604  150.6
 6.300  0.6865   94.6   1.467    9.3  0.2521   23.7  0.3627  150.1
 6.400  0.6873   93.9   1.445    8.3  0.2548   23.0  0.3650  149.7
 6.500  0.6881   93.1   1.424    7.2  0.2575   22.3  0.3674  149.2
 6.600  0.6875   92.2   1.406    6.2  0.2605   21.6  0.3668  148.8
 6.800  0.6867   90.3   1.372    4.3  0.2666   20.2  0.3658  148.0
 7.000  0.6867   88.5   1.339    2.2  0.2729   18.8  0.3648  147.2
 7.200  0.6881   86.3   1.311    0.1  0.2794   17.1  0.3643  145.7
 7.400  0.6905   84.2   1.285   -2.1  0.2861   15.4  0.3640  144.2
 7.600  0.6942   81.8   1.259   -4.4  0.2925   13.6  0.3656  142.4
 7.800  0.6995   79.3   1.234   -6.8  0.2985   11.7  0.3695  140.2
 8.000  0.7060   76.9   1.210   -9.3  0.3048    9.8  0.3739  138.0
 8.200  0.7111   74.3   1.178  -11.6  0.3087    7.6  0.3784  135.2
 8.400  0.7177   71.8   1.149  -14.1  0.3130    5.5  0.3839  132.4
 8.600  0.7262   69.3   1.119  -16.5  0.3156    3.3  0.3909  129.1
 8.800  0.7366   67.1   1.087  -18.8  0.3164    1.2  0.4002  125.3
 9.000  0.7480   64.9   1.057  -21.2  0.3177   -0.9  0.4112  121.6
 9.200  0.7637   63.0   1.022  -23.0  0.3163   -2.5  0.4282  117.3
 9.400  0.7803   61.3   0.988  -25.0  0.3151   -4.1  0.4475  113.3
 9.600  0.7948   59.7   0.956  -26.7  0.3138   -5.4  0.4671  109.9
 9.800  0.8071   58.2   0.924  -28.1  0.3123   -6.3  0.4866  106.9
10.000  0.8200   56.8   0.893  -29.6  0.3108   -7.3  0.5074  104.1
!
!  f       NFmin   Gammaopt  rn/50
! GHz       dB    MAG  ANG    -
 0.450      1.86  0.32 -170   0.13
 0.900      1.89  0.29 -162   0.14
 1.900      1.98  0.40 -140   0.16
 3.500      1.78  0.62 -116   0.27
!
! (c) 2016  Infineon Technologies AG, Munich
