! Infineon Technologies  Discrete & RF Semiconductors
! BFP460
! VCE =  3.0 V,  IC =  25 mA
! Common Emitter S-Parameters:                            Jan 2016
# GHz  S  MA  R  50
!  f         S11            S21            S12            S22
! GHz     MAG   ANG      MAG   ANG      MAG   ANG      MAG   ANG
 0.030  0.5541  -16.3  50.974  170.3  0.0048   85.2  0.9433   -9.8
 0.035  0.5516  -19.0  50.666  168.7  0.0055   83.2  0.9398  -11.4
 0.040  0.5504  -21.7  50.398  167.1  0.0063   81.6  0.9370  -13.1
 0.045  0.5462  -24.4  49.940  165.6  0.0070   81.1  0.9317  -14.5
 0.050  0.5433  -27.1  49.519  164.0  0.0078   80.7  0.9269  -16.0
 0.055  0.5424  -29.7  49.173  162.7  0.0085   78.7  0.9209  -17.6
 0.060  0.5427  -32.3  48.854  161.3  0.0093   77.1  0.9157  -19.3
 0.065  0.5416  -35.0  48.568  159.8  0.0100   76.2  0.9086  -20.8
 0.070  0.5418  -37.8  48.315  158.3  0.0107   75.4  0.9022  -22.4
 0.075  0.5414  -40.2  47.849  157.1  0.0114   74.9  0.8946  -23.9
 0.080  0.5419  -42.5  47.404  155.9  0.0121   74.4  0.8876  -25.4
 0.085  0.5392  -45.0  46.904  154.6  0.0126   73.5  0.8787  -26.8
 0.090  0.5376  -47.6  46.430  153.2  0.0132   72.6  0.8704  -28.3
 0.095  0.5349  -49.7  45.844  152.0  0.0138   71.5  0.8617  -29.7
 0.100  0.5330  -51.9  45.279  150.8  0.0145   70.5  0.8535  -31.1
 0.105  0.5327  -54.0  44.836  149.6  0.0151   69.8  0.8441  -32.4
 0.110  0.5332  -56.1  44.412  148.4  0.0157   69.1  0.8352  -33.8
 0.115  0.5299  -58.5  43.887  147.2  0.0162   68.4  0.8259  -35.1
 0.120  0.5276  -60.9  43.383  145.9  0.0168   67.8  0.8171  -36.4
 0.125  0.5248  -62.8  42.856  144.9  0.0172   67.1  0.8075  -37.6
 0.130  0.5226  -64.7  42.343  143.8  0.0177   66.4  0.7983  -38.9
 0.135  0.5201  -66.8  41.848  142.7  0.0182   65.9  0.7888  -40.1
 0.140  0.5182  -68.9  41.369  141.6  0.0187   65.5  0.7797  -41.3
 0.145  0.5155  -70.8  40.785  140.6  0.0191   64.9  0.7702  -42.4
 0.150  0.5134  -72.7  40.214  139.5  0.0196   64.4  0.7610  -43.6
 0.155  0.5099  -74.3  39.693  138.7  0.0200   63.9  0.7512  -44.5
 0.160  0.5068  -76.0  39.179  137.9  0.0204   63.3  0.7416  -45.4
 0.165  0.5041  -77.6  38.672  137.1  0.0208   62.8  0.7323  -46.3
 0.170  0.5019  -79.3  38.174  136.3  0.0211   62.4  0.7231  -47.3
 0.175  0.5001  -81.0  37.684  135.4  0.0215   61.9  0.7141  -48.3
 0.180  0.4987  -82.7  37.203  134.5  0.0219   61.4  0.7053  -49.3
 0.185  0.4978  -84.4  36.730  133.6  0.0223   61.0  0.6968  -50.3
 0.190  0.4973  -86.2  36.267  132.7  0.0227   60.6  0.6885  -51.4
 0.195  0.4973  -87.9  35.814  131.8  0.0231   60.2  0.6804  -52.5
 0.200  0.4977  -89.6  35.371  130.8  0.0235   59.8  0.6726  -53.6
 0.220  0.4893  -95.0  33.602  128.2  0.0247   58.6  0.6405  -56.6
 0.240  0.4854 -100.5  31.908  125.3  0.0260   57.6  0.6104  -59.9
 0.260  0.4821 -105.4  30.358  122.8  0.0271   56.7  0.5827  -62.9
 0.280  0.4779 -109.7  28.916  120.7  0.0281   56.0  0.5568  -65.5
 0.300  0.4765 -114.1  27.519  118.3  0.0291   55.4  0.5321  -68.4
 0.320  0.4724 -117.7  26.305  116.6  0.0300   55.0  0.5105  -70.5
 0.340  0.4702 -121.4  25.116  114.7  0.0309   54.7  0.4896  -72.9
 0.360  0.4682 -124.8  24.035  113.0  0.0318   54.4  0.4707  -75.0
 0.380  0.4658 -127.7  23.052  111.5  0.0327   54.3  0.4535  -76.9
 0.400  0.4646 -130.7  22.085  109.9  0.0335   54.2  0.4368  -79.0
 0.420  0.4625 -133.3  21.252  108.7  0.0343   54.2  0.4223  -80.6
 0.440  0.4614 -135.9  20.428  107.5  0.0351   54.2  0.4082  -82.3
 0.450  0.4612 -137.2  20.020  106.8  0.0355   54.2  0.4013  -83.2
 0.460  0.4603 -138.3  19.672  106.3  0.0359   54.2  0.3953  -83.9
 0.480  0.4589 -140.4  18.980  105.2  0.0367   54.3  0.3834  -85.5
 0.500  0.4582 -142.6  18.295  104.1  0.0375   54.4  0.3718  -87.1
 0.520  0.4568 -144.4  17.740  103.3  0.0383   54.5  0.3623  -88.3
 0.540  0.4558 -146.2  17.188  102.4  0.0391   54.7  0.3530  -89.5
 0.560  0.4553 -148.0  16.641  101.5  0.0398   54.8  0.3438  -90.8
 0.580  0.4552 -149.8  16.098  100.5  0.0406   54.9  0.3349  -92.2
 0.600  0.4556 -151.6  15.561   99.4  0.0414   55.0  0.3261  -93.6
 0.620  0.4549 -153.0  15.146   98.7  0.0422   55.2  0.3193  -94.7
 0.640  0.4546 -154.5  14.733   98.0  0.0430   55.3  0.3126  -95.8
 0.660  0.4545 -155.9  14.323   97.3  0.0438   55.4  0.3060  -96.9
 0.680  0.4547 -157.4  13.916   96.4  0.0446   55.6  0.2995  -98.1
 0.700  0.4552 -158.8  13.511   95.6  0.0454   55.7  0.2932  -99.4
 0.720  0.4548 -160.0  13.192   95.0  0.0462   55.8  0.2881 -100.3
 0.740  0.4545 -161.2  12.875   94.4  0.0470   56.0  0.2832 -101.3
 0.760  0.4545 -162.4  12.559   93.7  0.0479   56.1  0.2783 -102.2
 0.780  0.4546 -163.6  12.245   93.0  0.0487   56.2  0.2734 -103.3
 0.800  0.4550 -164.8  11.933   92.3  0.0495   56.3  0.2687 -104.3
 0.820  0.4549 -165.8  11.682   91.8  0.0503   56.4  0.2649 -105.1
 0.840  0.4550 -166.8  11.432   91.3  0.0511   56.6  0.2611 -106.0
 0.860  0.4552 -167.8  11.183   90.7  0.0520   56.7  0.2574 -106.9
 0.880  0.4556 -168.8  10.935   90.1  0.0528   56.8  0.2538 -107.8
 0.900  0.4561 -169.8  10.688   89.5  0.0536   56.9  0.2502 -108.7
 0.920  0.4560 -170.7  10.483   89.0  0.0544   57.0  0.2472 -109.5
 0.940  0.4559 -171.6  10.278   88.5  0.0552   57.1  0.2443 -110.2
 0.960  0.4560 -172.5  10.075   88.0  0.0561   57.1  0.2415 -111.0
 0.980  0.4562 -173.4   9.872   87.5  0.0569   57.2  0.2387 -111.9
 1.000  0.4565 -174.3   9.670   86.9  0.0577   57.3  0.2359 -112.7
 1.020  0.4567 -175.1   9.500   86.5  0.0586   57.3  0.2337 -113.4
 1.040  0.4569 -175.9   9.331   86.0  0.0594   57.4  0.2315 -114.1
 1.060  0.4573 -176.8   9.162   85.6  0.0603   57.4  0.2293 -114.8
 1.080  0.4578 -177.6   8.994   85.1  0.0611   57.5  0.2272 -115.6
 1.100  0.4583 -178.4   8.827   84.6  0.0620   57.5  0.2251 -116.3
 1.120  0.4584 -179.1   8.684   84.2  0.0629   57.5  0.2233 -117.0
 1.140  0.4586 -179.8   8.541   83.7  0.0637   57.5  0.2215 -117.6
 1.160  0.4589  179.4   8.399   83.3  0.0646   57.6  0.2197 -118.3
 1.180  0.4593  178.7   8.257   82.8  0.0654   57.6  0.2180 -119.0
 1.200  0.4597  178.0   8.116   82.3  0.0663   57.6  0.2163 -119.7
 1.220  0.4600  177.3   7.994   81.9  0.0672   57.6  0.2150 -120.3
 1.240  0.4604  176.6   7.873   81.5  0.0680   57.6  0.2136 -120.9
 1.260  0.4609  176.0   7.752   81.1  0.0689   57.7  0.2123 -121.5
 1.280  0.4614  175.3   7.632   80.6  0.0697   57.7  0.2111 -122.1
 1.300  0.4620  174.6   7.512   80.2  0.0706   57.7  0.2098 -122.7
 1.320  0.4624  174.0   7.408   79.8  0.0715   57.7  0.2086 -123.3
 1.340  0.4628  173.4   7.303   79.4  0.0723   57.7  0.2074 -123.8
 1.360  0.4632  172.7   7.200   79.0  0.0732   57.6  0.2063 -124.4
 1.380  0.4637  172.1   7.096   78.6  0.0740   57.6  0.2051 -125.0
 1.400  0.4643  171.5   6.993   78.2  0.0749   57.6  0.2040 -125.6
 1.420  0.4646  170.9   6.901   77.8  0.0758   57.5  0.2032 -126.1
 1.440  0.4649  170.3   6.810   77.4  0.0767   57.5  0.2024 -126.7
 1.460  0.4653  169.6   6.719   77.0  0.0775   57.4  0.2016 -127.2
 1.480  0.4658  169.0   6.628   76.6  0.0784   57.4  0.2008 -127.8
 1.500  0.4663  168.4   6.538   76.2  0.0793   57.3  0.2001 -128.3
 1.520  0.4668  167.8   6.458   75.9  0.0802   57.3  0.1994 -128.8
 1.540  0.4674  167.3   6.378   75.5  0.0810   57.2  0.1987 -129.3
 1.560  0.4680  166.7   6.298   75.1  0.0819   57.2  0.1980 -129.8
 1.580  0.4686  166.2   6.219   74.8  0.0827   57.1  0.1973 -130.4
 1.600  0.4693  165.6   6.140   74.4  0.0836   57.1  0.1966 -130.9
 1.620  0.4695  165.1   6.070   74.0  0.0845   57.0  0.1961 -131.4
 1.640  0.4698  164.6   6.000   73.7  0.0854   56.9  0.1955 -131.9
 1.660  0.4701  164.0   5.931   73.3  0.0862   56.9  0.1950 -132.3
 1.680  0.4704  163.5   5.862   72.9  0.0871   56.8  0.1945 -132.8
 1.700  0.4708  163.0   5.793   72.5  0.0880   56.7  0.1940 -133.3
 1.720  0.4713  162.5   5.729   72.2  0.0889   56.6  0.1936 -133.8
 1.740  0.4719  161.9   5.666   71.8  0.0898   56.5  0.1933 -134.3
 1.760  0.4725  161.4   5.603   71.5  0.0906   56.5  0.1929 -134.7
 1.780  0.4731  160.8   5.540   71.2  0.0915   56.4  0.1926 -135.2
 1.800  0.4738  160.3   5.477   70.8  0.0924   56.3  0.1923 -135.7
 1.820  0.4744  159.8   5.421   70.5  0.0933   56.2  0.1920 -136.2
 1.840  0.4750  159.3   5.366   70.1  0.0941   56.1  0.1917 -136.7
 1.860  0.4757  158.8   5.310   69.7  0.0950   56.0  0.1914 -137.1
 1.880  0.4764  158.3   5.255   69.4  0.0958   55.9  0.1911 -137.6
 1.900  0.4771  157.8   5.200   69.0  0.0967   55.8  0.1908 -138.1
 1.920  0.4776  157.3   5.149   68.7  0.0976   55.7  0.1906 -138.6
 1.940  0.4781  156.8   5.098   68.3  0.0985   55.6  0.1904 -139.0
 1.960  0.4786  156.3   5.048   67.9  0.0993   55.5  0.1903 -139.5
 1.980  0.4792  155.8   4.997   67.6  0.1002   55.4  0.1901 -139.9
 2.000  0.4798  155.3   4.947   67.2  0.1011   55.3  0.1900 -140.4
 2.020  0.4806  154.8   4.902   66.9  0.1020   55.2  0.1899 -140.9
 2.040  0.4813  154.4   4.857   66.6  0.1028   55.0  0.1899 -141.3
 2.060  0.4822  153.9   4.811   66.2  0.1037   54.9  0.1898 -141.8
 2.080  0.4830  153.4   4.767   65.9  0.1045   54.8  0.1898 -142.3
 2.100  0.4839  153.0   4.722   65.6  0.1054   54.6  0.1898 -142.7
 2.120  0.4848  152.5   4.677   65.2  0.1063   54.5  0.1898 -143.2
 2.140  0.4858  152.1   4.633   64.9  0.1071   54.4  0.1898 -143.7
 2.160  0.4868  151.6   4.589   64.5  0.1080   54.2  0.1898 -144.2
 2.180  0.4878  151.2   4.545   64.2  0.1088   54.1  0.1899 -144.6
 2.200  0.4888  150.7   4.501   63.8  0.1097   54.0  0.1899 -145.1
 2.220  0.4895  150.3   4.463   63.5  0.1105   53.9  0.1900 -145.6
 2.240  0.4902  149.8   4.426   63.2  0.1114   53.7  0.1901 -146.1
 2.260  0.4909  149.4   4.389   62.8  0.1122   53.6  0.1902 -146.5
 2.280  0.4916  149.0   4.352   62.5  0.1131   53.5  0.1904 -147.0
 2.300  0.4924  148.5   4.315   62.2  0.1139   53.3  0.1905 -147.5
 2.320  0.4932  148.1   4.278   61.8  0.1147   53.2  0.1907 -148.0
 2.340  0.4940  147.7   4.241   61.5  0.1156   53.1  0.1909 -148.5
 2.360  0.4949  147.2   4.205   61.1  0.1164   52.9  0.1911 -148.9
 2.380  0.4958  146.8   4.168   60.8  0.1173   52.8  0.1913 -149.4
 2.400  0.4967  146.4   4.132   60.4  0.1181   52.7  0.1915 -149.9
 2.420  0.4976  146.0   4.100   60.1  0.1189   52.6  0.1918 -150.4
 2.440  0.4986  145.6   4.067   59.8  0.1198   52.4  0.1922 -150.9
 2.460  0.4996  145.2   4.035   59.5  0.1206   52.3  0.1926 -151.3
 2.480  0.5006  144.7   4.003   59.2  0.1214   52.1  0.1929 -151.8
 2.500  0.5016  144.3   3.971   58.9  0.1222   52.0  0.1933 -152.3
 2.520  0.5027  143.9   3.940   58.5  0.1231   51.8  0.1937 -152.7
 2.540  0.5038  143.5   3.908   58.2  0.1239   51.7  0.1942 -153.2
 2.560  0.5049  143.1   3.877   57.9  0.1247   51.6  0.1946 -153.7
 2.580  0.5060  142.7   3.845   57.5  0.1256   51.4  0.1950 -154.1
 2.600  0.5072  142.3   3.814   57.2  0.1264   51.3  0.1955 -154.6
 2.620  0.5079  141.9   3.786   56.9  0.1272   51.1  0.1960 -155.1
 2.640  0.5087  141.5   3.758   56.6  0.1280   51.0  0.1966 -155.5
 2.660  0.5095  141.1   3.731   56.3  0.1288   50.8  0.1971 -156.0
 2.680  0.5103  140.8   3.703   56.0  0.1296   50.6  0.1977 -156.4
 2.700  0.5112  140.4   3.676   55.7  0.1304   50.5  0.1982 -156.9
 2.720  0.5120  140.0   3.648   55.4  0.1312   50.3  0.1988 -157.3
 2.740  0.5129  139.6   3.621   55.1  0.1320   50.2  0.1994 -157.8
 2.760  0.5138  139.2   3.594   54.8  0.1328   50.0  0.2000 -158.2
 2.780  0.5147  138.9   3.567   54.4  0.1336   49.9  0.2007 -158.7
 2.800  0.5157  138.5   3.540   54.1  0.1344   49.7  0.2013 -159.1
 2.820  0.5167  138.1   3.516   53.8  0.1352   49.5  0.2019 -159.5
 2.840  0.5176  137.8   3.491   53.5  0.1360   49.4  0.2026 -160.0
 2.860  0.5186  137.4   3.467   53.2  0.1368   49.2  0.2032 -160.4
 2.880  0.5197  137.0   3.443   52.9  0.1375   49.1  0.2038 -160.8
 2.900  0.5207  136.7   3.419   52.6  0.1383   48.9  0.2045 -161.2
 2.920  0.5218  136.3   3.395   52.3  0.1391   48.8  0.2052 -161.7
 2.940  0.5228  136.0   3.371   52.0  0.1399   48.6  0.2059 -162.1
 2.960  0.5239  135.6   3.347   51.7  0.1407   48.5  0.2066 -162.5
 2.980  0.5251  135.3   3.324   51.3  0.1415   48.3  0.2073 -162.9
 3.000  0.5262  134.9   3.300   51.0  0.1423   48.2  0.2080 -163.3
 3.100  0.5304  133.1   3.200   49.7  0.1460   47.3  0.2115 -165.3
 3.200  0.5352  131.4   3.101   48.3  0.1497   46.4  0.2152 -167.1
 3.300  0.5404  129.6   3.004   46.8  0.1534   45.6  0.2192 -169.0
 3.400  0.5461  128.0   2.909   45.3  0.1572   44.8  0.2233 -170.7
 3.500  0.5523  126.3   2.817   43.6  0.1610   44.0  0.2277 -172.4
 3.600  0.5576  124.8   2.740   42.4  0.1643   43.1  0.2319 -174.4
 3.700  0.5633  123.2   2.665   41.0  0.1676   42.3  0.2365 -176.3
 3.800  0.5694  121.8   2.591   39.6  0.1710   41.4  0.2412 -178.2
 3.900  0.5759  120.3   2.519   38.2  0.1744   40.7  0.2463 -180.0
 4.000  0.5827  118.9   2.448   36.6  0.1778   39.9  0.2515  178.3
 4.100  0.5883  117.6   2.387   35.4  0.1808   39.1  0.2570  176.5
 4.200  0.5941  116.3   2.328   34.2  0.1837   38.3  0.2628  174.8
 4.300  0.6002  115.1   2.269   32.9  0.1868   37.5  0.2689  173.2
 4.400  0.6066  113.9   2.212   31.5  0.1898   36.8  0.2751  171.6
 4.500  0.6133  112.7   2.156   30.1  0.1929   36.1  0.2815  170.1
 4.600  0.6174  111.5   2.109   29.0  0.1958   35.4  0.2861  168.8
 4.700  0.6217  110.4   2.062   27.9  0.1987   34.7  0.2908  167.6
 4.800  0.6262  109.2   2.016   26.7  0.2017   34.1  0.2956  166.4
 4.900  0.6311  108.1   1.972   25.4  0.2047   33.4  0.3005  165.3
 5.000  0.6361  107.0   1.928   24.1  0.2077   32.8  0.3056  164.2
 5.100  0.6390  106.0   1.892   23.1  0.2109   32.0  0.3086  163.3
 5.200  0.6420  105.1   1.856   22.1  0.2140   31.3  0.3117  162.3
 5.300  0.6452  104.2   1.820   21.0  0.2173   30.6  0.3149  161.4
 5.400  0.6486  103.2   1.786   19.9  0.2205   29.9  0.3182  160.6
 5.500  0.6521  102.3   1.752   18.7  0.2238   29.2  0.3215  159.7
 5.600  0.6544  101.5   1.723   17.7  0.2267   28.4  0.3251  158.9
 5.700  0.6568  100.7   1.694   16.6  0.2297   27.6  0.3287  158.0
 5.800  0.6594   99.9   1.667   15.5  0.2327   26.8  0.3324  157.2
 5.900  0.6621   99.1   1.639   14.3  0.2357   26.0  0.3362  156.5
 6.000  0.6649   98.3   1.613   13.1  0.2388   25.3  0.3400  155.7
 6.100  0.6653   97.5   1.588   12.1  0.2413   24.5  0.3424  155.2
 6.200  0.6658   96.7   1.564   11.1  0.2439   23.8  0.3449  154.6
 6.300  0.6664   95.9   1.540   10.1  0.2465   23.1  0.3474  154.1
 6.400  0.6671   95.1   1.517    9.0  0.2492   22.4  0.3499  153.6
 6.500  0.6680   94.3   1.494    7.9  0.2519   21.7  0.3524  153.1
 6.600  0.6675   93.4   1.475    6.9  0.2548   21.0  0.3520  152.7
 6.800  0.6670   91.5   1.438    5.0  0.2609   19.7  0.3512  152.0
 7.000  0.6672   89.7   1.403    2.9  0.2670   18.4  0.3505  151.2
 7.200  0.6689   87.5   1.374    0.8  0.2734   16.7  0.3500  149.7
 7.400  0.6715   85.3   1.347   -1.5  0.2800   15.2  0.3497  148.2
 7.600  0.6753   82.9   1.319   -3.8  0.2863   13.4  0.3514  146.3
 7.800  0.6806   80.4   1.292   -6.2  0.2924   11.6  0.3552  144.0
 8.000  0.6871   78.0   1.267   -8.7  0.2987    9.8  0.3595  141.8
 8.200  0.6930   75.4   1.234  -11.1  0.3027    7.6  0.3640  138.9
 8.400  0.7003   72.8   1.203  -13.6  0.3072    5.5  0.3693  136.2
 8.600  0.7097   70.3   1.172  -16.0  0.3100    3.5  0.3761  132.7
 8.800  0.7211   68.0   1.139  -18.3  0.3111    1.4  0.3851  128.7
 9.000  0.7336   65.8   1.108  -20.7  0.3126   -0.7  0.3959  124.9
 9.200  0.7500   64.0   1.072  -22.6  0.3115   -2.3  0.4127  120.4
 9.400  0.7672   62.2   1.037  -24.6  0.3106   -3.9  0.4319  116.2
 9.600  0.7822   60.6   1.003  -26.3  0.3095   -5.2  0.4517  112.6
 9.800  0.7950   59.1   0.969  -27.7  0.3083   -6.1  0.4715  109.5
10.000  0.8084   57.7   0.935  -29.3  0.3071   -7.1  0.4926  106.6
!
!  f       NFmin   Gammaopt  rn/50
! GHz       dB    MAG  ANG    -
 0.450      1.36  0.13 -171   0.13
 0.900      1.38  0.11 -170   0.13
 1.900      1.49  0.23 -146   0.13
 3.500      1.42  0.46 -122   0.16
!
! (c) 2016  Infineon Technologies AG, Munich
