! Infineon Technologies  Discrete & RF Semiconductors
! BFP460
! VCE =  1.5 V,  IC =  3.0 mA
! Common Emitter S-Parameters:                            Jan 2016
# GHz  S  MA  R  50
!  f         S11            S21            S12            S22
! GHz     MAG   ANG      MAG   ANG      MAG   ANG      MAG   ANG
 0.030  0.9187   -4.4  10.358  177.3  0.0068   87.3  0.9903   -2.9
 0.035  0.9172   -5.1  10.353  176.6  0.0078   86.6  0.9898   -3.4
 0.040  0.9158   -5.9  10.350  175.9  0.0089   86.1  0.9894   -3.9
 0.045  0.9169   -6.7  10.326  175.1  0.0100   86.0  0.9888   -4.3
 0.050  0.9182   -7.4  10.305  174.3  0.0112   86.0  0.9882   -4.8
 0.055  0.9160   -8.2  10.302  173.9  0.0123   85.5  0.9876   -5.2
 0.060  0.9140   -9.0  10.299  173.5  0.0135   85.1  0.9871   -5.7
 0.065  0.9133   -9.7  10.334  172.9  0.0145   84.5  0.9865   -6.2
 0.070  0.9128  -10.5  10.371  172.3  0.0156   83.9  0.9860   -6.7
 0.075  0.9133  -11.2  10.345  172.0  0.0167   83.5  0.9852   -7.2
 0.080  0.9139  -11.8  10.320  171.7  0.0178   83.2  0.9845   -7.7
 0.085  0.9132  -12.5  10.319  171.2  0.0189   82.7  0.9834   -8.1
 0.090  0.9126  -13.3  10.318  170.6  0.0201   82.2  0.9823   -8.6
 0.095  0.9117  -14.0  10.281  170.1  0.0212   81.8  0.9814   -9.1
 0.100  0.9109  -14.8  10.244  169.6  0.0223   81.5  0.9805   -9.6
 0.105  0.9111  -15.6  10.243  169.2  0.0233   81.1  0.9793  -10.0
 0.110  0.9115  -16.3  10.242  168.7  0.0244   80.7  0.9782  -10.5
 0.115  0.9087  -17.0  10.246  168.1  0.0255   80.2  0.9770  -10.9
 0.120  0.9060  -17.8  10.251  167.6  0.0267   79.8  0.9758  -11.4
 0.125  0.9059  -18.5  10.230  167.2  0.0277   79.2  0.9744  -11.9
 0.130  0.9060  -19.2  10.210  166.7  0.0288   78.7  0.9731  -12.4
 0.135  0.9044  -19.9  10.207  166.1  0.0298   78.4  0.9717  -12.8
 0.140  0.9030  -20.6  10.205  165.5  0.0309   78.1  0.9704  -13.3
 0.145  0.9015  -21.3  10.175  165.0  0.0319   77.7  0.9689  -13.7
 0.150  0.9002  -22.1  10.146  164.4  0.0329   77.3  0.9674  -14.2
 0.155  0.8984  -22.8  10.126  163.9  0.0339   76.8  0.9654  -14.7
 0.160  0.8967  -23.5  10.107  163.5  0.0349   76.3  0.9634  -15.1
 0.165  0.8951  -24.2  10.088  163.0  0.0359   75.9  0.9614  -15.6
 0.170  0.8937  -24.9  10.070  162.5  0.0370   75.4  0.9596  -16.0
 0.175  0.8924  -25.6  10.053  162.0  0.0380   75.0  0.9578  -16.5
 0.180  0.8912  -26.3  10.037  161.5  0.0390   74.6  0.9560  -16.9
 0.185  0.8902  -27.0  10.021  161.1  0.0400   74.3  0.9544  -17.4
 0.190  0.8893  -27.7  10.006  160.6  0.0410   73.9  0.9527  -17.9
 0.195  0.8885  -28.4   9.992  160.1  0.0421   73.6  0.9512  -18.3
 0.200  0.8879  -29.1   9.978  159.6  0.0431   73.3  0.9497  -18.8
 0.220  0.8801  -31.9   9.878  157.7  0.0469   71.5  0.9409  -20.5
 0.240  0.8745  -34.8   9.789  155.8  0.0508   70.1  0.9330  -22.2
 0.260  0.8682  -37.5   9.691  153.9  0.0544   68.6  0.9240  -23.9
 0.280  0.8611  -40.1   9.582  152.1  0.0580   67.1  0.9139  -25.6
 0.300  0.8558  -42.8   9.483  150.3  0.0615   65.8  0.9046  -27.3
 0.320  0.8465  -45.4   9.363  148.6  0.0647   64.3  0.8938  -28.8
 0.340  0.8388  -48.0   9.252  146.8  0.0680   62.9  0.8837  -30.4
 0.360  0.8311  -50.5   9.136  145.1  0.0711   61.6  0.8731  -31.9
 0.380  0.8231  -52.9   9.013  143.5  0.0740   60.2  0.8619  -33.4
 0.400  0.8165  -55.4   8.898  141.8  0.0770   59.0  0.8513  -34.9
 0.420  0.8072  -57.8   8.771  140.2  0.0797   57.7  0.8402  -36.3
 0.440  0.7993  -60.3   8.651  138.6  0.0823   56.6  0.8296  -37.7
 0.450  0.7959  -61.5   8.594  137.8  0.0837   56.0  0.8245  -38.4
 0.460  0.7914  -62.6   8.530  137.1  0.0849   55.4  0.8187  -39.0
 0.480  0.7832  -64.8   8.405  135.7  0.0873   54.3  0.8074  -40.3
 0.500  0.7762  -67.1   8.285  134.2  0.0897   53.3  0.7965  -41.6
 0.520  0.7664  -69.2   8.157  132.9  0.0917   52.2  0.7853  -42.7
 0.540  0.7576  -71.3   8.034  131.6  0.0937   51.1  0.7745  -43.9
 0.560  0.7499  -73.5   7.915  130.2  0.0957   50.1  0.7640  -45.0
 0.580  0.7433  -75.7   7.800  128.8  0.0978   49.1  0.7538  -46.3
 0.600  0.7379  -78.0   7.691  127.3  0.0999   48.2  0.7439  -47.5
 0.620  0.7294  -79.9   7.571  126.1  0.1015   47.3  0.7333  -48.5
 0.640  0.7217  -81.8   7.453  124.9  0.1031   46.4  0.7230  -49.5
 0.660  0.7149  -83.8   7.340  123.7  0.1048   45.6  0.7129  -50.6
 0.680  0.7089  -85.8   7.230  122.4  0.1064   44.8  0.7031  -51.7
 0.700  0.7038  -87.8   7.123  121.1  0.1081   44.0  0.6935  -52.8
 0.720  0.6966  -89.5   7.013  120.1  0.1094   43.2  0.6841  -53.7
 0.740  0.6901  -91.3   6.906  119.0  0.1106   42.5  0.6749  -54.6
 0.760  0.6842  -93.1   6.801  118.0  0.1119   41.7  0.6659  -55.5
 0.780  0.6790  -94.9   6.699  116.8  0.1133   41.0  0.6571  -56.4
 0.800  0.6745  -96.7   6.599  115.7  0.1146   40.3  0.6484  -57.4
 0.820  0.6684  -98.3   6.504  114.8  0.1156   39.7  0.6400  -58.2
 0.840  0.6628 -100.0   6.410  113.8  0.1166   39.0  0.6317  -59.0
 0.860  0.6578 -101.7   6.319  112.8  0.1177   38.4  0.6235  -59.8
 0.880  0.6534 -103.4   6.229  111.8  0.1187   37.8  0.6154  -60.6
 0.900  0.6495 -105.1   6.141  110.8  0.1198   37.2  0.6075  -61.5
 0.920  0.6441 -106.6   6.055  110.0  0.1207   36.7  0.6001  -62.2
 0.940  0.6392 -108.1   5.970  109.1  0.1215   36.1  0.5928  -62.9
 0.960  0.6347 -109.7   5.886  108.2  0.1224   35.6  0.5856  -63.7
 0.980  0.6307 -111.2   5.804  107.3  0.1233   35.1  0.5785  -64.4
 1.000  0.6272 -112.8   5.724  106.3  0.1242   34.6  0.5715  -65.2
 1.020  0.6227 -114.2   5.646  105.5  0.1249   34.1  0.5650  -65.8
 1.040  0.6187 -115.5   5.570  104.7  0.1256   33.6  0.5587  -66.5
 1.060  0.6149 -117.0   5.494  103.9  0.1263   33.1  0.5524  -67.2
 1.080  0.6116 -118.4   5.420  103.1  0.1270   32.7  0.5461  -67.9
 1.100  0.6086 -119.8   5.347  102.2  0.1277   32.2  0.5400  -68.6
 1.120  0.6049 -121.1   5.278  101.5  0.1283   31.8  0.5342  -69.2
 1.140  0.6016 -122.4   5.210  100.7  0.1288   31.4  0.5285  -69.8
 1.160  0.5986 -123.7   5.143  100.0  0.1294   31.0  0.5228  -70.4
 1.180  0.5959 -125.1   5.077   99.2  0.1300   30.6  0.5172  -71.0
 1.200  0.5935 -126.4   5.012   98.4  0.1306   30.2  0.5117  -71.6
 1.220  0.5907 -127.6   4.951   97.7  0.1311   29.9  0.5067  -72.1
 1.240  0.5882 -128.9   4.890   97.1  0.1316   29.5  0.5018  -72.7
 1.260  0.5860 -130.2   4.830   96.4  0.1321   29.2  0.4969  -73.2
 1.280  0.5840 -131.4   4.771   95.6  0.1327   28.8  0.4920  -73.8
 1.300  0.5824 -132.7   4.712   94.9  0.1332   28.5  0.4872  -74.4
 1.320  0.5799 -133.8   4.657   94.3  0.1336   28.2  0.4826  -74.9
 1.340  0.5776 -135.0   4.602   93.6  0.1340   27.9  0.4780  -75.4
 1.360  0.5755 -136.1   4.549   92.9  0.1344   27.6  0.4735  -75.9
 1.380  0.5736 -137.2   4.495   92.2  0.1348   27.3  0.4690  -76.5
 1.400  0.5720 -138.4   4.443   91.5  0.1352   27.0  0.4645  -77.0
 1.420  0.5699 -139.5   4.394   90.9  0.1356   26.7  0.4606  -77.5
 1.440  0.5680 -140.7   4.345   90.3  0.1360   26.5  0.4566  -78.0
 1.460  0.5664 -141.8   4.297   89.6  0.1363   26.2  0.4528  -78.5
 1.480  0.5650 -142.9   4.250   89.0  0.1367   26.0  0.4489  -79.0
 1.500  0.5638 -144.1   4.203   88.3  0.1371   25.7  0.4451  -79.5
 1.520  0.5621 -145.1   4.158   87.7  0.1374   25.5  0.4414  -80.0
 1.540  0.5606 -146.2   4.114   87.2  0.1377   25.2  0.4378  -80.4
 1.560  0.5593 -147.2   4.070   86.6  0.1380   25.0  0.4341  -80.9
 1.580  0.5582 -148.3   4.027   86.0  0.1383   24.7  0.4306  -81.4
 1.600  0.5573 -149.3   3.984   85.4  0.1386   24.5  0.4270  -81.9
 1.620  0.5560 -150.3   3.944   84.8  0.1389   24.3  0.4239  -82.3
 1.640  0.5549 -151.2   3.905   84.3  0.1392   24.1  0.4208  -82.8
 1.660  0.5540 -152.2   3.866   83.7  0.1395   23.9  0.4177  -83.2
 1.680  0.5531 -153.1   3.827   83.1  0.1398   23.7  0.4146  -83.6
 1.700  0.5525 -154.1   3.789   82.5  0.1401   23.5  0.4116  -84.1
 1.720  0.5515 -155.0   3.752   82.0  0.1404   23.3  0.4088  -84.5
 1.740  0.5507 -156.0   3.716   81.5  0.1406   23.1  0.4060  -85.0
 1.760  0.5500 -156.9   3.679   80.9  0.1409   22.9  0.4032  -85.4
 1.780  0.5495 -157.9   3.644   80.4  0.1411   22.7  0.4004  -85.8
 1.800  0.5491 -158.8   3.608   79.8  0.1414   22.5  0.3977  -86.3
 1.820  0.5483 -159.7   3.576   79.3  0.1416   22.3  0.3950  -86.7
 1.840  0.5476 -160.6   3.543   78.7  0.1419   22.2  0.3924  -87.1
 1.860  0.5471 -161.5   3.512   78.2  0.1421   22.0  0.3897  -87.5
 1.880  0.5467 -162.4   3.480   77.7  0.1424   21.9  0.3871  -88.0
 1.900  0.5464 -163.3   3.449   77.1  0.1426   21.7  0.3845  -88.4
 1.920  0.5458 -164.2   3.418   76.6  0.1428   21.5  0.3822  -88.8
 1.940  0.5454 -165.0   3.388   76.1  0.1430   21.4  0.3799  -89.2
 1.960  0.5450 -165.9   3.358   75.6  0.1433   21.2  0.3777  -89.6
 1.980  0.5448 -166.7   3.328   75.0  0.1435   21.1  0.3754  -90.1
 2.000  0.5447 -167.6   3.299   74.5  0.1437   20.9  0.3732  -90.5
 2.020  0.5443 -168.4   3.271   74.0  0.1439   20.8  0.3711  -90.9
 2.040  0.5440 -169.2   3.243   73.6  0.1441   20.6  0.3690  -91.3
 2.060  0.5439 -170.0   3.216   73.1  0.1443   20.5  0.3669  -91.7
 2.080  0.5438 -170.8   3.189   72.6  0.1445   20.4  0.3649  -92.1
 2.100  0.5438 -171.7   3.161   72.1  0.1447   20.2  0.3629  -92.5
 2.120  0.5440 -172.5   3.135   71.6  0.1450   20.1  0.3609  -92.9
 2.140  0.5443 -173.3   3.108   71.1  0.1452   20.0  0.3589  -93.3
 2.160  0.5446 -174.1   3.082   70.6  0.1454   19.9  0.3569  -93.7
 2.180  0.5451 -174.9   3.056   70.0  0.1456   19.7  0.3549  -94.2
 2.200  0.5457 -175.7   3.030   69.5  0.1458   19.6  0.3530  -94.6
 2.220  0.5455 -176.4   3.006   69.1  0.1460   19.5  0.3512  -95.0
 2.240  0.5455 -177.2   2.983   68.6  0.1461   19.4  0.3494  -95.4
 2.260  0.5455 -177.9   2.960   68.2  0.1463   19.3  0.3476  -95.8
 2.280  0.5456 -178.7   2.937   67.7  0.1465   19.2  0.3458  -96.3
 2.300  0.5459 -179.4   2.914   67.2  0.1466   19.1  0.3441  -96.7
 2.320  0.5462  179.9   2.891   66.8  0.1468   19.0  0.3423  -97.1
 2.340  0.5466  179.1   2.869   66.3  0.1470   18.9  0.3406  -97.6
 2.360  0.5471  178.4   2.847   65.8  0.1472   18.8  0.3389  -98.0
 2.380  0.5476  177.6   2.825   65.3  0.1473   18.7  0.3373  -98.5
 2.400  0.5483  176.9   2.803   64.8  0.1475   18.6  0.3356  -98.9
 2.420  0.5485  176.2   2.782   64.4  0.1477   18.5  0.3341  -99.3
 2.440  0.5488  175.5   2.762   64.0  0.1478   18.4  0.3326  -99.7
 2.460  0.5491  174.8   2.742   63.5  0.1480   18.3  0.3312 -100.2
 2.480  0.5496  174.1   2.722   63.1  0.1481   18.2  0.3298 -100.6
 2.500  0.5501  173.4   2.702   62.6  0.1483   18.1  0.3284 -101.1
 2.520  0.5507  172.7   2.682   62.2  0.1485   18.1  0.3270 -101.5
 2.540  0.5514  172.1   2.663   61.7  0.1486   18.0  0.3256 -101.9
 2.560  0.5521  171.4   2.643   61.3  0.1488   17.9  0.3242 -102.4
 2.580  0.5530  170.7   2.624   60.8  0.1489   17.8  0.3229 -102.8
 2.600  0.5539  170.0   2.605   60.3  0.1491   17.7  0.3216 -103.3
 2.620  0.5542  169.4   2.587   59.9  0.1492   17.6  0.3205 -103.7
 2.640  0.5545  168.7   2.569   59.5  0.1494   17.5  0.3193 -104.2
 2.660  0.5549  168.1   2.551   59.1  0.1495   17.5  0.3182 -104.6
 2.680  0.5554  167.4   2.533   58.7  0.1496   17.4  0.3171 -105.1
 2.700  0.5559  166.8   2.516   58.2  0.1497   17.3  0.3161 -105.5
 2.720  0.5565  166.1   2.498   57.8  0.1499   17.2  0.3150 -106.0
 2.740  0.5572  165.5   2.481   57.4  0.1500   17.1  0.3140 -106.4
 2.760  0.5580  164.9   2.464   56.9  0.1501   17.1  0.3130 -106.9
 2.780  0.5588  164.2   2.447   56.5  0.1503   17.0  0.3120 -107.3
 2.800  0.5597  163.6   2.430   56.0  0.1504   16.9  0.3110 -107.8
 2.820  0.5602  163.0   2.414   55.6  0.1505   16.8  0.3101 -108.2
 2.840  0.5608  162.4   2.398   55.2  0.1507   16.8  0.3092 -108.7
 2.860  0.5615  161.8   2.382   54.8  0.1508   16.7  0.3083 -109.2
 2.880  0.5622  161.2   2.366   54.4  0.1510   16.7  0.3075 -109.6
 2.900  0.5630  160.6   2.351   54.0  0.1511   16.6  0.3067 -110.1
 2.920  0.5638  160.0   2.335   53.5  0.1512   16.5  0.3058 -110.5
 2.940  0.5647  159.5   2.320   53.1  0.1514   16.5  0.3051 -111.0
 2.960  0.5657  158.9   2.305   52.7  0.1515   16.4  0.3043 -111.5
 2.980  0.5667  158.3   2.290   52.2  0.1517   16.4  0.3035 -111.9
 3.000  0.5678  157.7   2.275   51.8  0.1518   16.3  0.3028 -112.4
 3.100  0.5699  155.0   2.207   50.1  0.1525   16.1  0.2998 -114.5
 3.200  0.5733  152.3   2.141   48.3  0.1532   15.9  0.2973 -116.6
 3.300  0.5779  149.6   2.077   46.4  0.1539   15.8  0.2952 -118.8
 3.400  0.5837  147.0   2.016   44.4  0.1546   15.6  0.2935 -121.0
 3.500  0.5907  144.5   1.957   42.2  0.1553   15.4  0.2922 -123.2
 3.600  0.5945  142.2   1.904   40.6  0.1561   15.3  0.2906 -125.5
 3.700  0.5992  139.9   1.853   38.9  0.1569   15.2  0.2895 -127.7
 3.800  0.6049  137.7   1.803   37.1  0.1577   15.2  0.2888 -130.0
 3.900  0.6114  135.5   1.756   35.2  0.1585   15.1  0.2886 -132.3
 4.000  0.6189  133.3   1.710   33.2  0.1593   15.0  0.2889 -134.6
 4.100  0.6234  131.5   1.667   31.7  0.1602   15.0  0.2901 -136.9
 4.200  0.6285  129.6   1.626   30.2  0.1612   15.0  0.2918 -139.2
 4.300  0.6342  127.9   1.586   28.6  0.1621   15.0  0.2939 -141.5
 4.400  0.6405  126.1   1.547   26.9  0.1631   15.0  0.2965 -143.7
 4.500  0.6474  124.4   1.509   25.1  0.1640   15.0  0.2995 -145.9
 4.600  0.6509  122.9   1.475   23.8  0.1653   15.1  0.3028 -147.7
 4.700  0.6549  121.3   1.441   22.3  0.1666   15.2  0.3064 -149.5
 4.800  0.6593  119.8   1.408   20.9  0.1679   15.3  0.3102 -151.3
 4.900  0.6642  118.4   1.377   19.3  0.1692   15.4  0.3144 -152.9
 5.000  0.6695  116.9   1.346   17.7  0.1705   15.5  0.3188 -154.6
 5.100  0.6724  115.7   1.319   16.5  0.1725   15.5  0.3225 -156.0
 5.200  0.6756  114.5   1.293   15.3  0.1745   15.6  0.3264 -157.4
 5.300  0.6792  113.3   1.267   14.0  0.1765   15.6  0.3305 -158.8
 5.400  0.6830  112.1   1.242   12.7  0.1785   15.7  0.3348 -160.1
 5.500  0.6871  110.9   1.218   11.3  0.1805   15.7  0.3392 -161.4
 5.600  0.6898  109.9   1.197   10.1  0.1828   15.6  0.3439 -162.8
 5.700  0.6927  108.8   1.176    8.9  0.1851   15.5  0.3487 -164.2
 5.800  0.6958  107.8   1.156    7.7  0.1874   15.3  0.3538 -165.6
 5.900  0.6991  106.8   1.136    6.3  0.1897   15.2  0.3591 -166.9
 6.000  0.7027  105.8   1.117    5.0  0.1920   15.1  0.3645 -168.2
 6.100  0.7034  104.8   1.099    3.9  0.1943   14.9  0.3691 -169.4
 6.200  0.7043  103.9   1.080    2.8  0.1966   14.7  0.3739 -170.5
 6.300  0.7055  102.9   1.063    1.6  0.1989   14.5  0.3788 -171.6
 6.400  0.7068  102.0   1.046    0.4  0.2012   14.4  0.3839 -172.7
 6.500  0.7083  101.0   1.029   -0.8  0.2035   14.2  0.3891 -173.7
 6.600  0.7081   99.9   1.015   -1.8  0.2063   14.0  0.3918 -174.5
 6.800  0.7084   97.8   0.987   -3.8  0.2120   13.7  0.3973 -176.0
 7.000  0.7096   95.7   0.960   -6.0  0.2176   13.4  0.4031 -177.4
 7.200  0.7124   93.2   0.938   -8.1  0.2244   12.6  0.4062 -179.5
 7.400  0.7166   90.7   0.917  -10.3  0.2312   11.9  0.4097  178.5
 7.600  0.7218   88.1   0.896  -12.6  0.2381   10.9  0.4137  176.1
 7.800  0.7282   85.3   0.876  -15.0  0.2453    9.7  0.4185  173.3
 8.000  0.7364   82.5   0.858  -17.4  0.2525    8.6  0.4243  170.6
 8.200  0.7415   79.5   0.835  -19.7  0.2586    6.9  0.4283  167.3
 8.400  0.7487   76.5   0.813  -22.1  0.2649    5.4  0.4337  164.1
 8.600  0.7575   73.6   0.791  -24.3  0.2698    3.7  0.4383  160.3
 8.800  0.7674   70.9   0.768  -26.4  0.2733    1.9  0.4431  155.9
 9.000  0.7791   68.3   0.746  -28.7  0.2771    0.1  0.4504  151.6
 9.200  0.7929   66.1   0.721  -30.5  0.2783   -1.4  0.4616  146.3
 9.400  0.8078   64.0   0.697  -32.4  0.2797   -2.8  0.4766  141.3
 9.600  0.8204   62.1   0.673  -34.0  0.2807   -4.0  0.4939  136.7
 9.800  0.8307   60.4   0.649  -35.4  0.2813   -4.9  0.5130  132.4
10.000  0.8416   58.8   0.625  -36.9  0.2819   -5.9  0.5347  128.5
!
!  f       NFmin   Gammaopt  rn/50
! GHz       dB    MAG  ANG    -
 0.450      0.71  0.48   19   0.20
 0.900      0.75  0.46   37   0.21
 1.900      1.09  0.27   93   0.15
 3.500      1.43  0.36 -162   0.10
!
! (c) 2016  Infineon Technologies AG, Munich
