! Infineon Technologies  Discrete & RF Semiconductors
! BFP460
! VCE =  3.0 V,  IC =  14 mA
! Common Emitter S-Parameters:                            Jan 2016
# GHz  S  MA  R  50
!  f         S11            S21            S12            S22
! GHz     MAG   ANG      MAG   ANG      MAG   ANG      MAG   ANG
 0.030  0.6996  -11.0  36.284  172.7  0.0052   84.4  0.9659   -7.4
 0.035  0.6973  -12.8  36.152  171.4  0.0061   83.6  0.9637   -8.6
 0.040  0.6956  -14.6  36.039  170.1  0.0070   83.0  0.9619   -9.8
 0.045  0.6946  -16.4  35.807  168.9  0.0078   82.0  0.9585  -10.8
 0.050  0.6944  -18.3  35.593  167.6  0.0086   81.2  0.9554  -11.9
 0.055  0.6917  -20.2  35.454  166.7  0.0094   80.5  0.9520  -13.1
 0.060  0.6898  -22.2  35.324  165.7  0.0103   79.9  0.9491  -14.3
 0.065  0.6870  -24.0  35.265  164.5  0.0112   79.1  0.9450  -15.5
 0.070  0.6850  -25.9  35.222  163.3  0.0121   78.5  0.9413  -16.7
 0.075  0.6834  -27.5  35.005  162.4  0.0129   77.4  0.9364  -17.8
 0.080  0.6824  -29.2  34.797  161.5  0.0137   76.5  0.9319  -19.0
 0.085  0.6800  -31.1  34.581  160.4  0.0144   75.8  0.9264  -20.1
 0.090  0.6783  -33.1  34.377  159.3  0.0152   75.1  0.9212  -21.3
 0.095  0.6754  -34.6  34.073  158.3  0.0159   74.3  0.9157  -22.4
 0.100  0.6729  -36.2  33.779  157.3  0.0167   73.5  0.9105  -23.5
 0.105  0.6727  -37.9  33.599  156.3  0.0174   72.8  0.9043  -24.5
 0.110  0.6731  -39.6  33.429  155.3  0.0182   72.1  0.8984  -25.6
 0.115  0.6680  -41.2  33.189  154.3  0.0188   71.4  0.8922  -26.6
 0.120  0.6635  -42.9  32.961  153.2  0.0195   70.8  0.8863  -27.7
 0.125  0.6595  -44.4  32.710  152.4  0.0201   70.2  0.8796  -28.7
 0.130  0.6560  -45.9  32.466  151.5  0.0208   69.7  0.8732  -29.8
 0.135  0.6534  -47.6  32.230  150.5  0.0214   69.0  0.8666  -30.8
 0.140  0.6513  -49.3  32.003  149.5  0.0221   68.4  0.8603  -31.8
 0.145  0.6478  -50.8  31.692  148.6  0.0227   67.8  0.8534  -32.7
 0.150  0.6447  -52.4  31.389  147.6  0.0234   67.3  0.8467  -33.7
 0.155  0.6400  -53.8  31.101  146.8  0.0239   66.7  0.8390  -34.5
 0.160  0.6356  -55.1  30.819  146.1  0.0244   66.1  0.8314  -35.3
 0.165  0.6317  -56.5  30.543  145.3  0.0250   65.5  0.8240  -36.2
 0.170  0.6281  -57.9  30.272  144.5  0.0255   65.0  0.8168  -37.0
 0.175  0.6249  -59.4  30.008  143.7  0.0260   64.4  0.8098  -37.9
 0.180  0.6220  -60.8  29.749  142.9  0.0266   63.9  0.8029  -38.8
 0.185  0.6196  -62.3  29.497  142.0  0.0271   63.4  0.7963  -39.7
 0.190  0.6176  -63.7  29.251  141.2  0.0276   63.0  0.7899  -40.6
 0.195  0.6160  -65.2  29.012  140.3  0.0282   62.5  0.7836  -41.6
 0.200  0.6148  -66.7  28.780  139.4  0.0287   62.1  0.7776  -42.5
 0.220  0.6005  -71.6  27.693  136.8  0.0304   60.3  0.7492  -45.3
 0.240  0.5907  -76.7  26.670  133.9  0.0321   58.7  0.7228  -48.4
 0.260  0.5814  -81.4  25.686  131.3  0.0337   57.3  0.6973  -51.2
 0.280  0.5714  -85.7  24.720  129.1  0.0351   56.1  0.6721  -53.8
 0.300  0.5647  -90.1  23.795  126.6  0.0366   55.0  0.6484  -56.5
 0.320  0.5547  -93.8  22.921  124.7  0.0378   54.1  0.6260  -58.6
 0.340  0.5471  -97.6  22.074  122.7  0.0389   53.2  0.6044  -60.8
 0.360  0.5400 -101.2  21.282  120.8  0.0400   52.5  0.5842  -62.9
 0.380  0.5326 -104.5  20.536  119.1  0.0410   51.8  0.5651  -64.8
 0.400  0.5271 -107.9  19.809  117.3  0.0420   51.2  0.5467  -66.9
 0.420  0.5211 -110.8  19.144  115.9  0.0429   50.7  0.5300  -68.5
 0.440  0.5165 -113.8  18.492  114.4  0.0438   50.3  0.5137  -70.2
 0.450  0.5147 -115.3  18.171  113.6  0.0443   50.1  0.5057  -71.1
 0.460  0.5119 -116.6  17.887  113.0  0.0447   50.0  0.4985  -71.8
 0.480  0.5069 -119.1  17.324  111.8  0.0455   49.7  0.4842  -73.3
 0.500  0.5030 -121.7  16.770  110.5  0.0463   49.4  0.4703  -74.8
 0.520  0.4985 -123.9  16.297  109.5  0.0471   49.2  0.4584  -76.0
 0.540  0.4948 -126.1  15.829  108.5  0.0478   49.1  0.4467  -77.2
 0.560  0.4918 -128.3  15.367  107.3  0.0486   48.9  0.4353  -78.5
 0.580  0.4895 -130.5  14.910  106.2  0.0493   48.8  0.4241  -79.9
 0.600  0.4880 -132.8  14.461  104.9  0.0501   48.6  0.4131  -81.3
 0.620  0.4850 -134.6  14.096  104.1  0.0508   48.6  0.4041  -82.3
 0.640  0.4825 -136.4  13.734  103.2  0.0515   48.5  0.3952  -83.4
 0.660  0.4805 -138.2  13.374  102.3  0.0523   48.5  0.3865  -84.5
 0.680  0.4790 -140.1  13.019  101.4  0.0530   48.4  0.3779  -85.6
 0.700  0.4780 -141.9  12.667  100.4  0.0537   48.4  0.3695  -86.8
 0.720  0.4761 -143.4  12.381   99.7  0.0544   48.4  0.3626  -87.7
 0.740  0.4745 -144.9  12.096   99.0  0.0551   48.4  0.3557  -88.6
 0.760  0.4732 -146.4  11.813   98.2  0.0558   48.5  0.3489  -89.5
 0.780  0.4723 -147.9  11.533   97.4  0.0565   48.5  0.3423  -90.5
 0.800  0.4717 -149.4  11.255   96.6  0.0572   48.5  0.3357  -91.5
 0.820  0.4706 -150.7  11.026   96.0  0.0579   48.6  0.3303  -92.3
 0.840  0.4697 -152.0  10.799   95.4  0.0586   48.6  0.3250  -93.1
 0.860  0.4691 -153.3  10.573   94.7  0.0593   48.7  0.3197  -94.0
 0.880  0.4687 -154.6  10.349   94.0  0.0600   48.7  0.3145  -94.9
 0.900  0.4685 -155.9  10.126   93.3  0.0607   48.8  0.3094  -95.8
 0.920  0.4676 -157.0   9.937   92.8  0.0614   48.9  0.3051  -96.5
 0.940  0.4669 -158.2   9.749   92.2  0.0621   49.0  0.3008  -97.3
 0.960  0.4663 -159.3   9.563   91.6  0.0629   49.0  0.2966  -98.0
 0.980  0.4660 -160.5   9.377   91.0  0.0636   49.1  0.2924  -98.8
 1.000  0.4658 -161.6   9.192   90.4  0.0643   49.2  0.2883  -99.6
 1.020  0.4652 -162.6   9.034   89.9  0.0650   49.2  0.2849 -100.3
 1.040  0.4647 -163.6   8.876   89.4  0.0657   49.3  0.2816 -101.0
 1.060  0.4644 -164.7   8.719   88.8  0.0665   49.3  0.2783 -101.7
 1.080  0.4642 -165.7   8.563   88.3  0.0672   49.4  0.2750 -102.4
 1.100  0.4642 -166.7   8.408   87.7  0.0679   49.4  0.2718 -103.1
 1.120  0.4639 -167.6   8.275   87.2  0.0686   49.4  0.2689 -103.7
 1.140  0.4637 -168.5   8.143   86.7  0.0693   49.5  0.2661 -104.4
 1.160  0.4636 -169.4   8.011   86.2  0.0701   49.5  0.2633 -105.0
 1.180  0.4636 -170.3   7.880   85.7  0.0708   49.6  0.2605 -105.7
 1.200  0.4637 -171.2   7.750   85.1  0.0715   49.6  0.2578 -106.4
 1.220  0.4637 -172.0   7.636   84.7  0.0722   49.6  0.2556 -107.0
 1.240  0.4638 -172.9   7.522   84.2  0.0730   49.7  0.2534 -107.6
 1.260  0.4641 -173.7   7.408   83.8  0.0737   49.7  0.2512 -108.2
 1.280  0.4644 -174.6   7.295   83.3  0.0745   49.8  0.2490 -108.8
 1.300  0.4648 -175.4   7.183   82.8  0.0752   49.8  0.2469 -109.4
 1.320  0.4648 -176.2   7.084   82.4  0.0760   49.8  0.2449 -110.0
 1.340  0.4648 -176.9   6.986   81.9  0.0767   49.9  0.2429 -110.5
 1.360  0.4649 -177.7   6.888   81.5  0.0775   49.9  0.2410 -111.1
 1.380  0.4651 -178.4   6.791   81.0  0.0782   50.0  0.2391 -111.7
 1.400  0.4654 -179.2   6.694   80.5  0.0790   50.0  0.2372 -112.3
 1.420  0.4656 -179.9   6.609   80.1  0.0798   50.0  0.2357 -112.8
 1.440  0.4659  179.3   6.523   79.7  0.0805   50.0  0.2342 -113.4
 1.460  0.4663  178.6   6.439   79.3  0.0813   50.0  0.2327 -113.9
 1.480  0.4668  177.8   6.354   78.8  0.0820   50.0  0.2312 -114.4
 1.500  0.4673  177.1   6.270   78.4  0.0828   50.0  0.2298 -115.0
 1.520  0.4675  176.4   6.193   78.0  0.0836   50.0  0.2284 -115.5
 1.540  0.4678  175.7   6.117   77.6  0.0843   50.0  0.2271 -116.1
 1.560  0.4682  175.1   6.040   77.2  0.0851   49.9  0.2258 -116.6
 1.580  0.4686  174.4   5.965   76.7  0.0858   49.9  0.2245 -117.1
 1.600  0.4691  173.7   5.889   76.3  0.0866   49.9  0.2232 -117.7
 1.620  0.4693  173.1   5.823   75.9  0.0874   49.9  0.2221 -118.2
 1.640  0.4696  172.4   5.758   75.5  0.0882   49.9  0.2210 -118.7
 1.660  0.4699  171.8   5.693   75.1  0.0889   49.8  0.2200 -119.2
 1.680  0.4703  171.1   5.628   74.7  0.0897   49.8  0.2189 -119.7
 1.700  0.4708  170.5   5.563   74.3  0.0905   49.8  0.2179 -120.2
 1.720  0.4712  169.9   5.502   73.9  0.0913   49.8  0.2170 -120.7
 1.740  0.4716  169.3   5.441   73.6  0.0921   49.7  0.2161 -121.2
 1.760  0.4720  168.7   5.381   73.2  0.0928   49.7  0.2153 -121.7
 1.780  0.4725  168.1   5.321   72.8  0.0936   49.6  0.2144 -122.2
 1.800  0.4731  167.5   5.261   72.4  0.0944   49.6  0.2136 -122.7
 1.820  0.4736  166.9   5.208   72.0  0.0952   49.6  0.2128 -123.2
 1.840  0.4741  166.3   5.156   71.7  0.0960   49.5  0.2120 -123.7
 1.860  0.4746  165.8   5.104   71.3  0.0967   49.5  0.2112 -124.2
 1.880  0.4752  165.2   5.052   70.9  0.0975   49.4  0.2104 -124.7
 1.900  0.4759  164.6   5.000   70.5  0.0983   49.4  0.2097 -125.2
 1.920  0.4764  164.0   4.951   70.1  0.0991   49.3  0.2091 -125.7
 1.940  0.4769  163.5   4.903   69.8  0.0999   49.3  0.2085 -126.2
 1.960  0.4774  162.9   4.854   69.4  0.1006   49.2  0.2079 -126.6
 1.980  0.4780  162.4   4.806   69.0  0.1014   49.2  0.2073 -127.1
 2.000  0.4787  161.8   4.758   68.6  0.1022   49.1  0.2067 -127.6
 2.020  0.4792  161.3   4.715   68.3  0.1030   49.0  0.2062 -128.1
 2.040  0.4798  160.7   4.672   67.9  0.1037   49.0  0.2057 -128.6
 2.060  0.4805  160.2   4.629   67.6  0.1045   48.9  0.2052 -129.1
 2.080  0.4811  159.7   4.586   67.2  0.1053   48.8  0.2048 -129.6
 2.100  0.4818  159.1   4.544   66.8  0.1060   48.7  0.2043 -130.1
 2.120  0.4826  158.6   4.501   66.5  0.1068   48.7  0.2039 -130.6
 2.140  0.4834  158.1   4.459   66.1  0.1076   48.6  0.2035 -131.1
 2.160  0.4842  157.5   4.417   65.7  0.1084   48.5  0.2031 -131.7
 2.180  0.4851  157.0   4.376   65.3  0.1091   48.5  0.2028 -132.2
 2.200  0.4860  156.5   4.334   64.9  0.1099   48.4  0.2024 -132.7
 2.220  0.4867  156.0   4.298   64.6  0.1107   48.3  0.2021 -133.2
 2.240  0.4874  155.5   4.262   64.2  0.1115   48.2  0.2018 -133.7
 2.260  0.4882  155.0   4.227   63.9  0.1122   48.1  0.2016 -134.2
 2.280  0.4890  154.5   4.191   63.6  0.1130   48.0  0.2013 -134.7
 2.300  0.4899  154.0   4.156   63.2  0.1138   47.9  0.2011 -135.2
 2.320  0.4907  153.5   4.121   62.9  0.1146   47.8  0.2009 -135.7
 2.340  0.4916  153.1   4.086   62.5  0.1154   47.8  0.2007 -136.3
 2.360  0.4926  152.6   4.051   62.1  0.1161   47.7  0.2005 -136.8
 2.380  0.4936  152.1   4.016   61.8  0.1169   47.6  0.2003 -137.3
 2.400  0.4946  151.6   3.982   61.4  0.1177   47.5  0.2002 -137.8
 2.420  0.4954  151.1   3.951   61.1  0.1185   47.4  0.2002 -138.3
 2.440  0.4962  150.6   3.920   60.8  0.1192   47.3  0.2002 -138.9
 2.460  0.4971  150.2   3.889   60.4  0.1200   47.2  0.2002 -139.4
 2.480  0.4980  149.7   3.858   60.1  0.1207   47.0  0.2002 -139.9
 2.500  0.4989  149.2   3.828   59.8  0.1215   46.9  0.2002 -140.5
 2.520  0.4999  148.8   3.797   59.4  0.1223   46.8  0.2003 -141.0
 2.540  0.5009  148.3   3.767   59.1  0.1230   46.7  0.2004 -141.5
 2.560  0.5019  147.8   3.737   58.7  0.1238   46.6  0.2005 -142.0
 2.580  0.5030  147.4   3.707   58.4  0.1245   46.5  0.2006 -142.6
 2.600  0.5041  146.9   3.677   58.0  0.1253   46.4  0.2007 -143.1
 2.620  0.5049  146.5   3.650   57.7  0.1260   46.3  0.2009 -143.6
 2.640  0.5057  146.0   3.624   57.4  0.1268   46.1  0.2011 -144.1
 2.660  0.5066  145.6   3.597   57.0  0.1275   46.0  0.2013 -144.6
 2.680  0.5075  145.2   3.571   56.7  0.1283   45.9  0.2016 -145.2
 2.700  0.5084  144.7   3.544   56.4  0.1290   45.8  0.2018 -145.7
 2.720  0.5093  144.3   3.518   56.0  0.1297   45.7  0.2021 -146.2
 2.740  0.5103  143.9   3.492   55.7  0.1305   45.5  0.2024 -146.7
 2.760  0.5113  143.4   3.466   55.3  0.1312   45.4  0.2027 -147.2
 2.780  0.5123  143.0   3.441   55.0  0.1320   45.3  0.2031 -147.7
 2.800  0.5134  142.6   3.415   54.6  0.1327   45.2  0.2034 -148.2
 2.820  0.5144  142.2   3.392   54.3  0.1334   45.1  0.2038 -148.7
 2.840  0.5154  141.8   3.368   54.0  0.1342   44.9  0.2041 -149.2
 2.860  0.5164  141.4   3.345   53.7  0.1349   44.8  0.2045 -149.6
 2.880  0.5174  141.0   3.322   53.4  0.1356   44.7  0.2049 -150.1
 2.900  0.5185  140.6   3.299   53.1  0.1363   44.6  0.2053 -150.6
 2.920  0.5196  140.2   3.276   52.7  0.1371   44.5  0.2058 -151.0
 2.940  0.5207  139.8   3.253   52.4  0.1378   44.3  0.2062 -151.5
 2.960  0.5218  139.4   3.230   52.1  0.1385   44.2  0.2067 -152.0
 2.980  0.5230  139.0   3.208   51.7  0.1393   44.1  0.2071 -152.4
 3.000  0.5242  138.6   3.185   51.4  0.1400   44.0  0.2076 -152.9
 3.100  0.5284  136.7   3.088   50.0  0.1434   43.3  0.2099 -155.1
 3.200  0.5331  134.8   2.993   48.6  0.1469   42.6  0.2125 -157.3
 3.300  0.5385  132.9   2.900   47.1  0.1504   41.9  0.2154 -159.4
 3.400  0.5444  131.1   2.809   45.4  0.1539   41.3  0.2186 -161.4
 3.500  0.5508  129.3   2.721   43.7  0.1574   40.7  0.2221 -163.4
 3.600  0.5561  127.6   2.647   42.4  0.1605   39.9  0.2253 -165.6
 3.700  0.5618  126.0   2.574   41.1  0.1636   39.2  0.2288 -167.8
 3.800  0.5680  124.4   2.503   39.6  0.1668   38.5  0.2327 -169.9
 3.900  0.5746  122.8   2.434   38.1  0.1700   37.8  0.2369 -171.9
 4.000  0.5816  121.3   2.366   36.5  0.1732   37.1  0.2413 -173.9
 4.100  0.5871  119.9   2.307   35.3  0.1760   36.4  0.2462 -175.9
 4.200  0.5929  118.5   2.250   34.0  0.1789   35.7  0.2513 -177.8
 4.300  0.5990  117.2   2.194   32.6  0.1818   35.1  0.2567 -179.7
 4.400  0.6054  115.9   2.139   31.2  0.1847   34.4  0.2624  178.6
 4.500  0.6122  114.6   2.085   29.7  0.1876   33.8  0.2683  176.9
 4.600  0.6162  113.4   2.039   28.6  0.1904   33.2  0.2726  175.5
 4.700  0.6205  112.2   1.994   27.4  0.1933   32.6  0.2771  174.2
 4.800  0.6251  111.0   1.950   26.2  0.1961   32.0  0.2817  172.9
 4.900  0.6299  109.8   1.906   24.9  0.1990   31.4  0.2864  171.6
 5.000  0.6350  108.7   1.864   23.6  0.2019   30.9  0.2913  170.4
 5.100  0.6380  107.7   1.828   22.5  0.2050   30.2  0.2944  169.4
 5.200  0.6412  106.7   1.794   21.5  0.2081   29.6  0.2975  168.5
 5.300  0.6446  105.7   1.759   20.3  0.2112   28.9  0.3008  167.5
 5.400  0.6481  104.7   1.726   19.1  0.2143   28.3  0.3041  166.6
 5.500  0.6519  103.7   1.693   17.9  0.2175   27.7  0.3075  165.7
 5.600  0.6541  102.9   1.665   16.8  0.2204   26.9  0.3112  164.8
 5.700  0.6565  102.0   1.637   15.7  0.2233   26.2  0.3150  163.9
 5.800  0.6590  101.2   1.611   14.6  0.2262   25.5  0.3189  163.0
 5.900  0.6616  100.4   1.584   13.4  0.2292   24.8  0.3228  162.1
 6.000  0.6644   99.6   1.559   12.2  0.2322   24.1  0.3268  161.3
 6.100  0.6650   98.8   1.535   11.2  0.2347   23.4  0.3296  160.7
 6.200  0.6658   98.0   1.511   10.2  0.2373   22.7  0.3323  160.2
 6.300  0.6666   97.1   1.488    9.1  0.2399   22.1  0.3352  159.6
 6.400  0.6676   96.3   1.466    8.0  0.2425   21.4  0.3380  159.0
 6.500  0.6688   95.5   1.444    6.9  0.2452   20.8  0.3409  158.5
 6.600  0.6683   94.6   1.425    5.9  0.2481   20.2  0.3409  158.1
 6.800  0.6678   92.7   1.389    3.9  0.2540   18.9  0.3410  157.4
 7.000  0.6681   90.8   1.355    1.7  0.2600   17.7  0.3412  156.6
 7.200  0.6700   88.5   1.326   -0.4  0.2664   16.1  0.3411  155.1
 7.400  0.6729   86.3   1.300   -2.7  0.2730   14.6  0.3413  153.6
 7.600  0.6772   83.9   1.273   -5.0  0.2793   13.0  0.3432  151.7
 7.800  0.6829   81.4   1.246   -7.4  0.2854   11.2  0.3470  149.4
 8.000  0.6899   78.9   1.222  -10.0  0.2917    9.5  0.3513  147.1
 8.200  0.6957   76.2   1.190  -12.4  0.2960    7.4  0.3556  144.2
 8.400  0.7030   73.6   1.161  -14.9  0.3006    5.4  0.3609  141.3
 8.600  0.7125   71.1   1.130  -17.3  0.3037    3.4  0.3672  137.8
 8.800  0.7239   68.7   1.098  -19.6  0.3051    1.3  0.3753  133.6
 9.000  0.7366   66.4   1.068  -22.0  0.3069   -0.7  0.3854  129.7
 9.200  0.7527   64.5   1.033  -23.9  0.3061   -2.2  0.4014  124.9
 9.400  0.7697   62.7   0.999  -25.9  0.3055   -3.7  0.4200  120.5
 9.600  0.7847   61.0   0.966  -27.6  0.3048   -5.0  0.4395  116.7
 9.800  0.7977   59.5   0.934  -29.2  0.3038   -6.0  0.4594  113.4
10.000  0.8112   58.0   0.902  -30.8  0.3029   -7.0  0.4807  110.3
!
!  f       NFmin   Gammaopt  rn/50
! GHz       dB    MAG  ANG    -
 0.450      1.09  0.04   41   0.14
 1.900      1.24  0.11 -165   0.12
 3.500      1.23  0.36 -131   0.13
!
! (c) 2016  Infineon Technologies AG, Munich
