! Infineon Technologies  Discrete & RF Semiconductors
! BFP460
! VCE =  1.5 V,  IC =  60 mA
! Common Emitter S-Parameters:                            Jan 2016
# GHz  S  MA  R  50
!  f         S11            S21            S12            S22
! GHz     MAG   ANG      MAG   ANG      MAG   ANG      MAG   ANG
 0.030  0.2758  -43.8  64.041  167.2  0.0046   82.8  0.8086  -14.0
 0.035  0.2798  -49.8  63.367  164.9  0.0052   81.2  0.8026  -16.6
 0.040  0.2867  -55.5  62.799  162.5  0.0059   80.0  0.7983  -19.2
 0.045  0.2923  -61.1  61.912  160.1  0.0066   79.0  0.7897  -21.8
 0.050  0.3006  -66.4  61.133  157.7  0.0073   78.2  0.7828  -24.4
 0.055  0.3102  -70.8  60.305  155.7  0.0078   76.1  0.7724  -26.8
 0.060  0.3216  -74.9  59.551  153.7  0.0083   74.3  0.7634  -29.3
 0.065  0.3300  -79.6  58.649  151.7  0.0088   72.6  0.7516  -31.6
 0.070  0.3405  -84.1  57.823  149.6  0.0093   71.0  0.7410  -33.9
 0.075  0.3484  -87.3  56.828  147.9  0.0098   70.1  0.7287  -36.0
 0.080  0.3574  -90.4  55.884  146.2  0.0104   69.3  0.7175  -38.2
 0.085  0.3669  -93.9  54.786  144.5  0.0108   68.4  0.7045  -40.2
 0.090  0.3777  -97.2  53.739  142.7  0.0113   67.6  0.6925  -42.3
 0.095  0.3820  -99.8  52.634  141.2  0.0117   66.9  0.6801  -44.2
 0.100  0.3871 -102.4  51.566  139.7  0.0122   66.3  0.6685  -46.1
 0.105  0.3945 -104.9  50.612  138.3  0.0125   65.6  0.6559  -47.9
 0.110  0.4027 -107.4  49.691  136.8  0.0129   65.0  0.6439  -49.7
 0.115  0.4087 -109.9  48.655  135.4  0.0133   64.5  0.6318  -51.4
 0.120  0.4155 -112.4  47.648  134.0  0.0137   64.0  0.6202  -53.1
 0.125  0.4188 -114.5  46.698  132.8  0.0140   63.2  0.6084  -54.6
 0.130  0.4226 -116.5  45.769  131.6  0.0143   62.5  0.5971  -56.2
 0.135  0.4273 -118.5  44.879  130.5  0.0146   62.2  0.5858  -57.7
 0.140  0.4326 -120.5  44.007  129.3  0.0149   61.9  0.5750  -59.2
 0.145  0.4363 -122.2  43.079  128.2  0.0152   61.7  0.5643  -60.6
 0.150  0.4404 -123.9  42.166  127.1  0.0155   61.5  0.5540  -62.0
 0.155  0.4422 -125.3  41.403  126.4  0.0158   61.3  0.5444  -63.0
 0.160  0.4443 -126.7  40.647  125.6  0.0160   61.1  0.5349  -64.0
 0.165  0.4467 -128.1  39.897  124.9  0.0163   60.9  0.5257  -65.0
 0.170  0.4493 -129.4  39.155  124.1  0.0165   60.7  0.5166  -66.1
 0.175  0.4521 -130.8  38.422  123.3  0.0168   60.5  0.5077  -67.3
 0.180  0.4552 -132.1  37.696  122.4  0.0171   60.4  0.4990  -68.4
 0.185  0.4586 -133.4  36.979  121.5  0.0173   60.2  0.4905  -69.6
 0.190  0.4622 -134.7  36.272  120.6  0.0176   60.0  0.4822  -70.9
 0.195  0.4660 -136.0  35.574  119.6  0.0178   59.9  0.4742  -72.2
 0.200  0.4700 -137.2  34.887  118.6  0.0181   59.7  0.4664  -73.5
 0.220  0.4758 -141.0  32.652  116.4  0.0190   59.6  0.4394  -76.8
 0.240  0.4836 -144.7  30.471  113.9  0.0199   59.5  0.4140  -80.6
 0.260  0.4898 -147.9  28.567  111.7  0.0208   59.5  0.3921  -83.9
 0.280  0.4939 -150.6  26.912  109.9  0.0217   59.6  0.3729  -86.8
 0.300  0.4990 -153.2  25.287  107.8  0.0226   59.8  0.3547  -90.0
 0.320  0.5017 -155.3  23.999  106.5  0.0235   60.1  0.3402  -92.3
 0.340  0.5050 -157.4  22.725  105.0  0.0244   60.5  0.3262  -94.9
 0.360  0.5076 -159.3  21.589  103.7  0.0252   60.8  0.3139  -97.2
 0.380  0.5092 -161.0  20.586  102.5  0.0261   61.1  0.3032  -99.3
 0.400  0.5113 -162.7  19.593  101.2  0.0269   61.4  0.2928 -101.6
 0.420  0.5131 -164.1  18.781  100.3  0.0278   61.8  0.2842 -103.4
 0.440  0.5151 -165.6  17.974   99.2  0.0287   62.1  0.2759 -105.2
 0.450  0.5163 -166.3  17.573   98.7  0.0292   62.3  0.2719 -106.2
 0.460  0.5167 -166.9  17.243   98.3  0.0296   62.4  0.2685 -107.0
 0.480  0.5178 -168.1  16.585   97.5  0.0305   62.7  0.2619 -108.7
 0.500  0.5191 -169.3  15.931   96.6  0.0314   62.9  0.2555 -110.5
 0.520  0.5197 -170.3  15.419   95.9  0.0323   63.2  0.2505 -111.8
 0.540  0.5204 -171.4  14.910   95.2  0.0333   63.4  0.2456 -113.2
 0.560  0.5214 -172.4  14.403   94.5  0.0342   63.7  0.2409 -114.7
 0.580  0.5225 -173.4  13.898   93.7  0.0352   63.9  0.2363 -116.1
 0.600  0.5237 -174.4  13.397   92.8  0.0361   64.1  0.2319 -117.7
 0.620  0.5243 -175.2  13.025   92.3  0.0370   64.3  0.2286 -118.8
 0.640  0.5251 -176.1  12.654   91.7  0.0380   64.4  0.2254 -120.0
 0.660  0.5259 -176.9  12.285   91.1  0.0389   64.5  0.2222 -121.2
 0.680  0.5269 -177.8  11.917   90.4  0.0399   64.7  0.2192 -122.4
 0.700  0.5280 -178.6  11.551   89.7  0.0408   64.8  0.2163 -123.7
 0.720  0.5284 -179.3  11.270   89.2  0.0417   64.9  0.2140 -124.7
 0.740  0.5288  180.0  10.989   88.7  0.0427   65.0  0.2118 -125.7
 0.760  0.5294  179.2  10.710   88.2  0.0436   65.1  0.2097 -126.7
 0.780  0.5300  178.5  10.431   87.6  0.0446   65.1  0.2076 -127.7
 0.800  0.5307  177.8  10.154   87.0  0.0455   65.2  0.2056 -128.8
 0.820  0.5313  177.2   9.934   86.6  0.0464   65.3  0.2041 -129.6
 0.840  0.5319  176.5   9.715   86.1  0.0474   65.3  0.2026 -130.4
 0.860  0.5327  175.9   9.497   85.6  0.0483   65.4  0.2011 -131.3
 0.880  0.5334  175.2   9.279   85.1  0.0493   65.4  0.1998 -132.1
 0.900  0.5343  174.6   9.062   84.6  0.0502   65.5  0.1984 -133.0
 0.920  0.5345  174.0   8.885   84.2  0.0512   65.5  0.1973 -133.7
 0.940  0.5347  173.4   8.708   83.7  0.0522   65.5  0.1962 -134.5
 0.960  0.5350  172.9   8.531   83.3  0.0531   65.5  0.1951 -135.3
 0.980  0.5354  172.3   8.355   82.8  0.0541   65.5  0.1941 -136.0
 1.000  0.5358  171.7   8.180   82.3  0.0551   65.5  0.1931 -136.8
 1.020  0.5362  171.1   8.034   81.9  0.0561   65.5  0.1924 -137.4
 1.040  0.5366  170.6   7.888   81.5  0.0570   65.4  0.1917 -138.1
 1.060  0.5371  170.0   7.742   81.1  0.0580   65.4  0.1910 -138.7
 1.080  0.5377  169.5   7.597   80.7  0.0589   65.3  0.1904 -139.4
 1.100  0.5383  168.9   7.452   80.2  0.0599   65.3  0.1898 -140.0
 1.120  0.5387  168.4   7.330   79.8  0.0609   65.2  0.1893 -140.6
 1.140  0.5392  167.9   7.209   79.4  0.0618   65.2  0.1887 -141.2
 1.160  0.5397  167.4   7.087   79.0  0.0628   65.1  0.1882 -141.8
 1.180  0.5403  166.9   6.966   78.6  0.0637   65.1  0.1878 -142.4
 1.200  0.5409  166.4   6.846   78.2  0.0647   65.0  0.1873 -143.0
 1.220  0.5411  165.9   6.741   77.8  0.0657   64.9  0.1870 -143.5
 1.240  0.5414  165.4   6.636   77.4  0.0667   64.8  0.1867 -144.0
 1.260  0.5417  164.9   6.532   77.0  0.0676   64.8  0.1865 -144.5
 1.280  0.5421  164.4   6.428   76.6  0.0686   64.7  0.1862 -145.0
 1.300  0.5425  163.9   6.324   76.2  0.0696   64.6  0.1860 -145.5
 1.320  0.5429  163.4   6.235   75.9  0.0706   64.5  0.1858 -146.0
 1.340  0.5434  163.0   6.146   75.5  0.0715   64.4  0.1855 -146.5
 1.360  0.5440  162.5   6.058   75.2  0.0725   64.3  0.1853 -146.9
 1.380  0.5445  162.1   5.970   74.8  0.0734   64.2  0.1851 -147.4
 1.400  0.5451  161.6   5.882   74.4  0.0744   64.1  0.1849 -147.9
 1.420  0.5456  161.1   5.805   74.0  0.0754   64.0  0.1848 -148.3
 1.440  0.5461  160.7   5.728   73.7  0.0763   63.9  0.1848 -148.7
 1.460  0.5466  160.2   5.652   73.3  0.0773   63.7  0.1848 -149.2
 1.480  0.5472  159.8   5.576   72.9  0.0782   63.6  0.1847 -149.6
 1.500  0.5478  159.3   5.500   72.5  0.0792   63.5  0.1847 -150.0
 1.520  0.5483  158.9   5.431   72.2  0.0801   63.4  0.1847 -150.4
 1.540  0.5488  158.4   5.363   71.8  0.0811   63.3  0.1847 -150.8
 1.560  0.5494  158.0   5.295   71.4  0.0820   63.1  0.1847 -151.2
 1.580  0.5500  157.5   5.227   71.1  0.0830   63.0  0.1847 -151.6
 1.600  0.5506  157.1   5.159   70.7  0.0839   62.9  0.1847 -152.0
 1.620  0.5510  156.7   5.100   70.4  0.0849   62.8  0.1847 -152.4
 1.640  0.5514  156.3   5.041   70.0  0.0858   62.6  0.1848 -152.8
 1.660  0.5518  155.8   4.983   69.6  0.0868   62.5  0.1849 -153.1
 1.680  0.5522  155.4   4.924   69.3  0.0877   62.3  0.1849 -153.5
 1.700  0.5527  155.0   4.866   68.9  0.0887   62.2  0.1850 -153.9
 1.720  0.5531  154.6   4.812   68.6  0.0897   62.1  0.1852 -154.3
 1.740  0.5536  154.2   4.758   68.2  0.0906   61.9  0.1853 -154.6
 1.760  0.5541  153.7   4.705   67.9  0.0916   61.8  0.1855 -155.0
 1.780  0.5546  153.3   4.651   67.6  0.0925   61.6  0.1857 -155.3
 1.800  0.5552  152.9   4.598   67.2  0.0935   61.5  0.1859 -155.7
 1.820  0.5558  152.5   4.551   66.9  0.0944   61.3  0.1861 -156.1
 1.840  0.5564  152.0   4.504   66.5  0.0954   61.2  0.1862 -156.4
 1.860  0.5571  151.6   4.457   66.2  0.0963   61.0  0.1864 -156.8
 1.880  0.5578  151.1   4.410   65.9  0.0973   60.9  0.1866 -157.1
 1.900  0.5585  150.7   4.363   65.5  0.0982   60.7  0.1868 -157.5
 1.920  0.5590  150.3   4.320   65.2  0.0991   60.5  0.1870 -157.9
 1.940  0.5595  149.9   4.278   64.8  0.1000   60.4  0.1873 -158.2
 1.960  0.5600  149.5   4.235   64.4  0.1010   60.2  0.1876 -158.6
 1.980  0.5605  149.1   4.193   64.1  0.1019   60.1  0.1878 -158.9
 2.000  0.5611  148.7   4.151   63.7  0.1028   59.9  0.1881 -159.3
 2.020  0.5618  148.3   4.113   63.4  0.1037   59.7  0.1885 -159.7
 2.040  0.5624  147.9   4.074   63.1  0.1047   59.5  0.1888 -160.0
 2.060  0.5632  147.5   4.036   62.8  0.1056   59.4  0.1892 -160.4
 2.080  0.5639  147.1   3.998   62.5  0.1065   59.2  0.1896 -160.8
 2.100  0.5647  146.7   3.960   62.1  0.1074   59.0  0.1900 -161.1
 2.120  0.5655  146.3   3.923   61.8  0.1084   58.8  0.1904 -161.5
 2.140  0.5663  146.0   3.885   61.5  0.1093   58.7  0.1908 -161.8
 2.160  0.5671  145.6   3.848   61.1  0.1102   58.5  0.1912 -162.2
 2.180  0.5680  145.2   3.810   60.8  0.1112   58.4  0.1917 -162.5
 2.200  0.5689  144.8   3.773   60.4  0.1121   58.2  0.1921 -162.9
 2.220  0.5696  144.4   3.741   60.1  0.1130   58.0  0.1926 -163.3
 2.240  0.5702  144.0   3.709   59.8  0.1139   57.8  0.1931 -163.7
 2.260  0.5709  143.6   3.678   59.4  0.1148   57.6  0.1936 -164.0
 2.280  0.5717  143.3   3.646   59.1  0.1157   57.4  0.1941 -164.4
 2.300  0.5724  142.9   3.615   58.8  0.1166   57.3  0.1946 -164.8
 2.320  0.5732  142.5   3.584   58.4  0.1175   57.1  0.1951 -165.1
 2.340  0.5740  142.1   3.553   58.1  0.1184   56.9  0.1957 -165.5
 2.360  0.5749  141.8   3.522   57.7  0.1193   56.7  0.1962 -165.9
 2.380  0.5757  141.4   3.491   57.4  0.1202   56.6  0.1967 -166.2
 2.400  0.5766  141.0   3.460   57.0  0.1211   56.4  0.1973 -166.6
 2.420  0.5773  140.6   3.433   56.7  0.1220   56.2  0.1980 -167.0
 2.440  0.5781  140.3   3.406   56.4  0.1228   56.0  0.1986 -167.3
 2.460  0.5789  139.9   3.379   56.1  0.1237   55.8  0.1993 -167.7
 2.480  0.5797  139.5   3.352   55.8  0.1246   55.6  0.2000 -168.1
 2.500  0.5805  139.1   3.325   55.5  0.1254   55.5  0.2007 -168.4
 2.520  0.5813  138.8   3.298   55.1  0.1263   55.3  0.2014 -168.8
 2.540  0.5822  138.4   3.271   54.8  0.1272   55.1  0.2021 -169.1
 2.560  0.5831  138.0   3.245   54.5  0.1281   54.9  0.2028 -169.5
 2.580  0.5841  137.7   3.218   54.1  0.1289   54.8  0.2036 -169.9
 2.600  0.5850  137.3   3.192   53.8  0.1298   54.6  0.2043 -170.2
 2.620  0.5857  137.0   3.169   53.5  0.1306   54.4  0.2051 -170.5
 2.640  0.5864  136.6   3.145   53.2  0.1315   54.2  0.2059 -170.9
 2.660  0.5871  136.3   3.122   52.9  0.1323   54.0  0.2067 -171.2
 2.680  0.5879  135.9   3.099   52.6  0.1331   53.8  0.2075 -171.6
 2.700  0.5886  135.6   3.076   52.3  0.1340   53.6  0.2084 -171.9
 2.720  0.5894  135.2   3.053   52.0  0.1348   53.4  0.2092 -172.2
 2.740  0.5902  134.9   3.030   51.7  0.1357   53.2  0.2100 -172.5
 2.760  0.5911  134.6   3.007   51.4  0.1365   53.1  0.2109 -172.9
 2.780  0.5919  134.2   2.985   51.0  0.1374   52.9  0.2117 -173.2
 2.800  0.5928  133.9   2.962   50.7  0.1382   52.7  0.2126 -173.5
 2.820  0.5935  133.6   2.941   50.4  0.1390   52.5  0.2135 -173.8
 2.840  0.5942  133.3   2.921   50.1  0.1398   52.3  0.2143 -174.1
 2.860  0.5950  132.9   2.900   49.8  0.1407   52.1  0.2152 -174.4
 2.880  0.5957  132.6   2.879   49.5  0.1415   52.0  0.2160 -174.7
 2.900  0.5965  132.3   2.859   49.2  0.1423   51.8  0.2169 -175.0
 2.920  0.5973  132.0   2.839   48.9  0.1432   51.6  0.2178 -175.3
 2.940  0.5981  131.7   2.818   48.6  0.1440   51.4  0.2187 -175.6
 2.960  0.5990  131.3   2.798   48.3  0.1448   51.2  0.2196 -175.9
 2.980  0.5998  131.0   2.778   47.9  0.1457   51.1  0.2205 -176.2
 3.000  0.6007  130.7   2.758   47.6  0.1465   50.9  0.2214 -176.5
 3.100  0.6042  129.1   2.674   46.3  0.1503   49.9  0.2258 -178.0
 3.200  0.6083  127.5   2.591   44.9  0.1541   48.9  0.2303 -179.4
 3.300  0.6128  125.9   2.510   43.4  0.1580   47.9  0.2349  179.2
 3.400  0.6177  124.3   2.430   41.9  0.1619   47.0  0.2397  177.9
 3.500  0.6231  122.8   2.353   40.2  0.1659   46.2  0.2446  176.6
 3.600  0.6278  121.4   2.289   39.0  0.1693   45.2  0.2496  175.0
 3.700  0.6328  119.9   2.225   37.7  0.1727   44.2  0.2548  173.5
 3.800  0.6382  118.5   2.163   36.3  0.1761   43.3  0.2601  172.0
 3.900  0.6440  117.2   2.102   34.8  0.1797   42.4  0.2656  170.6
 4.000  0.6502  115.8   2.043   33.3  0.1832   41.6  0.2713  169.2
 4.100  0.6547  114.6   1.992   32.1  0.1862   40.7  0.2773  167.8
 4.200  0.6595  113.4   1.942   30.9  0.1892   39.9  0.2836  166.4
 4.300  0.6646  112.2   1.893   29.7  0.1923   39.1  0.2899  165.1
 4.400  0.6700  111.0   1.845   28.3  0.1954   38.3  0.2964  163.8
 4.500  0.6756  109.9   1.798   26.9  0.1986   37.5  0.3031  162.6
 4.600  0.6789  108.8   1.759   25.8  0.2016   36.7  0.3079  161.6
 4.700  0.6824  107.7   1.720   24.7  0.2046   36.0  0.3128  160.6
 4.800  0.6861  106.7   1.682   23.5  0.2076   35.3  0.3177  159.7
 4.900  0.6901  105.6   1.645   22.3  0.2107   34.6  0.3228  158.8
 5.000  0.6943  104.6   1.609   21.0  0.2138   33.9  0.3279  157.9
 5.100  0.6965  103.7   1.579   20.0  0.2170   33.1  0.3311  157.1
 5.200  0.6988  102.7   1.549   19.0  0.2203   32.4  0.3343  156.3
 5.300  0.7014  101.8   1.520   17.9  0.2236   31.6  0.3376  155.5
 5.400  0.7041  100.9   1.492   16.8  0.2270   30.9  0.3409  154.7
 5.500  0.7070  100.0   1.464   15.7  0.2304   30.2  0.3443  154.0
 5.600  0.7086   99.2   1.440   14.7  0.2334   29.3  0.3479  153.3
 5.700  0.7103   98.4   1.417   13.6  0.2364   28.5  0.3515  152.6
 5.800  0.7122   97.6   1.395   12.5  0.2394   27.7  0.3551  151.9
 5.900  0.7142   96.8   1.373   11.4  0.2425   26.9  0.3588  151.2
 6.000  0.7164   96.0   1.351   10.2  0.2457   26.1  0.3626  150.5
 6.100  0.7164   95.2   1.331    9.2  0.2483   25.3  0.3649  150.0
 6.200  0.7166   94.5   1.311    8.3  0.2510   24.5  0.3673  149.6
 6.300  0.7169   93.7   1.292    7.2  0.2537   23.8  0.3697  149.1
 6.400  0.7173   93.0   1.273    6.2  0.2564   23.0  0.3721  148.6
 6.500  0.7179   92.2   1.254    5.1  0.2592   22.3  0.3745  148.2
 6.600  0.7171   91.3   1.239    4.2  0.2622   21.6  0.3741  147.8
 6.800  0.7161   89.4   1.209    2.2  0.2684   20.2  0.3732  147.0
 7.000  0.7158   87.6   1.181    0.2  0.2748   18.8  0.3725  146.2
 7.200  0.7170   85.4   1.157   -1.9  0.2814   17.1  0.3722  144.7
 7.400  0.7193   83.3   1.135   -4.1  0.2882   15.4  0.3722  143.2
 7.600  0.7228   80.9   1.112   -6.4  0.2946   13.6  0.3741  141.4
 7.800  0.7277   78.5   1.090   -8.7  0.3006   11.6  0.3781  139.2
 8.000  0.7340   76.0   1.069  -11.2  0.3070    9.7  0.3827  137.0
 8.200  0.7381   73.4   1.041  -13.5  0.3108    7.5  0.3872  134.2
 8.400  0.7437   70.9   1.015  -15.9  0.3151    5.4  0.3927  131.4
 8.600  0.7514   68.4   0.989  -18.3  0.3176    3.2  0.3996  128.1
 8.800  0.7610   66.1   0.961  -20.5  0.3183    1.1  0.4087  124.3
 9.000  0.7719   63.9   0.935  -22.9  0.3195   -1.0  0.4196  120.7
 9.200  0.7860   62.0   0.904  -24.6  0.3179   -2.6  0.4364  116.5
 9.400  0.8010   60.3   0.874  -26.5  0.3166   -4.2  0.4554  112.7
 9.600  0.8140   58.7   0.845  -28.1  0.3152   -5.5  0.4748  109.4
 9.800  0.8251   57.2   0.817  -29.5  0.3137   -6.4  0.4941  106.5
10.000  0.8366   55.8   0.789  -30.9  0.3122   -7.4  0.5146  103.8
!
!  f       NFmin   Gammaopt  rn/50
! GHz       dB    MAG  ANG    -
 0.450      2.02  0.36 -170   0.13
 0.900      2.06  0.34 -160   0.14
 1.900      2.16  0.44 -139   0.17
 3.500      1.86  0.70 -115   0.32
!
! (c) 2016  Infineon Technologies AG, Munich
