! Infineon Technologies  Discrete & RF Semiconductors
! BFP460
! VCE =  1.5 V,  IC =  5.0 mA
! Common Emitter S-Parameters:                            Jan 2016
# GHz  S  MA  R  50
!  f         S11            S21            S12            S22
! GHz     MAG   ANG      MAG   ANG      MAG   ANG      MAG   ANG
 0.030  0.8664   -6.0  16.334  176.3  0.0066   86.6  0.9836   -4.2
 0.035  0.8666   -7.0  16.321  175.5  0.0077   85.9  0.9827   -4.8
 0.040  0.8671   -8.0  16.312  174.6  0.0088   85.3  0.9819   -5.5
 0.045  0.8667   -9.0  16.265  173.6  0.0098   84.5  0.9811   -6.1
 0.050  0.8665  -10.1  16.222  172.6  0.0108   83.8  0.9805   -6.8
 0.055  0.8660  -11.1  16.207  172.1  0.0119   83.6  0.9791   -7.5
 0.060  0.8658  -12.2  16.193  171.6  0.0131   83.5  0.9779   -8.2
 0.065  0.8636  -13.2  16.239  170.8  0.0141   82.8  0.9766   -8.9
 0.070  0.8616  -14.3  16.289  170.0  0.0151   82.2  0.9754   -9.6
 0.075  0.8610  -15.2  16.239  169.5  0.0162   81.8  0.9739  -10.2
 0.080  0.8606  -16.2  16.191  169.0  0.0174   81.5  0.9725  -10.9
 0.085  0.8594  -17.2  16.167  168.3  0.0184   80.9  0.9706  -11.6
 0.090  0.8584  -18.3  16.145  167.6  0.0194   80.3  0.9688  -12.3
 0.095  0.8571  -19.2  16.070  167.0  0.0204   79.7  0.9669  -12.9
 0.100  0.8561  -20.1  15.996  166.4  0.0214   79.2  0.9652  -13.6
 0.105  0.8549  -21.0  15.981  165.8  0.0224   78.6  0.9629  -14.2
 0.110  0.8539  -22.0  15.969  165.1  0.0234   78.1  0.9608  -14.9
 0.115  0.8519  -23.0  15.943  164.4  0.0244   77.5  0.9586  -15.6
 0.120  0.8502  -24.1  15.919  163.7  0.0255   76.9  0.9565  -16.3
 0.125  0.8476  -25.0  15.872  163.1  0.0265   76.4  0.9538  -16.9
 0.130  0.8452  -26.0  15.827  162.5  0.0275   76.0  0.9513  -17.5
 0.135  0.8442  -26.9  15.796  161.8  0.0285   75.5  0.9487  -18.1
 0.140  0.8435  -27.9  15.768  161.1  0.0295   75.1  0.9462  -18.8
 0.145  0.8397  -28.9  15.695  160.5  0.0304   74.5  0.9434  -19.4
 0.150  0.8362  -29.9  15.624  159.8  0.0314   74.0  0.9407  -20.1
 0.155  0.8334  -30.8  15.567  159.2  0.0323   73.4  0.9371  -20.7
 0.160  0.8308  -31.7  15.512  158.6  0.0332   72.8  0.9337  -21.3
 0.165  0.8285  -32.6  15.459  158.0  0.0341   72.3  0.9303  -21.9
 0.170  0.8263  -33.5  15.407  157.4  0.0350   71.8  0.9270  -22.5
 0.175  0.8244  -34.4  15.357  156.8  0.0359   71.3  0.9238  -23.1
 0.180  0.8227  -35.4  15.308  156.2  0.0368   70.8  0.9208  -23.7
 0.185  0.8211  -36.3  15.262  155.6  0.0377   70.4  0.9178  -24.3
 0.190  0.8198  -37.2  15.217  155.0  0.0386   70.0  0.9150  -24.9
 0.195  0.8188  -38.2  15.174  154.3  0.0395   69.6  0.9122  -25.6
 0.200  0.8179  -39.1  15.133  153.7  0.0404   69.2  0.9096  -26.2
 0.220  0.8063  -42.6  14.873  151.5  0.0436   67.3  0.8945  -28.5
 0.240  0.7979  -46.3  14.636  149.2  0.0469   65.6  0.8809  -30.8
 0.260  0.7888  -49.7  14.385  147.0  0.0500   64.0  0.8664  -33.0
 0.280  0.7786  -53.0  14.115  144.9  0.0529   62.4  0.8507  -35.1
 0.300  0.7709  -56.3  13.864  142.8  0.0558   60.9  0.8361  -37.3
 0.320  0.7590  -59.4  13.584  140.9  0.0583   59.4  0.8199  -39.2
 0.340  0.7495  -62.7  13.320  138.8  0.0608   58.0  0.8047  -41.2
 0.360  0.7399  -65.7  13.055  136.9  0.0632   56.6  0.7893  -43.1
 0.380  0.7300  -68.6  12.787  135.2  0.0653   55.3  0.7737  -44.8
 0.400  0.7220  -71.6  12.531  133.3  0.0675   54.1  0.7589  -46.7
 0.420  0.7112  -74.3  12.263  131.7  0.0694   52.9  0.7439  -48.3
 0.440  0.7020  -77.2  12.005  130.0  0.0713   51.8  0.7296  -49.9
 0.450  0.6981  -78.6  11.880  129.1  0.0723   51.3  0.7226  -50.8
 0.460  0.6932  -79.8  11.754  128.4  0.0731   50.8  0.7153  -51.5
 0.480  0.6843  -82.3  11.508  126.9  0.0747   49.8  0.7012  -53.0
 0.500  0.6768  -84.9  11.269  125.4  0.0764   48.9  0.6875  -54.5
 0.520  0.6672  -87.2  11.034  124.2  0.0777   48.0  0.6742  -55.7
 0.540  0.6586  -89.5  10.805  122.8  0.0790   47.2  0.6612  -57.0
 0.560  0.6512  -91.9  10.581  121.5  0.0804   46.4  0.6486  -58.4
 0.580  0.6449  -94.3  10.364  120.1  0.0817   45.6  0.6364  -59.8
 0.600  0.6398  -96.8  10.153  118.6  0.0831   44.8  0.6245  -61.2
 0.620  0.6322  -98.8   9.949  117.5  0.0841   44.1  0.6131  -62.3
 0.640  0.6254 -100.8   9.749  116.4  0.0852   43.5  0.6019  -63.4
 0.660  0.6194 -102.9   9.553  115.3  0.0862   42.8  0.5910  -64.6
 0.680  0.6142 -105.0   9.361  114.1  0.0873   42.2  0.5803  -65.8
 0.700  0.6098 -107.1   9.173  112.8  0.0884   41.6  0.5699  -67.0
 0.720  0.6039 -108.9   9.001  111.9  0.0892   41.1  0.5603  -67.9
 0.740  0.5986 -110.7   8.831  110.9  0.0901   40.6  0.5508  -68.9
 0.760  0.5938 -112.5   8.663  109.9  0.0909   40.1  0.5416  -69.9
 0.780  0.5898 -114.4   8.499  108.9  0.0917   39.6  0.5324  -70.9
 0.800  0.5863 -116.3   8.337  107.8  0.0926   39.1  0.5235  -72.0
 0.820  0.5818 -117.9   8.193  107.0  0.0933   38.7  0.5155  -72.8
 0.840  0.5777 -119.5   8.050  106.1  0.0940   38.3  0.5075  -73.7
 0.860  0.5741 -121.2   7.909  105.3  0.0947   37.9  0.4997  -74.6
 0.880  0.5709 -122.8   7.770  104.3  0.0954   37.6  0.4921  -75.5
 0.900  0.5683 -124.5   7.633  103.4  0.0961   37.2  0.4845  -76.4
 0.920  0.5645 -125.9   7.508  102.7  0.0967   36.9  0.4778  -77.1
 0.940  0.5610 -127.4   7.384  101.9  0.0974   36.6  0.4711  -77.9
 0.960  0.5579 -128.9   7.261  101.1  0.0980   36.3  0.4646  -78.7
 0.980  0.5551 -130.4   7.140  100.3  0.0987   36.0  0.4581  -79.5
 1.000  0.5528 -131.9   7.021   99.4  0.0993   35.7  0.4517  -80.3
 1.020  0.5500 -133.2   6.913   98.7  0.0998   35.5  0.4459  -81.0
 1.040  0.5475 -134.5   6.805   98.0  0.1004   35.2  0.4402  -81.7
 1.060  0.5454 -135.9   6.699   97.3  0.1009   35.0  0.4346  -82.4
 1.080  0.5435 -137.2   6.593   96.6  0.1015   34.7  0.4290  -83.1
 1.100  0.5419 -138.6   6.489   95.8  0.1020   34.5  0.4235  -83.9
 1.120  0.5396 -139.8   6.395   95.2  0.1025   34.3  0.4186  -84.5
 1.140  0.5375 -141.0   6.303   94.5  0.1030   34.1  0.4137  -85.2
 1.160  0.5356 -142.2   6.210   93.9  0.1035   34.0  0.4089  -85.8
 1.180  0.5340 -143.5   6.119   93.2  0.1040   33.8  0.4041  -86.5
 1.200  0.5326 -144.7   6.029   92.5  0.1045   33.6  0.3994  -87.2
 1.220  0.5312 -145.8   5.947   91.9  0.1050   33.4  0.3953  -87.8
 1.240  0.5301 -147.0   5.866   91.3  0.1055   33.3  0.3911  -88.4
 1.260  0.5291 -148.1   5.786   90.7  0.1060   33.1  0.3871  -89.0
 1.280  0.5283 -149.3   5.706   90.1  0.1065   33.0  0.3831  -89.7
 1.300  0.5278 -150.4   5.627   89.5  0.1070   32.8  0.3791  -90.3
 1.320  0.5264 -151.4   5.555   88.9  0.1075   32.7  0.3754  -90.9
 1.340  0.5251 -152.5   5.484   88.4  0.1079   32.6  0.3717  -91.4
 1.360  0.5240 -153.5   5.413   87.8  0.1084   32.4  0.3680  -92.0
 1.380  0.5231 -154.6   5.343   87.2  0.1088   32.3  0.3644  -92.6
 1.400  0.5224 -155.6   5.273   86.6  0.1093   32.2  0.3608  -93.2
 1.420  0.5213 -156.6   5.210   86.1  0.1098   32.1  0.3577  -93.7
 1.440  0.5204 -157.6   5.147   85.5  0.1102   32.0  0.3546  -94.3
 1.460  0.5197 -158.6   5.084   85.0  0.1107   31.9  0.3516  -94.8
 1.480  0.5191 -159.6   5.022   84.4  0.1111   31.8  0.3486  -95.3
 1.500  0.5187 -160.6   4.961   83.8  0.1116   31.7  0.3456  -95.9
 1.520  0.5179 -161.5   4.904   83.3  0.1120   31.6  0.3427  -96.4
 1.540  0.5173 -162.4   4.847   82.8  0.1124   31.6  0.3399  -97.0
 1.560  0.5167 -163.4   4.791   82.3  0.1128   31.5  0.3370  -97.5
 1.580  0.5164 -164.3   4.735   81.7  0.1132   31.5  0.3343  -98.0
 1.600  0.5161 -165.2   4.679   81.2  0.1136   31.4  0.3315  -98.6
 1.620  0.5157 -166.0   4.630   80.7  0.1141   31.3  0.3291  -99.1
 1.640  0.5154 -166.9   4.581   80.2  0.1145   31.2  0.3268  -99.6
 1.660  0.5152 -167.7   4.532   79.7  0.1150   31.2  0.3245 -100.1
 1.680  0.5152 -168.6   4.484   79.2  0.1154   31.1  0.3222 -100.6
 1.700  0.5152 -169.4   4.436   78.7  0.1159   31.0  0.3199 -101.1
 1.720  0.5150 -170.2   4.390   78.2  0.1164   30.9  0.3178 -101.6
 1.740  0.5148 -171.0   4.344   77.8  0.1168   30.9  0.3157 -102.1
 1.760  0.5148 -171.9   4.298   77.3  0.1173   30.8  0.3136 -102.6
 1.780  0.5149 -172.7   4.253   76.8  0.1177   30.8  0.3115 -103.1
 1.800  0.5151 -173.5   4.208   76.3  0.1182   30.7  0.3095 -103.6
 1.820  0.5150 -174.3   4.167   75.9  0.1186   30.6  0.3076 -104.1
 1.840  0.5151 -175.1   4.127   75.4  0.1191   30.6  0.3057 -104.5
 1.860  0.5152 -175.8   4.087   74.9  0.1195   30.5  0.3038 -105.0
 1.880  0.5154 -176.6   4.047   74.5  0.1200   30.5  0.3019 -105.5
 1.900  0.5157 -177.4   4.008   74.0  0.1204   30.4  0.3001 -106.0
 1.920  0.5156 -178.2   3.971   73.6  0.1208   30.3  0.2984 -106.5
 1.940  0.5155 -178.9   3.934   73.1  0.1212   30.3  0.2968 -106.9
 1.960  0.5155 -179.7   3.897   72.6  0.1217   30.2  0.2951 -107.4
 1.980  0.5157  179.6   3.861   72.2  0.1221   30.2  0.2935 -107.9
 2.000  0.5159  178.8   3.825   71.7  0.1225   30.1  0.2919 -108.4
 2.020  0.5161  178.1   3.791   71.3  0.1230   30.0  0.2904 -108.9
 2.040  0.5163  177.4   3.758   70.9  0.1234   30.0  0.2889 -109.3
 2.060  0.5167  176.7   3.725   70.5  0.1239   29.9  0.2875 -109.8
 2.080  0.5171  176.0   3.692   70.0  0.1243   29.9  0.2860 -110.3
 2.100  0.5176  175.3   3.659   69.6  0.1248   29.8  0.2846 -110.8
 2.120  0.5182  174.6   3.626   69.2  0.1253   29.8  0.2832 -111.3
 2.140  0.5188  173.9   3.594   68.7  0.1257   29.7  0.2818 -111.8
 2.160  0.5195  173.2   3.562   68.2  0.1262   29.7  0.2805 -112.3
 2.180  0.5203  172.5   3.530   67.8  0.1266   29.6  0.2791 -112.8
 2.200  0.5212  171.8   3.498   67.3  0.1271   29.6  0.2778 -113.3
 2.220  0.5215  171.2   3.470   66.9  0.1275   29.6  0.2766 -113.8
 2.240  0.5219  170.5   3.442   66.5  0.1280   29.5  0.2754 -114.3
 2.260  0.5223  169.9   3.414   66.1  0.1284   29.5  0.2742 -114.8
 2.280  0.5228  169.2   3.386   65.7  0.1289   29.4  0.2731 -115.3
 2.300  0.5233  168.6   3.358   65.3  0.1293   29.4  0.2719 -115.7
 2.320  0.5240  167.9   3.331   64.9  0.1297   29.4  0.2708 -116.3
 2.340  0.5246  167.3   3.304   64.4  0.1302   29.3  0.2697 -116.8
 2.360  0.5254  166.7   3.277   64.0  0.1306   29.3  0.2687 -117.3
 2.380  0.5262  166.0   3.250   63.6  0.1311   29.2  0.2676 -117.8
 2.400  0.5271  165.4   3.223   63.1  0.1315   29.2  0.2666 -118.3
 2.420  0.5277  164.8   3.199   62.7  0.1319   29.1  0.2657 -118.8
 2.440  0.5284  164.2   3.174   62.3  0.1324   29.1  0.2648 -119.3
 2.460  0.5291  163.6   3.150   62.0  0.1328   29.0  0.2640 -119.8
 2.480  0.5299  163.0   3.126   61.6  0.1333   29.0  0.2631 -120.3
 2.500  0.5307  162.4   3.102   61.2  0.1337   28.9  0.2623 -120.9
 2.520  0.5316  161.8   3.078   60.8  0.1342   28.9  0.2615 -121.4
 2.540  0.5326  161.2   3.055   60.4  0.1346   28.8  0.2608 -121.9
 2.560  0.5336  160.6   3.031   59.9  0.1351   28.8  0.2600 -122.4
 2.580  0.5347  160.0   3.008   59.5  0.1355   28.7  0.2593 -123.0
 2.600  0.5358  159.4   2.985   59.1  0.1360   28.7  0.2586 -123.5
 2.620  0.5363  158.9   2.964   58.7  0.1364   28.6  0.2580 -124.0
 2.640  0.5369  158.3   2.943   58.4  0.1369   28.6  0.2575 -124.5
 2.660  0.5375  157.8   2.922   58.0  0.1373   28.5  0.2569 -125.0
 2.680  0.5382  157.2   2.901   57.6  0.1377   28.5  0.2564 -125.5
 2.700  0.5390  156.7   2.880   57.2  0.1381   28.4  0.2559 -126.0
 2.720  0.5397  156.1   2.859   56.8  0.1386   28.4  0.2554 -126.5
 2.740  0.5405  155.6   2.839   56.4  0.1390   28.3  0.2550 -127.0
 2.760  0.5414  155.1   2.818   56.0  0.1394   28.3  0.2545 -127.6
 2.780  0.5423  154.5   2.798   55.6  0.1399   28.2  0.2541 -128.1
 2.800  0.5433  154.0   2.778   55.2  0.1403   28.2  0.2537 -128.6
 2.820  0.5440  153.5   2.759   54.8  0.1407   28.1  0.2533 -129.1
 2.840  0.5448  153.0   2.740   54.5  0.1412   28.1  0.2530 -129.6
 2.860  0.5456  152.5   2.722   54.1  0.1416   28.0  0.2527 -130.1
 2.880  0.5465  151.9   2.703   53.7  0.1421   28.0  0.2524 -130.6
 2.900  0.5474  151.4   2.685   53.4  0.1425   27.9  0.2521 -131.1
 2.920  0.5484  150.9   2.667   53.0  0.1430   27.9  0.2518 -131.6
 2.940  0.5494  150.4   2.649   52.6  0.1434   27.8  0.2516 -132.1
 2.960  0.5504  149.9   2.631   52.2  0.1439   27.8  0.2514 -132.6
 2.980  0.5515  149.4   2.613   51.8  0.1443   27.7  0.2512 -133.1
 3.000  0.5526  148.9   2.595   51.4  0.1448   27.7  0.2510 -133.6
 3.100  0.5557  146.5   2.516   49.9  0.1470   27.4  0.2504 -135.9
 3.200  0.5598  144.2   2.440   48.2  0.1492   27.1  0.2501 -138.2
 3.300  0.5648  141.9   2.366   46.4  0.1514   26.8  0.2503 -140.5
 3.400  0.5706  139.6   2.293   44.6  0.1536   26.6  0.2508 -142.8
 3.500  0.5774  137.4   2.224   42.6  0.1558   26.3  0.2518 -145.1
 3.600  0.5819  135.4   2.164   41.2  0.1579   26.0  0.2524 -147.5
 3.700  0.5872  133.4   2.105   39.6  0.1600   25.6  0.2535 -149.8
 3.800  0.5932  131.4   2.047   38.0  0.1621   25.3  0.2550 -152.1
 3.900  0.5998  129.5   1.992   36.3  0.1643   25.0  0.2569 -154.4
 4.000  0.6071  127.6   1.938   34.5  0.1664   24.7  0.2592 -156.7
 4.100  0.6120  126.0   1.890   33.1  0.1684   24.4  0.2622 -158.9
 4.200  0.6174  124.4   1.843   31.7  0.1705   24.1  0.2655 -161.0
 4.300  0.6233  122.8   1.797   30.2  0.1725   23.8  0.2692 -163.1
 4.400  0.6296  121.2   1.752   28.6  0.1746   23.5  0.2733 -165.1
 4.500  0.6364  119.7   1.709   26.9  0.1766   23.2  0.2777 -167.1
 4.600  0.6401  118.3   1.671   25.7  0.1787   22.9  0.2814 -168.7
 4.700  0.6441  117.0   1.634   24.4  0.1809   22.7  0.2854 -170.2
 4.800  0.6485  115.6   1.597   23.1  0.1830   22.5  0.2895 -171.7
 4.900  0.6532  114.3   1.562   21.7  0.1852   22.2  0.2939 -173.1
 5.000  0.6583  113.0   1.527   20.2  0.1873   22.0  0.2984 -174.5
 5.100  0.6610  111.9   1.497   19.1  0.1899   21.7  0.3017 -175.7
 5.200  0.6640  110.7   1.468   17.9  0.1925   21.4  0.3051 -176.8
 5.300  0.6672  109.6   1.440   16.6  0.1951   21.1  0.3087 -177.9
 5.400  0.6707  108.5   1.412   15.3  0.1978   20.8  0.3123 -179.0
 5.500  0.6744  107.4   1.385   14.0  0.2004   20.5  0.3161 -180.0
 5.600  0.6769  106.5   1.362   12.9  0.2030   20.0  0.3203  178.9
 5.700  0.6795  105.6   1.339   11.8  0.2056   19.5  0.3247  177.8
 5.800  0.6824  104.7   1.317   10.6  0.2082   19.1  0.3291  176.8
 5.900  0.6853  103.8   1.295    9.4  0.2109   18.6  0.3336  175.8
 6.000  0.6885  102.9   1.274    8.1  0.2135   18.2  0.3383  174.8
 6.100  0.6890  102.0   1.254    7.0  0.2159   17.8  0.3421  174.0
 6.200  0.6898  101.1   1.234    5.9  0.2183   17.3  0.3459  173.2
 6.300  0.6907  100.1   1.214    4.8  0.2207   16.9  0.3498  172.5
 6.400  0.6917   99.2   1.195    3.6  0.2232   16.5  0.3537  171.7
 6.500  0.6930   98.3   1.177    2.4  0.2256   16.1  0.3577  171.0
 6.600  0.6927   97.3   1.161    1.4  0.2284   15.7  0.3591  170.5
 6.800  0.6928   95.4   1.131   -0.6  0.2340   14.8  0.3619  169.5
 7.000  0.6936   93.4   1.103   -2.8  0.2397   14.0  0.3649  168.5
 7.200  0.6958   91.0   1.079   -4.9  0.2462   12.8  0.3665  166.8
 7.400  0.6993   88.7   1.056   -7.2  0.2528   11.7  0.3684  165.2
 7.600  0.7039   86.1   1.033   -9.5  0.2593   10.4  0.3714  163.1
 7.800  0.7101   83.4   1.012  -11.9  0.2657    8.9  0.3758  160.6
 8.000  0.7179   80.8   0.992  -14.5  0.2724    7.5  0.3809  158.1
 8.200  0.7235   77.9   0.966  -16.8  0.2774    5.6  0.3851  155.0
 8.400  0.7309   75.1   0.942  -19.3  0.2827    3.9  0.3904  152.0
 8.600  0.7400   72.4   0.917  -21.7  0.2864    2.0  0.3958  148.3
 8.800  0.7506   69.8   0.891  -23.9  0.2886    0.2  0.4023  144.0
 9.000  0.7628   67.3   0.866  -26.3  0.2912   -1.7  0.4110  139.9
 9.200  0.7774   65.2   0.837  -28.2  0.2912   -3.2  0.4248  134.9
 9.400  0.7930   63.3   0.809  -30.2  0.2914   -4.7  0.4416  130.2
 9.600  0.8064   61.5   0.781  -31.9  0.2914   -5.9  0.4602  126.0
 9.800  0.8175   59.9   0.754  -33.4  0.2911   -6.8  0.4799  122.4
10.000  0.8293   58.3   0.727  -35.0  0.2908   -7.7  0.5015  119.0
!
!  f       NFmin   Gammaopt  rn/50
! GHz       dB    MAG  ANG    -
 0.450      0.78  0.33   16   0.17
 0.900      0.80  0.34   31   0.17
 1.900      1.06  0.17   97   0.13
 3.500      1.24  0.33 -153   0.10
!
! (c) 2016  Infineon Technologies AG, Munich
