! Infineon Technologies  Discrete & RF Semiconductors
! BFP460
! VCE =  4.0 V,  IC =  1.0 mA
! Common Emitter S-Parameters:                            Jan 2016
# GHz  S  MA  R  50
!  f         S11            S21            S12            S22
! GHz     MAG   ANG      MAG   ANG      MAG   ANG      MAG   ANG
 0.030  0.9729   -2.4   3.687  178.1  0.0060   86.6  0.9986   -1.6
 0.035  0.9735   -2.8   3.681  177.7  0.0070   87.1  0.9982   -1.8
 0.040  0.9742   -3.2   3.675  177.2  0.0081   87.5  0.9978   -2.0
 0.045  0.9754   -3.7   3.667  176.7  0.0091   87.5  0.9976   -2.1
 0.050  0.9767   -4.2   3.659  176.2  0.0102   87.5  0.9974   -2.2
 0.055  0.9745   -4.7   3.660  176.0  0.0111   87.2  0.9973   -2.4
 0.060  0.9723   -5.3   3.662  175.9  0.0121   86.9  0.9972   -2.7
 0.065  0.9733   -5.7   3.677  175.4  0.0131   86.5  0.9972   -2.9
 0.070  0.9744   -6.0   3.692  175.0  0.0142   86.2  0.9973   -3.1
 0.075  0.9751   -6.4   3.682  174.9  0.0151   85.7  0.9972   -3.3
 0.080  0.9758   -6.7   3.673  174.8  0.0161   85.3  0.9971   -3.6
 0.085  0.9755   -7.1   3.677  174.4  0.0171   85.0  0.9965   -3.8
 0.090  0.9753   -7.5   3.681  174.1  0.0182   84.7  0.9959   -4.0
 0.095  0.9751   -8.0   3.669  173.8  0.0192   84.4  0.9956   -4.2
 0.100  0.9749   -8.5   3.658  173.4  0.0202   84.1  0.9954   -4.5
 0.105  0.9749   -8.9   3.661  173.1  0.0211   83.8  0.9950   -4.7
 0.110  0.9749   -9.3   3.665  172.9  0.0220   83.6  0.9947   -4.9
 0.115  0.9743   -9.6   3.668  172.5  0.0230   83.3  0.9945   -5.1
 0.120  0.9738  -10.0   3.672  172.2  0.0241   83.1  0.9943   -5.4
 0.125  0.9721  -10.4   3.672  171.9  0.0251   82.9  0.9939   -5.6
 0.130  0.9705  -10.9   3.672  171.7  0.0261   82.7  0.9936   -5.8
 0.135  0.9704  -11.3   3.674  171.3  0.0270   82.5  0.9932   -6.0
 0.140  0.9703  -11.7   3.677  170.9  0.0280   82.3  0.9929   -6.2
 0.145  0.9704  -12.1   3.671  170.6  0.0290   81.9  0.9925   -6.4
 0.150  0.9705  -12.5   3.666  170.2  0.0301   81.5  0.9922   -6.7
 0.155  0.9698  -12.9   3.665  169.9  0.0311   81.2  0.9917   -6.9
 0.160  0.9691  -13.3   3.664  169.6  0.0320   80.9  0.9912   -7.1
 0.165  0.9684  -13.8   3.663  169.3  0.0330   80.6  0.9908   -7.4
 0.170  0.9678  -14.2   3.663  169.0  0.0340   80.3  0.9903   -7.6
 0.175  0.9673  -14.6   3.662  168.7  0.0349   80.1  0.9899   -7.8
 0.180  0.9668  -15.0   3.662  168.3  0.0359   79.8  0.9894   -8.0
 0.185  0.9664  -15.4   3.661  168.0  0.0369   79.6  0.9890   -8.2
 0.190  0.9660  -15.9   3.661  167.7  0.0379   79.4  0.9886   -8.5
 0.195  0.9657  -16.3   3.661  167.4  0.0388   79.2  0.9883   -8.7
 0.200  0.9654  -16.7   3.661  167.1  0.0398   79.0  0.9879   -8.9
 0.220  0.9634  -18.4   3.650  165.8  0.0437   77.8  0.9856   -9.8
 0.240  0.9623  -20.1   3.640  164.5  0.0476   76.8  0.9835  -10.7
 0.260  0.9602  -21.7   3.630  163.3  0.0513   75.8  0.9811  -11.5
 0.280  0.9571  -23.2   3.618  162.0  0.0551   74.7  0.9784  -12.4
 0.300  0.9548  -24.8   3.608  160.8  0.0588   73.7  0.9758  -13.2
 0.320  0.9516  -26.5   3.594  159.5  0.0624   72.6  0.9726  -14.0
 0.340  0.9493  -28.2   3.582  158.2  0.0661   71.6  0.9695  -14.9
 0.360  0.9466  -29.9   3.568  157.0  0.0696   70.5  0.9662  -15.7
 0.380  0.9432  -31.4   3.552  155.7  0.0732   69.5  0.9627  -16.6
 0.400  0.9405  -33.0   3.538  154.5  0.0767   68.6  0.9593  -17.4
 0.420  0.9362  -34.6   3.520  153.3  0.0801   67.5  0.9556  -18.2
 0.440  0.9327  -36.2   3.503  152.0  0.0835   66.5  0.9522  -19.0
 0.450  0.9312  -37.0   3.495  151.4  0.0852   66.0  0.9505  -19.4
 0.460  0.9290  -37.8   3.486  150.8  0.0868   65.5  0.9483  -19.8
 0.480  0.9251  -39.3   3.468  149.7  0.0901   64.6  0.9439  -20.5
 0.500  0.9218  -40.8   3.452  148.5  0.0934   63.7  0.9397  -21.3
 0.520  0.9166  -42.3   3.430  147.3  0.0964   62.6  0.9353  -22.0
 0.540  0.9119  -43.8   3.410  146.2  0.0994   61.6  0.9310  -22.8
 0.560  0.9080  -45.4   3.391  145.0  0.1024   60.6  0.9268  -23.6
 0.580  0.9047  -46.9   3.373  143.8  0.1054   59.7  0.9229  -24.3
 0.600  0.9021  -48.5   3.357  142.6  0.1085   58.9  0.9191  -25.1
 0.620  0.8963  -50.0   3.334  141.5  0.1112   57.9  0.9141  -25.8
 0.640  0.8912  -51.5   3.312  140.4  0.1139   56.9  0.9092  -26.6
 0.660  0.8866  -53.0   3.292  139.2  0.1166   56.0  0.9045  -27.3
 0.680  0.8827  -54.5   3.273  138.1  0.1194   55.1  0.8999  -28.0
 0.700  0.8794  -56.0   3.255  136.9  0.1222   54.3  0.8955  -28.8
 0.720  0.8741  -57.4   3.230  135.9  0.1245   53.4  0.8905  -29.4
 0.740  0.8694  -58.8   3.206  134.8  0.1269   52.5  0.8855  -30.1
 0.760  0.8652  -60.3   3.183  133.7  0.1293   51.6  0.8807  -30.8
 0.780  0.8615  -61.7   3.162  132.6  0.1317   50.8  0.8761  -31.4
 0.800  0.8584  -63.2   3.141  131.5  0.1342   50.0  0.8715  -32.1
 0.820  0.8531  -64.6   3.118  130.5  0.1363   49.2  0.8664  -32.7
 0.840  0.8482  -66.0   3.096  129.6  0.1384   48.3  0.8615  -33.4
 0.860  0.8439  -67.4   3.075  128.6  0.1405   47.5  0.8566  -34.0
 0.880  0.8400  -68.8   3.054  127.6  0.1427   46.8  0.8518  -34.6
 0.900  0.8367  -70.2   3.035  126.6  0.1449   46.0  0.8472  -35.3
 0.920  0.8313  -71.5   3.011  125.6  0.1467   45.2  0.8423  -35.9
 0.940  0.8263  -72.9   2.989  124.6  0.1485   44.5  0.8375  -36.4
 0.960  0.8218  -74.2   2.967  123.6  0.1504   43.7  0.8328  -37.0
 0.980  0.8178  -75.6   2.946  122.6  0.1523   43.0  0.8282  -37.6
 1.000  0.8142  -77.0   2.926  121.6  0.1542   42.3  0.8237  -38.2
 1.020  0.8093  -78.3   2.903  120.7  0.1558   41.6  0.8190  -38.7
 1.040  0.8048  -79.5   2.880  119.8  0.1574   40.8  0.8144  -39.3
 1.060  0.8008  -80.8   2.858  118.8  0.1590   40.1  0.8099  -39.9
 1.080  0.7971  -82.1   2.837  117.9  0.1606   39.4  0.8055  -40.4
 1.100  0.7938  -83.4   2.817  116.9  0.1623   38.7  0.8011  -41.0
 1.120  0.7892  -84.6   2.795  116.0  0.1636   38.0  0.7966  -41.5
 1.140  0.7849  -85.8   2.773  115.2  0.1650   37.3  0.7922  -42.0
 1.160  0.7810  -87.1   2.753  114.3  0.1664   36.6  0.7878  -42.5
 1.180  0.7775  -88.3   2.732  113.4  0.1678   36.0  0.7835  -43.1
 1.200  0.7743  -89.6   2.713  112.5  0.1692   35.3  0.7793  -43.6
 1.220  0.7701  -90.8   2.692  111.7  0.1703   34.6  0.7751  -44.1
 1.240  0.7662  -92.0   2.672  110.9  0.1715   34.0  0.7709  -44.5
 1.260  0.7627  -93.3   2.652  110.0  0.1726   33.4  0.7667  -45.0
 1.280  0.7595  -94.5   2.633  109.2  0.1738   32.7  0.7626  -45.5
 1.300  0.7567  -95.8   2.614  108.3  0.1750   32.1  0.7586  -46.0
 1.320  0.7527  -97.0   2.593  107.5  0.1759   31.5  0.7545  -46.5
 1.340  0.7491  -98.1   2.573  106.7  0.1769   30.9  0.7505  -46.9
 1.360  0.7458  -99.3   2.553  105.9  0.1778   30.3  0.7465  -47.4
 1.380  0.7428 -100.5   2.534  105.0  0.1788   29.8  0.7425  -47.8
 1.400  0.7401 -101.7   2.515  104.2  0.1798   29.2  0.7386  -48.3
 1.420  0.7364 -102.8   2.496  103.4  0.1806   28.6  0.7349  -48.7
 1.440  0.7330 -104.0   2.478  102.6  0.1814   28.1  0.7312  -49.1
 1.460  0.7298 -105.1   2.460  101.8  0.1823   27.5  0.7276  -49.5
 1.480  0.7270 -106.2   2.442  101.0  0.1831   26.9  0.7240  -50.0
 1.500  0.7244 -107.4   2.425  100.2  0.1840   26.4  0.7205  -50.4
 1.520  0.7207 -108.5   2.407   99.5  0.1846   25.9  0.7168  -50.8
 1.540  0.7173 -109.6   2.389   98.8  0.1852   25.3  0.7132  -51.2
 1.560  0.7142 -110.8   2.372   98.0  0.1858   24.8  0.7096  -51.6
 1.580  0.7113 -111.9   2.355   97.3  0.1864   24.3  0.7061  -52.1
 1.600  0.7088 -113.1   2.339   96.5  0.1871   23.8  0.7026  -52.5
 1.620  0.7063 -114.1   2.322   95.8  0.1877   23.3  0.6996  -52.9
 1.640  0.7040 -115.2   2.306   95.1  0.1882   22.8  0.6967  -53.3
 1.660  0.7020 -116.3   2.289   94.4  0.1888   22.4  0.6938  -53.6
 1.680  0.7002 -117.3   2.273   93.6  0.1894   21.9  0.6909  -54.0
 1.700  0.6986 -118.4   2.258   92.9  0.1900   21.4  0.6881  -54.4
 1.720  0.6959 -119.4   2.242   92.2  0.1904   20.9  0.6850  -54.8
 1.740  0.6935 -120.5   2.227   91.5  0.1908   20.4  0.6819  -55.1
 1.760  0.6913 -121.6   2.211   90.8  0.1912   19.9  0.6788  -55.5
 1.780  0.6894 -122.6   2.197   90.1  0.1917   19.4  0.6757  -55.9
 1.800  0.6877 -123.7   2.182   89.4  0.1921   18.9  0.6727  -56.3
 1.820  0.6852 -124.7   2.167   88.8  0.1924   18.5  0.6698  -56.7
 1.840  0.6830 -125.7   2.153   88.1  0.1927   18.0  0.6670  -57.1
 1.860  0.6810 -126.7   2.139   87.4  0.1930   17.6  0.6642  -57.4
 1.880  0.6792 -127.8   2.125   86.8  0.1933   17.1  0.6614  -57.8
 1.900  0.6776 -128.8   2.111   86.1  0.1936   16.7  0.6586  -58.2
 1.920  0.6755 -129.8   2.097   85.4  0.1938   16.3  0.6560  -58.6
 1.940  0.6736 -130.8   2.083   84.8  0.1940   15.9  0.6534  -58.9
 1.960  0.6720 -131.8   2.069   84.1  0.1942   15.4  0.6509  -59.3
 1.980  0.6705 -132.9   2.056   83.4  0.1945   15.0  0.6484  -59.6
 2.000  0.6693 -133.9   2.043   82.7  0.1947   14.6  0.6459  -60.0
 2.020  0.6671 -134.8   2.029   82.1  0.1947   14.2  0.6434  -60.3
 2.040  0.6651 -135.8   2.015   81.5  0.1948   13.8  0.6410  -60.7
 2.060  0.6633 -136.8   2.002   80.9  0.1949   13.4  0.6386  -61.0
 2.080  0.6617 -137.7   1.989   80.3  0.1949   13.0  0.6362  -61.4
 2.100  0.6603 -138.7   1.976   79.7  0.1950   12.6  0.6339  -61.7
 2.120  0.6590 -139.7   1.963   79.0  0.1951   12.2  0.6315  -62.1
 2.140  0.6580 -140.7   1.950   78.4  0.1952   11.8  0.6292  -62.4
 2.160  0.6571 -141.6   1.938   77.7  0.1953   11.4  0.6269  -62.8
 2.180  0.6565 -142.6   1.926   77.1  0.1955   11.0  0.6246  -63.1
 2.200  0.6560 -143.6   1.914   76.4  0.1956   10.6  0.6224  -63.5
 2.220  0.6545 -144.5   1.902   75.8  0.1955   10.2  0.6202  -63.8
 2.240  0.6532 -145.4   1.890   75.2  0.1954    9.9  0.6181  -64.2
 2.260  0.6520 -146.4   1.878   74.6  0.1953    9.5  0.6159  -64.5
 2.280  0.6510 -147.3   1.866   74.0  0.1952    9.2  0.6138  -64.8
 2.300  0.6502 -148.2   1.855   73.4  0.1951    8.8  0.6117  -65.2
 2.320  0.6496 -149.2   1.844   72.8  0.1950    8.4  0.6097  -65.5
 2.340  0.6491 -150.1   1.833   72.2  0.1950    8.1  0.6076  -65.9
 2.360  0.6488 -151.0   1.822   71.6  0.1949    7.7  0.6056  -66.2
 2.380  0.6487 -152.0   1.811   70.9  0.1948    7.4  0.6036  -66.5
 2.400  0.6487 -152.9   1.801   70.3  0.1948    7.0  0.6016  -66.9
 2.420  0.6475 -153.8   1.790   69.8  0.1946    6.7  0.5997  -67.3
 2.440  0.6464 -154.6   1.779   69.2  0.1943    6.3  0.5978  -67.6
 2.460  0.6454 -155.5   1.768   68.6  0.1941    6.0  0.5959  -68.0
 2.480  0.6446 -156.4   1.757   68.1  0.1939    5.7  0.5941  -68.3
 2.500  0.6440 -157.3   1.747   67.5  0.1937    5.4  0.5923  -68.7
 2.520  0.6435 -158.2   1.736   66.9  0.1935    5.0  0.5905  -69.0
 2.540  0.6432 -159.0   1.726   66.3  0.1933    4.7  0.5887  -69.4
 2.560  0.6430 -159.9   1.716   65.7  0.1931    4.4  0.5869  -69.8
 2.580  0.6430 -160.8   1.707   65.1  0.1929    4.0  0.5852  -70.1
 2.600  0.6431 -161.7   1.697   64.5  0.1927    3.7  0.5835  -70.5
 2.620  0.6423 -162.5   1.687   64.0  0.1924    3.4  0.5820  -70.8
 2.640  0.6417 -163.3   1.677   63.5  0.1920    3.1  0.5805  -71.2
 2.660  0.6412 -164.2   1.667   62.9  0.1917    2.8  0.5790  -71.5
 2.680  0.6408 -165.0   1.657   62.4  0.1914    2.5  0.5776  -71.9
 2.700  0.6405 -165.8   1.647   61.9  0.1910    2.2  0.5761  -72.2
 2.720  0.6404 -166.6   1.638   61.3  0.1907    1.9  0.5747  -72.6
 2.740  0.6404 -167.4   1.628   60.8  0.1904    1.6  0.5733  -72.9
 2.760  0.6405 -168.3   1.619   60.2  0.1901    1.3  0.5720  -73.3
 2.780  0.6408 -169.1   1.610   59.7  0.1898    1.0  0.5706  -73.6
 2.800  0.6412 -169.9   1.601   59.1  0.1895    0.7  0.5693  -74.0
 2.820  0.6407 -170.7   1.592   58.6  0.1890    0.5  0.5679  -74.4
 2.840  0.6404 -171.4   1.583   58.1  0.1886    0.2  0.5665  -74.7
 2.860  0.6402 -172.2   1.574   57.6  0.1881   -0.0  0.5652  -75.1
 2.880  0.6401 -173.0   1.565   57.1  0.1877   -0.3  0.5639  -75.4
 2.900  0.6401 -173.8   1.556   56.5  0.1872   -0.5  0.5626  -75.8
 2.920  0.6402 -174.5   1.548   56.0  0.1868   -0.8  0.5613  -76.1
 2.940  0.6405 -175.3   1.539   55.5  0.1863   -1.0  0.5600  -76.5
 2.960  0.6408 -176.1   1.531   54.9  0.1859   -1.3  0.5588  -76.9
 2.980  0.6413 -176.8   1.523   54.4  0.1854   -1.5  0.5576  -77.2
 3.000  0.6419 -177.6   1.515   53.8  0.1850   -1.8  0.5564  -77.6
 3.100  0.6391  178.9   1.472   51.6  0.1821   -2.8  0.5510  -79.4
 3.200  0.6386  175.4   1.431   49.4  0.1792   -3.7  0.5462  -81.2
 3.300  0.6406  171.9   1.392   46.9  0.1763   -4.8  0.5420  -83.0
 3.400  0.6449  168.4   1.356   44.4  0.1735   -5.8  0.5383  -84.9
 3.500  0.6516  165.0   1.323   41.7  0.1708   -6.9  0.5352  -86.8
 3.600  0.6520  161.9   1.289   39.7  0.1674   -7.3  0.5313  -88.7
 3.700  0.6542  158.9   1.256   37.7  0.1641   -7.7  0.5280  -90.6
 3.800  0.6582  155.9   1.225   35.5  0.1608   -8.2  0.5253  -92.5
 3.900  0.6641  152.9   1.195   33.2  0.1574   -8.6  0.5231  -94.4
 4.000  0.6717  150.0   1.168   30.8  0.1541   -9.1  0.5216  -96.4
 4.100  0.6743  147.5   1.138   29.0  0.1509   -8.9  0.5202  -98.5
 4.200  0.6782  145.1   1.110   27.1  0.1478   -8.7  0.5195 -100.7
 4.300  0.6833  142.6   1.082   25.2  0.1446   -8.5  0.5196 -102.8
 4.400  0.6896  140.2   1.056   23.1  0.1415   -8.3  0.5204 -105.0
 4.500  0.6971  137.9   1.032   20.9  0.1383   -8.1  0.5219 -107.1
 4.600  0.6997  135.9   1.007   19.3  0.1359   -7.2  0.5232 -109.2
 4.700  0.7031  134.0   0.983   17.7  0.1335   -6.3  0.5252 -111.3
 4.800  0.7074  132.0   0.960   16.0  0.1312   -5.3  0.5279 -113.4
 4.900  0.7125  130.1   0.938   14.2  0.1289   -4.3  0.5313 -115.5
 5.000  0.7183  128.2   0.917   12.3  0.1267   -3.3  0.5354 -117.5
 5.100  0.7210  126.6   0.897   11.0  0.1260   -1.9  0.5379 -119.4
 5.200  0.7242  125.0   0.877    9.6  0.1254   -0.5  0.5410 -121.4
 5.300  0.7280  123.4   0.857    8.2  0.1248    1.0  0.5447 -123.3
 5.400  0.7323  121.8   0.838    6.7  0.1244    2.4  0.5489 -125.2
 5.500  0.7372  120.3   0.820    5.1  0.1240    3.9  0.5538 -127.0
 5.600  0.7400  118.9   0.804    4.0  0.1250    5.3  0.5570 -129.0
 5.700  0.7432  117.6   0.788    2.8  0.1261    6.7  0.5609 -131.0
 5.800  0.7468  116.2   0.773    1.5  0.1273    8.0  0.5654 -132.9
 5.900  0.7509  114.9   0.758    0.2  0.1285    9.3  0.5706 -134.8
 6.000  0.7553  113.6   0.743   -1.1  0.1298   10.6  0.5764 -136.7
 6.100  0.7557  112.4   0.729   -2.1  0.1321   11.8  0.5799 -138.5
 6.200  0.7565  111.2   0.715   -3.2  0.1344   12.9  0.5840 -140.3
 6.300  0.7576  110.0   0.701   -4.3  0.1367   14.0  0.5887 -142.0
 6.400  0.7590  108.8   0.688   -5.5  0.1391   15.0  0.5939 -143.7
 6.500  0.7608  107.6   0.675   -6.7  0.1416   16.0  0.5996 -145.4
 6.600  0.7606  106.3   0.664   -7.5  0.1451   16.8  0.6019 -146.8
 6.800  0.7612  103.8   0.642   -9.3  0.1522   18.3  0.6074 -149.5
 7.000  0.7633  101.3   0.621  -11.1  0.1594   19.6  0.6143 -152.1
 7.200  0.7658   98.4   0.605  -12.7  0.1689   20.0  0.6157 -154.9
 7.400  0.7701   95.6   0.589  -14.3  0.1784   20.3  0.6186 -157.6
 7.600  0.7748   92.6   0.574  -16.0  0.1884   20.2  0.6214 -160.7
 7.800  0.7803   89.3   0.561  -17.8  0.1990   19.6  0.6247 -164.1
 8.000  0.7883   86.1   0.548  -19.6  0.2096   19.0  0.6301 -167.4
 8.200  0.7912   82.7   0.534  -21.2  0.2197   17.4  0.6311 -171.2
 8.400  0.7968   79.4   0.520  -22.9  0.2300   16.0  0.6349 -175.0
 8.600  0.8032   76.2   0.507  -24.5  0.2389   14.3  0.6363 -179.1
 8.800  0.8102   73.1   0.494  -25.8  0.2466   12.3  0.6363  176.4
 9.000  0.8195   70.1   0.482  -27.3  0.2545   10.4  0.6402  171.9
 9.200  0.8299   67.7   0.469  -28.6  0.2591    8.5  0.6428  166.5
 9.400  0.8418   65.3   0.455  -29.9  0.2641    6.8  0.6510  161.2
 9.600  0.8517   63.3   0.442  -31.0  0.2681    5.2  0.6615  156.0
 9.800  0.8594   61.5   0.428  -31.9  0.2711    3.8  0.6742  151.0
10.000  0.8679   59.8   0.414  -32.9  0.2743    2.4  0.6918  146.2
!
!  f       NFmin   Gammaopt  rn/50
! GHz       dB    MAG  ANG    -
 0.450      0.69  0.73   19   0.45
 0.900      0.78  0.68   41   0.42
 1.900      1.48  0.47   96   0.28
 3.500      2.50  0.41 -173   0.14
!
! (c) 2016  Infineon Technologies AG, Munich
