! Infineon Technologies  Discrete & RF Semiconductors
! BFP460
! VCE =  3.0 V,  IC =  18 mA
! Common Emitter S-Parameters:                            Jan 2016
# GHz  S  MA  R  50
!  f         S11            S21            S12            S22
! GHz     MAG   ANG      MAG   ANG      MAG   ANG      MAG   ANG
 0.030  0.6408  -13.1  42.537  171.7  0.0050   83.3  0.9573   -8.5
 0.035  0.6383  -15.2  42.342  170.3  0.0058   82.5  0.9544   -9.8
 0.040  0.6367  -17.4  42.175  168.8  0.0067   81.9  0.9521  -11.2
 0.045  0.6340  -19.5  41.860  167.5  0.0075   81.3  0.9482  -12.4
 0.050  0.6322  -21.7  41.568  166.1  0.0084   80.8  0.9448  -13.7
 0.055  0.6321  -23.9  41.355  165.0  0.0091   79.6  0.9400  -15.1
 0.060  0.6330  -26.1  41.159  163.8  0.0099   78.5  0.9357  -16.5
 0.065  0.6280  -28.2  41.014  162.5  0.0107   78.0  0.9306  -17.8
 0.070  0.6239  -30.4  40.892  161.1  0.0115   77.5  0.9260  -19.2
 0.075  0.6253  -32.3  40.588  160.1  0.0122   76.5  0.9199  -20.5
 0.080  0.6273  -34.2  40.297  159.1  0.0129   75.7  0.9143  -21.8
 0.085  0.6226  -36.3  39.976  157.9  0.0136   74.8  0.9074  -23.0
 0.090  0.6187  -38.4  39.674  156.6  0.0144   73.9  0.9009  -24.3
 0.095  0.6156  -40.3  39.263  155.6  0.0150   73.2  0.8941  -25.5
 0.100  0.6131  -42.2  38.866  154.5  0.0157   72.5  0.8877  -26.8
 0.105  0.6119  -44.1  38.586  153.4  0.0163   71.7  0.8801  -28.0
 0.110  0.6114  -46.1  38.320  152.3  0.0170   70.9  0.8729  -29.2
 0.115  0.6080  -48.1  37.966  151.2  0.0176   70.2  0.8653  -30.4
 0.120  0.6054  -50.1  37.628  150.0  0.0183   69.5  0.8580  -31.6
 0.125  0.6020  -51.7  37.269  149.1  0.0189   68.8  0.8500  -32.7
 0.130  0.5990  -53.4  36.921  148.1  0.0195   68.1  0.8424  -33.8
 0.135  0.5954  -55.3  36.586  147.1  0.0201   67.4  0.8344  -34.9
 0.140  0.5925  -57.2  36.263  146.0  0.0207   66.7  0.8267  -36.0
 0.145  0.5891  -58.9  35.844  145.0  0.0212   66.2  0.8186  -37.0
 0.150  0.5862  -60.7  35.435  144.0  0.0218   65.7  0.8108  -38.1
 0.155  0.5817  -62.2  35.050  143.2  0.0223   65.1  0.8020  -39.0
 0.160  0.5776  -63.7  34.671  142.4  0.0227   64.6  0.7934  -39.8
 0.165  0.5740  -65.2  34.298  141.6  0.0232   64.0  0.7850  -40.7
 0.170  0.5707  -66.7  33.933  140.8  0.0236   63.5  0.7768  -41.6
 0.175  0.5678  -68.3  33.575  140.0  0.0241   63.0  0.7688  -42.6
 0.180  0.5654  -69.8  33.224  139.1  0.0245   62.5  0.7610  -43.5
 0.185  0.5634  -71.4  32.881  138.2  0.0250   62.1  0.7534  -44.5
 0.190  0.5618  -73.0  32.545  137.3  0.0255   61.6  0.7461  -45.5
 0.195  0.5606  -74.6  32.218  136.4  0.0259   61.2  0.7389  -46.5
 0.200  0.5599  -76.2  31.899  135.5  0.0264   60.8  0.7320  -47.5
 0.220  0.5476  -81.4  30.512  132.8  0.0279   59.2  0.7014  -50.5
 0.240  0.5400  -86.8  29.197  129.9  0.0294   57.8  0.6728  -53.7
 0.260  0.5330  -91.7  27.963  127.4  0.0308   56.7  0.6460  -56.6
 0.280  0.5253  -96.1  26.781  125.1  0.0319   55.6  0.6201  -59.2
 0.300  0.5208 -100.6  25.643  122.7  0.0331   54.7  0.5956  -62.0
 0.320  0.5130 -104.3  24.610  120.9  0.0341   54.0  0.5731  -64.1
 0.340  0.5075 -108.2  23.603  118.9  0.0352   53.4  0.5515  -66.4
 0.360  0.5026 -111.7  22.672  117.1  0.0361   52.9  0.5316  -68.5
 0.380  0.4977 -114.9  21.809  115.5  0.0370   52.5  0.5131  -70.4
 0.400  0.4945 -118.2  20.964  113.8  0.0379   52.1  0.4952  -72.4
 0.420  0.4899 -121.0  20.220  112.5  0.0387   51.9  0.4793  -74.0
 0.440  0.4865 -123.9  19.487  111.1  0.0396   51.6  0.4639  -75.8
 0.450  0.4852 -125.3  19.125  110.3  0.0400   51.5  0.4563  -76.7
 0.460  0.4834 -126.5  18.809  109.8  0.0404   51.4  0.4495  -77.4
 0.480  0.4803 -128.9  18.181  108.6  0.0412   51.3  0.4362  -78.9
 0.500  0.4781 -131.3  17.561  107.4  0.0420   51.2  0.4232  -80.5
 0.520  0.4752 -133.3  17.046  106.5  0.0427   51.2  0.4124  -81.7
 0.540  0.4729 -135.4  16.536  105.5  0.0435   51.2  0.4017  -82.9
 0.560  0.4712 -137.4  16.030  104.5  0.0442   51.1  0.3912  -84.2
 0.580  0.4702 -139.5  15.531  103.4  0.0450   51.1  0.3810  -85.6
 0.600  0.4697 -141.6  15.037  102.2  0.0457   51.1  0.3710  -87.1
 0.620  0.4679 -143.2  14.646  101.5  0.0464   51.2  0.3630  -88.1
 0.640  0.4664 -144.9  14.258  100.7  0.0472   51.3  0.3551  -89.2
 0.660  0.4653 -146.6  13.872   99.9  0.0479   51.3  0.3473  -90.3
 0.680  0.4647 -148.2  13.489   99.0  0.0487   51.4  0.3397  -91.4
 0.700  0.4644 -149.9  13.110   98.1  0.0494   51.5  0.3322  -92.6
 0.720  0.4633 -151.3  12.806   97.4  0.0502   51.6  0.3261  -93.5
 0.740  0.4625 -152.6  12.505   96.8  0.0509   51.7  0.3200  -94.5
 0.760  0.4619 -154.0  12.205   96.0  0.0517   51.7  0.3141  -95.4
 0.780  0.4616 -155.3  11.907   95.3  0.0524   51.8  0.3082  -96.4
 0.800  0.4616 -156.7  11.611   94.5  0.0532   51.9  0.3025  -97.5
 0.820  0.4610 -157.9  11.371   94.0  0.0539   52.0  0.2979  -98.3
 0.840  0.4606 -159.1  11.131   93.4  0.0547   52.1  0.2933  -99.1
 0.860  0.4604 -160.2  10.893   92.8  0.0554   52.2  0.2888 -100.0
 0.880  0.4603 -161.4  10.657   92.2  0.0562   52.3  0.2844 -100.9
 0.900  0.4605 -162.6  10.421   91.5  0.0569   52.4  0.2800 -101.8
 0.920  0.4600 -163.6  10.224   91.0  0.0577   52.5  0.2763 -102.5
 0.940  0.4596 -164.6  10.028   90.4  0.0585   52.6  0.2727 -103.3
 0.960  0.4593 -165.7   9.833   89.9  0.0592   52.6  0.2691 -104.1
 0.980  0.4592 -166.7   9.638   89.3  0.0600   52.7  0.2656 -104.9
 1.000  0.4593 -167.7   9.445   88.7  0.0608   52.8  0.2621 -105.7
 1.020  0.4592 -168.6   9.281   88.2  0.0616   52.9  0.2593 -106.4
 1.040  0.4592 -169.6   9.117   87.7  0.0624   52.9  0.2565 -107.1
 1.060  0.4593 -170.5   8.954   87.2  0.0631   53.0  0.2537 -107.8
 1.080  0.4596 -171.5   8.791   86.7  0.0639   53.0  0.2510 -108.5
 1.100  0.4600 -172.4   8.630   86.1  0.0647   53.1  0.2483 -109.3
 1.120  0.4599 -173.2   8.492   85.7  0.0655   53.2  0.2460 -110.0
 1.140  0.4600 -174.0   8.354   85.2  0.0663   53.2  0.2436 -110.6
 1.160  0.4601 -174.9   8.217   84.8  0.0671   53.3  0.2414 -111.3
 1.180  0.4603 -175.7   8.081   84.3  0.0679   53.3  0.2391 -112.0
 1.200  0.4606 -176.5   7.945   83.8  0.0687   53.4  0.2369 -112.7
 1.220  0.4606 -177.3   7.827   83.4  0.0695   53.4  0.2351 -113.3
 1.240  0.4608 -178.0   7.709   82.9  0.0703   53.4  0.2333 -113.9
 1.260  0.4610 -178.8   7.591   82.5  0.0711   53.5  0.2315 -114.5
 1.280  0.4612 -179.5   7.474   82.0  0.0719   53.5  0.2298 -115.1
 1.300  0.4616  179.7   7.358   81.5  0.0727   53.5  0.2281 -115.7
 1.320  0.4618  179.0   7.256   81.1  0.0735   53.5  0.2265 -116.3
 1.340  0.4621  178.3   7.155   80.7  0.0743   53.5  0.2249 -116.9
 1.360  0.4625  177.7   7.054   80.3  0.0752   53.6  0.2233 -117.5
 1.380  0.4629  177.0   6.953   79.8  0.0760   53.6  0.2218 -118.1
 1.400  0.4634  176.3   6.853   79.4  0.0768   53.6  0.2203 -118.7
 1.420  0.4636  175.6   6.765   79.0  0.0776   53.6  0.2191 -119.2
 1.440  0.4640  174.9   6.676   78.6  0.0784   53.6  0.2180 -119.8
 1.460  0.4643  174.3   6.589   78.2  0.0793   53.5  0.2169 -120.3
 1.480  0.4648  173.6   6.501   77.7  0.0801   53.5  0.2158 -120.8
 1.500  0.4653  172.9   6.414   77.3  0.0809   53.5  0.2147 -121.4
 1.520  0.4656  172.3   6.336   76.9  0.0817   53.5  0.2136 -121.9
 1.540  0.4660  171.6   6.258   76.6  0.0825   53.5  0.2126 -122.5
 1.560  0.4664  171.0   6.180   76.2  0.0834   53.4  0.2116 -123.0
 1.580  0.4669  170.3   6.102   75.8  0.0842   53.4  0.2106 -123.5
 1.600  0.4675  169.7   6.025   75.4  0.0850   53.4  0.2096 -124.1
 1.620  0.4678  169.1   5.957   75.0  0.0858   53.3  0.2088 -124.6
 1.640  0.4682  168.5   5.889   74.7  0.0866   53.3  0.2080 -125.1
 1.660  0.4687  168.0   5.821   74.3  0.0875   53.2  0.2072 -125.6
 1.680  0.4692  167.4   5.753   73.9  0.0883   53.2  0.2064 -126.1
 1.700  0.4697  166.8   5.686   73.5  0.0891   53.1  0.2057 -126.6
 1.720  0.4701  166.2   5.624   73.1  0.0899   53.1  0.2050 -127.1
 1.740  0.4705  165.7   5.562   72.8  0.0908   53.0  0.2044 -127.6
 1.760  0.4710  165.1   5.500   72.4  0.0916   53.0  0.2038 -128.1
 1.780  0.4715  164.6   5.438   72.0  0.0925   52.9  0.2032 -128.6
 1.800  0.4721  164.0   5.377   71.6  0.0933   52.9  0.2026 -129.1
 1.820  0.4727  163.4   5.322   71.3  0.0941   52.8  0.2020 -129.6
 1.840  0.4734  162.9   5.268   70.9  0.0949   52.7  0.2015 -130.1
 1.860  0.4741  162.3   5.214   70.5  0.0958   52.7  0.2009 -130.5
 1.880  0.4748  161.8   5.160   70.2  0.0966   52.6  0.2004 -131.0
 1.900  0.4756  161.2   5.106   69.8  0.0974   52.5  0.1999 -131.5
 1.920  0.4761  160.7   5.056   69.4  0.0982   52.4  0.1995 -132.0
 1.940  0.4767  160.2   5.007   69.1  0.0990   52.3  0.1991 -132.5
 1.960  0.4773  159.6   4.957   68.7  0.0999   52.3  0.1987 -132.9
 1.980  0.4779  159.1   4.908   68.3  0.1007   52.2  0.1984 -133.4
 2.000  0.4786  158.6   4.859   67.9  0.1015   52.1  0.1980 -133.9
 2.020  0.4792  158.1   4.815   67.6  0.1023   52.0  0.1977 -134.4
 2.040  0.4799  157.6   4.771   67.3  0.1031   51.9  0.1974 -134.9
 2.060  0.4806  157.1   4.727   66.9  0.1040   51.8  0.1972 -135.4
 2.080  0.4814  156.6   4.683   66.6  0.1048   51.7  0.1969 -135.9
 2.100  0.4822  156.1   4.639   66.2  0.1056   51.6  0.1967 -136.4
 2.120  0.4830  155.6   4.596   65.9  0.1064   51.5  0.1965 -136.9
 2.140  0.4839  155.1   4.553   65.5  0.1072   51.5  0.1963 -137.4
 2.160  0.4848  154.6   4.510   65.2  0.1081   51.4  0.1961 -137.9
 2.180  0.4857  154.1   4.467   64.8  0.1089   51.3  0.1960 -138.4
 2.200  0.4867  153.6   4.424   64.4  0.1097   51.2  0.1958 -138.9
 2.220  0.4874  153.1   4.387   64.1  0.1105   51.1  0.1957 -139.4
 2.240  0.4881  152.7   4.350   63.7  0.1113   50.9  0.1956 -139.9
 2.260  0.4889  152.2   4.314   63.4  0.1121   50.8  0.1956 -140.4
 2.280  0.4896  151.7   4.277   63.1  0.1129   50.7  0.1955 -140.9
 2.300  0.4905  151.3   4.241   62.7  0.1137   50.6  0.1955 -141.4
 2.320  0.4913  150.8   4.205   62.4  0.1146   50.5  0.1955 -141.9
 2.340  0.4922  150.4   4.169   62.0  0.1154   50.3  0.1955 -142.4
 2.360  0.4931  149.9   4.133   61.6  0.1162   50.2  0.1955 -142.9
 2.380  0.4940  149.5   4.097   61.3  0.1170   50.1  0.1956 -143.4
 2.400  0.4950  149.0   4.062   60.9  0.1178   50.0  0.1956 -143.9
 2.420  0.4958  148.6   4.030   60.6  0.1186   49.9  0.1958 -144.4
 2.440  0.4967  148.1   3.999   60.3  0.1194   49.7  0.1959 -144.9
 2.460  0.4976  147.7   3.967   60.0  0.1202   49.6  0.1961 -145.4
 2.480  0.4986  147.2   3.936   59.6  0.1210   49.5  0.1963 -146.0
 2.500  0.4995  146.8   3.904   59.3  0.1217   49.4  0.1966 -146.5
 2.520  0.5005  146.3   3.873   59.0  0.1225   49.3  0.1968 -147.0
 2.540  0.5016  145.9   3.842   58.6  0.1233   49.1  0.1970 -147.5
 2.560  0.5026  145.5   3.811   58.3  0.1241   49.0  0.1973 -148.0
 2.580  0.5037  145.0   3.781   58.0  0.1249   48.9  0.1976 -148.5
 2.600  0.5048  144.6   3.750   57.6  0.1257   48.8  0.1979 -149.0
 2.620  0.5056  144.2   3.723   57.3  0.1265   48.7  0.1983 -149.5
 2.640  0.5065  143.8   3.696   57.0  0.1273   48.5  0.1986 -150.0
 2.660  0.5074  143.4   3.669   56.7  0.1280   48.4  0.1990 -150.5
 2.680  0.5083  143.0   3.642   56.4  0.1288   48.2  0.1994 -150.9
 2.700  0.5092  142.6   3.615   56.1  0.1296   48.1  0.1998 -151.4
 2.720  0.5102  142.2   3.588   55.7  0.1304   47.9  0.2003 -151.9
 2.740  0.5112  141.8   3.562   55.4  0.1312   47.8  0.2007 -152.4
 2.760  0.5122  141.4   3.535   55.1  0.1319   47.7  0.2011 -152.9
 2.780  0.5132  141.0   3.509   54.7  0.1327   47.5  0.2016 -153.3
 2.800  0.5143  140.6   3.483   54.4  0.1335   47.4  0.2021 -153.8
 2.820  0.5152  140.2   3.459   54.1  0.1343   47.3  0.2026 -154.3
 2.840  0.5162  139.8   3.435   53.8  0.1350   47.1  0.2031 -154.7
 2.860  0.5172  139.4   3.411   53.5  0.1358   47.0  0.2037 -155.1
 2.880  0.5182  139.1   3.387   53.2  0.1365   46.8  0.2042 -155.6
 2.900  0.5193  138.7   3.363   52.9  0.1373   46.7  0.2047 -156.0
 2.920  0.5203  138.3   3.340   52.5  0.1381   46.5  0.2053 -156.5
 2.940  0.5214  137.9   3.316   52.2  0.1388   46.4  0.2059 -156.9
 2.960  0.5225  137.5   3.293   51.9  0.1396   46.3  0.2065 -157.3
 2.980  0.5236  137.2   3.269   51.5  0.1403   46.1  0.2071 -157.8
 3.000  0.5248  136.8   3.246   51.2  0.1411   46.0  0.2077 -158.2
 3.100  0.5289  134.9   3.147   49.9  0.1447   45.2  0.2106 -160.3
 3.200  0.5335  133.1   3.050   48.5  0.1483   44.4  0.2138 -162.3
 3.300  0.5386  131.3   2.955   47.0  0.1519   43.7  0.2173 -164.3
 3.400  0.5443  129.5   2.863   45.4  0.1555   43.0  0.2210 -166.2
 3.500  0.5505  127.8   2.772   43.7  0.1592   42.3  0.2249 -168.1
 3.600  0.5558  126.2   2.697   42.4  0.1624   41.5  0.2287 -170.2
 3.700  0.5616  124.6   2.623   41.1  0.1656   40.7  0.2327 -172.3
 3.800  0.5678  123.1   2.550   39.7  0.1689   39.9  0.2371 -174.3
 3.900  0.5744  121.6   2.479   38.2  0.1722   39.2  0.2417 -176.2
 4.000  0.5814  120.1   2.410   36.6  0.1755   38.5  0.2466 -178.1
 4.100  0.5870  118.7   2.350   35.4  0.1784   37.8  0.2518 -180.0
 4.200  0.5928  117.4   2.292   34.1  0.1813   37.0  0.2573  178.2
 4.300  0.5990  116.1   2.234   32.8  0.1843   36.3  0.2630  176.5
 4.400  0.6055  114.8   2.178   31.4  0.1873   35.7  0.2689  174.8
 4.500  0.6123  113.6   2.123   29.9  0.1903   35.0  0.2751  173.2
 4.600  0.6163  112.4   2.076   28.8  0.1932   34.3  0.2795  171.9
 4.700  0.6206  111.2   2.030   27.6  0.1961   33.7  0.2841  170.6
 4.800  0.6251  110.1   1.985   26.4  0.1990   33.0  0.2888  169.4
 4.900  0.6299  108.9   1.941   25.1  0.2019   32.4  0.2936  168.2
 5.000  0.6349  107.8   1.898   23.8  0.2049   31.8  0.2986  167.1
 5.100  0.6378  106.8   1.862   22.8  0.2080   31.1  0.3016  166.1
 5.200  0.6409  105.9   1.827   21.8  0.2112   30.4  0.3048  165.2
 5.300  0.6442  104.9   1.792   20.7  0.2144   29.7  0.3080  164.3
 5.400  0.6477  103.9   1.758   19.6  0.2176   29.0  0.3112  163.4
 5.500  0.6513  103.0   1.725   18.4  0.2208   28.4  0.3146  162.5
 5.600  0.6535  102.2   1.697   17.3  0.2237   27.6  0.3182  161.6
 5.700  0.6558  101.4   1.669   16.2  0.2266   26.9  0.3219  160.8
 5.800  0.6583  100.6   1.641   15.1  0.2296   26.1  0.3257  159.9
 5.900  0.6609   99.8   1.615   13.9  0.2326   25.4  0.3295  159.1
 6.000  0.6636   99.0   1.589   12.7  0.2356   24.7  0.3334  158.3
 6.100  0.6641   98.2   1.564   11.7  0.2381   24.0  0.3360  157.7
 6.200  0.6647   97.4   1.540   10.7  0.2407   23.3  0.3386  157.2
 6.300  0.6655   96.6   1.517    9.7  0.2433   22.6  0.3412  156.7
 6.400  0.6664   95.8   1.494    8.6  0.2459   21.9  0.3439  156.1
 6.500  0.6674   95.0   1.471    7.5  0.2486   21.2  0.3466  155.6
 6.600  0.6670   94.1   1.452    6.5  0.2515   20.5  0.3464  155.2
 6.800  0.6666   92.2   1.416    4.5  0.2574   19.2  0.3460  154.5
 7.000  0.6670   90.3   1.381    2.4  0.2635   18.0  0.3456  153.7
 7.200  0.6688   88.1   1.352    0.3  0.2699   16.4  0.3454  152.3
 7.400  0.6715   85.9   1.325   -2.0  0.2766   14.8  0.3453  150.8
 7.600  0.6756   83.5   1.298   -4.3  0.2829   13.2  0.3471  148.9
 7.800  0.6813   81.0   1.271   -6.7  0.2890   11.3  0.3509  146.6
 8.000  0.6882   78.5   1.247   -9.3  0.2953    9.6  0.3552  144.3
 8.200  0.6940   75.8   1.215  -11.7  0.2995    7.5  0.3596  141.4
 8.400  0.7013   73.2   1.184  -14.2  0.3041    5.4  0.3648  138.6
 8.600  0.7108   70.7   1.153  -16.6  0.3070    3.4  0.3714  135.1
 8.800  0.7222   68.4   1.121  -18.9  0.3082    1.3  0.3800  131.0
 9.000  0.7348   66.1   1.090  -21.3  0.3098   -0.7  0.3904  127.1
 9.200  0.7509   64.2   1.054  -23.2  0.3088   -2.3  0.4069  122.5
 9.400  0.7678   62.5   1.019  -25.2  0.3081   -3.9  0.4258  118.3
 9.600  0.7828   60.8   0.985  -26.9  0.3072   -5.2  0.4454  114.6
 9.800  0.7958   59.3   0.952  -28.4  0.3061   -6.1  0.4652  111.3
10.000  0.8093   57.8   0.920  -30.0  0.3050   -7.1  0.4864  108.3
!
!  f       NFmin   Gammaopt  rn/50
! GHz       dB    MAG  ANG    -
 0.450      1.21  0.04  164   0.13
 0.900      1.13  0.18  150   0.14
 1.900      1.33  0.16 -152   0.12
 3.500      1.29  0.41 -126   0.14
!
! (c) 2016  Infineon Technologies AG, Munich
