! Infineon Technologies  Discrete & RF Semiconductors
! BFP460
! VCE =  1.5 V,  IC =  14 mA
! Common Emitter S-Parameters:                            Jan 2016
# GHz  S  MA  R  50
!  f         S11            S21            S12            S22
! GHz     MAG   ANG      MAG   ANG      MAG   ANG      MAG   ANG
 0.030  0.6875  -12.2  36.416  172.9  0.0059   85.9  0.9541   -8.1
 0.035  0.6856  -14.2  36.292  171.6  0.0068   84.0  0.9516   -9.5
 0.040  0.6845  -16.2  36.188  170.2  0.0077   82.5  0.9497  -10.9
 0.045  0.6814  -18.0  35.976  168.7  0.0086   81.7  0.9465  -12.2
 0.050  0.6790  -19.8  35.788  167.2  0.0096   81.0  0.9438  -13.6
 0.055  0.6771  -22.0  35.650  166.2  0.0105   80.1  0.9398  -14.9
 0.060  0.6762  -24.3  35.524  165.1  0.0115   79.3  0.9363  -16.3
 0.065  0.6731  -26.4  35.440  163.8  0.0123   78.2  0.9317  -17.6
 0.070  0.6710  -28.5  35.375  162.5  0.0132   77.3  0.9276  -18.9
 0.075  0.6709  -30.4  35.146  161.6  0.0141   76.2  0.9223  -20.2
 0.080  0.6714  -32.2  34.926  160.6  0.0150   75.2  0.9175  -21.5
 0.085  0.6685  -34.0  34.693  159.5  0.0158   74.5  0.9117  -22.7
 0.090  0.6663  -35.9  34.474  158.3  0.0167   73.9  0.9063  -24.0
 0.095  0.6628  -37.6  34.155  157.3  0.0175   73.4  0.9004  -25.2
 0.100  0.6599  -39.3  33.847  156.2  0.0183   73.0  0.8950  -26.5
 0.105  0.6600  -41.2  33.637  155.2  0.0191   72.1  0.8882  -27.7
 0.110  0.6609  -43.1  33.438  154.1  0.0199   71.2  0.8819  -29.0
 0.115  0.6559  -45.0  33.172  153.0  0.0206   70.4  0.8752  -30.2
 0.120  0.6516  -46.9  32.919  151.9  0.0213   69.7  0.8688  -31.4
 0.125  0.6480  -48.5  32.642  151.0  0.0220   69.0  0.8616  -32.5
 0.130  0.6449  -50.1  32.374  150.0  0.0227   68.4  0.8548  -33.6
 0.135  0.6421  -51.9  32.107  149.0  0.0233   67.7  0.8478  -34.7
 0.140  0.6399  -53.7  31.850  148.0  0.0240   67.0  0.8411  -35.9
 0.145  0.6357  -55.3  31.517  147.0  0.0247   66.4  0.8337  -37.0
 0.150  0.6320  -56.9  31.193  146.0  0.0254   65.8  0.8266  -38.1
 0.155  0.6274  -58.3  30.882  145.2  0.0259   65.2  0.8184  -39.0
 0.160  0.6233  -59.8  30.577  144.4  0.0265   64.6  0.8103  -39.9
 0.165  0.6195  -61.3  30.278  143.6  0.0271   64.0  0.8025  -40.9
 0.170  0.6162  -62.8  29.985  142.8  0.0276   63.4  0.7949  -41.8
 0.175  0.6133  -64.3  29.698  142.0  0.0282   62.9  0.7875  -42.8
 0.180  0.6109  -65.9  29.418  141.2  0.0287   62.4  0.7804  -43.8
 0.185  0.6088  -67.4  29.144  140.3  0.0293   61.9  0.7735  -44.8
 0.190  0.6073  -69.0  28.876  139.4  0.0299   61.4  0.7668  -45.8
 0.195  0.6062  -70.5  28.616  138.5  0.0304   60.9  0.7604  -46.8
 0.200  0.6055  -72.1  28.363  137.6  0.0310   60.5  0.7542  -47.9
 0.220  0.5922  -77.2  27.214  134.9  0.0328   58.7  0.7251  -51.1
 0.240  0.5838  -82.4  26.130  132.0  0.0346   57.1  0.6984  -54.5
 0.260  0.5759  -87.2  25.099  129.4  0.0362   55.8  0.6730  -57.7
 0.280  0.5673  -91.6  24.098  127.2  0.0376   54.6  0.6480  -60.5
 0.300  0.5621  -96.0  23.137  124.7  0.0390   53.5  0.6247  -63.6
 0.320  0.5530  -99.8  22.244  122.8  0.0402   52.6  0.6027  -65.9
 0.340  0.5465 -103.8  21.377  120.8  0.0414   51.7  0.5818  -68.5
 0.360  0.5405 -107.4  20.572  118.9  0.0425   51.0  0.5623  -70.8
 0.380  0.5344 -110.6  19.820  117.3  0.0435   50.4  0.5439  -73.0
 0.400  0.5301 -113.9  19.086  115.5  0.0445   49.8  0.5264  -75.4
 0.420  0.5252 -116.8  18.425  114.1  0.0454   49.4  0.5106  -77.2
 0.440  0.5217 -119.7  17.775  112.7  0.0463   49.0  0.4954  -79.2
 0.450  0.5204 -121.2  17.455  111.9  0.0467   48.8  0.4880  -80.2
 0.460  0.5182 -122.4  17.174  111.3  0.0471   48.7  0.4812  -81.0
 0.480  0.5145 -125.0  16.617  110.1  0.0480   48.4  0.4679  -82.8
 0.500  0.5118 -127.5  16.068  108.8  0.0488   48.2  0.4551  -84.6
 0.520  0.5081 -129.6  15.605  107.8  0.0496   48.1  0.4441  -86.0
 0.540  0.5051 -131.7  15.146  106.8  0.0504   47.9  0.4334  -87.4
 0.560  0.5028 -133.8  14.692  105.8  0.0511   47.8  0.4229  -88.9
 0.580  0.5012 -135.9  14.244  104.6  0.0519   47.7  0.4128  -90.5
 0.600  0.5003 -138.1  13.802  103.4  0.0527   47.6  0.4030  -92.2
 0.620  0.4979 -139.8  13.448  102.6  0.0534   47.6  0.3949  -93.4
 0.640  0.4959 -141.5  13.097  101.8  0.0542   47.6  0.3869  -94.7
 0.660  0.4944 -143.3  12.748  101.0  0.0549   47.5  0.3792  -96.0
 0.680  0.4934 -145.0  12.402  100.1  0.0557   47.5  0.3716  -97.4
 0.700  0.4928 -146.8  12.060   99.1  0.0564   47.5  0.3643  -98.8
 0.720  0.4914 -148.2  11.784   98.4  0.0571   47.5  0.3582  -99.9
 0.740  0.4902 -149.6  11.509   97.7  0.0579   47.6  0.3521 -101.0
 0.760  0.4894 -151.0  11.236   97.0  0.0586   47.6  0.3462 -102.1
 0.780  0.4888 -152.5  10.966   96.2  0.0594   47.7  0.3405 -103.3
 0.800  0.4886 -153.9  10.697   95.4  0.0601   47.7  0.3349 -104.5
 0.820  0.4878 -155.1  10.478   94.8  0.0608   47.8  0.3302 -105.4
 0.840  0.4872 -156.4  10.259   94.2  0.0616   47.9  0.3257 -106.4
 0.860  0.4869 -157.6  10.042   93.6  0.0623   47.9  0.3212 -107.4
 0.880  0.4868 -158.9   9.826   92.9  0.0631   48.0  0.3169 -108.4
 0.900  0.4869 -160.1   9.612   92.2  0.0638   48.1  0.3126 -109.5
 0.920  0.4861 -161.2   9.431   91.7  0.0645   48.2  0.3089 -110.4
 0.940  0.4855 -162.2   9.251   91.1  0.0653   48.2  0.3053 -111.3
 0.960  0.4851 -163.3   9.072   90.5  0.0660   48.3  0.3017 -112.2
 0.980  0.4848 -164.3   8.894   89.9  0.0668   48.3  0.2983 -113.1
 1.000  0.4847 -165.4   8.717   89.3  0.0675   48.4  0.2949 -114.1
 1.020  0.4844 -166.4   8.566   88.8  0.0683   48.5  0.2921 -114.9
 1.040  0.4843 -167.3   8.417   88.3  0.0690   48.5  0.2893 -115.7
 1.060  0.4843 -168.3   8.267   87.8  0.0698   48.6  0.2866 -116.5
 1.080  0.4844 -169.2   8.119   87.3  0.0705   48.6  0.2840 -117.3
 1.100  0.4847 -170.2   7.971   86.7  0.0713   48.7  0.2814 -118.2
 1.120  0.4845 -171.0   7.844   86.2  0.0721   48.8  0.2791 -118.9
 1.140  0.4845 -171.9   7.718   85.7  0.0729   48.8  0.2769 -119.6
 1.160  0.4845 -172.7   7.592   85.2  0.0737   48.9  0.2747 -120.4
 1.180  0.4847 -173.6   7.467   84.7  0.0745   48.9  0.2725 -121.1
 1.200  0.4849 -174.4   7.343   84.2  0.0753   49.0  0.2704 -121.9
 1.220  0.4850 -175.2   7.234   83.8  0.0761   49.0  0.2686 -122.6
 1.240  0.4852 -176.0   7.125   83.3  0.0769   49.1  0.2669 -123.3
 1.260  0.4855 -176.8   7.016   82.9  0.0776   49.1  0.2652 -124.0
 1.280  0.4859 -177.6   6.908   82.4  0.0784   49.2  0.2635 -124.7
 1.300  0.4864 -178.4   6.801   81.9  0.0792   49.2  0.2619 -125.4
 1.320  0.4863 -179.1   6.707   81.5  0.0800   49.2  0.2604 -126.0
 1.340  0.4863 -179.8   6.614   81.1  0.0808   49.2  0.2588 -126.7
 1.360  0.4863  179.4   6.521   80.6  0.0816   49.3  0.2574 -127.3
 1.380  0.4865  178.7   6.429   80.2  0.0824   49.3  0.2559 -127.9
 1.400  0.4867  178.0   6.337   79.7  0.0832   49.3  0.2545 -128.6
 1.420  0.4872  177.3   6.255   79.3  0.0840   49.3  0.2534 -129.2
 1.440  0.4877  176.6   6.174   78.9  0.0848   49.3  0.2523 -129.8
 1.460  0.4883  175.9   6.093   78.4  0.0856   49.3  0.2512 -130.4
 1.480  0.4890  175.2   6.012   78.0  0.0864   49.3  0.2501 -131.0
 1.500  0.4897  174.5   5.932   77.5  0.0872   49.3  0.2491 -131.6
 1.520  0.4899  173.8   5.860   77.1  0.0880   49.3  0.2481 -132.2
 1.540  0.4902  173.2   5.788   76.7  0.0888   49.3  0.2472 -132.7
 1.560  0.4906  172.5   5.716   76.3  0.0897   49.3  0.2463 -133.3
 1.580  0.4910  171.9   5.645   75.9  0.0905   49.3  0.2454 -133.9
 1.600  0.4915  171.2   5.574   75.5  0.0913   49.3  0.2445 -134.5
 1.620  0.4919  170.6   5.511   75.1  0.0921   49.3  0.2437 -135.0
 1.640  0.4923  170.0   5.448   74.7  0.0929   49.2  0.2430 -135.6
 1.660  0.4928  169.4   5.385   74.3  0.0938   49.2  0.2423 -136.1
 1.680  0.4934  168.8   5.323   73.9  0.0946   49.1  0.2416 -136.7
 1.700  0.4940  168.2   5.261   73.5  0.0954   49.1  0.2409 -137.2
 1.720  0.4943  167.6   5.204   73.1  0.0962   49.1  0.2403 -137.7
 1.740  0.4946  167.0   5.146   72.8  0.0970   49.0  0.2397 -138.2
 1.760  0.4950  166.5   5.089   72.4  0.0979   49.0  0.2392 -138.8
 1.780  0.4954  165.9   5.033   72.0  0.0987   48.9  0.2386 -139.3
 1.800  0.4959  165.3   4.976   71.6  0.0995   48.9  0.2381 -139.8
 1.820  0.4964  164.7   4.926   71.2  0.1003   48.8  0.2376 -140.3
 1.840  0.4969  164.2   4.876   70.9  0.1011   48.8  0.2372 -140.8
 1.860  0.4975  163.6   4.827   70.5  0.1020   48.7  0.2367 -141.3
 1.880  0.4981  163.1   4.777   70.1  0.1028   48.7  0.2363 -141.8
 1.900  0.4988  162.5   4.728   69.7  0.1036   48.6  0.2359 -142.3
 1.920  0.4992  162.0   4.682   69.3  0.1044   48.5  0.2355 -142.8
 1.940  0.4997  161.4   4.636   69.0  0.1052   48.5  0.2352 -143.3
 1.960  0.5002  160.9   4.591   68.6  0.1061   48.4  0.2349 -143.8
 1.980  0.5008  160.3   4.545   68.2  0.1069   48.4  0.2346 -144.3
 2.000  0.5014  159.8   4.500   67.8  0.1077   48.3  0.2343 -144.8
 2.020  0.5020  159.3   4.459   67.5  0.1085   48.2  0.2341 -145.3
 2.040  0.5027  158.7   4.418   67.1  0.1093   48.1  0.2339 -145.8
 2.060  0.5034  158.2   4.378   66.8  0.1102   48.0  0.2337 -146.3
 2.080  0.5041  157.7   4.337   66.4  0.1110   47.9  0.2335 -146.8
 2.100  0.5049  157.2   4.297   66.1  0.1118   47.8  0.2334 -147.2
 2.120  0.5057  156.7   4.257   65.7  0.1126   47.7  0.2333 -147.7
 2.140  0.5066  156.1   4.217   65.4  0.1134   47.7  0.2331 -148.2
 2.160  0.5075  155.6   4.177   65.0  0.1143   47.6  0.2330 -148.7
 2.180  0.5084  155.1   4.137   64.6  0.1151   47.5  0.2330 -149.2
 2.200  0.5094  154.6   4.098   64.2  0.1159   47.4  0.2329 -149.7
 2.220  0.5101  154.1   4.064   63.9  0.1167   47.3  0.2329 -150.2
 2.240  0.5108  153.6   4.030   63.5  0.1175   47.2  0.2329 -150.7
 2.260  0.5116  153.2   3.996   63.2  0.1183   47.1  0.2329 -151.2
 2.280  0.5124  152.7   3.962   62.9  0.1191   47.0  0.2330 -151.7
 2.300  0.5132  152.2   3.929   62.5  0.1199   46.9  0.2330 -152.2
 2.320  0.5141  151.8   3.895   62.2  0.1208   46.8  0.2331 -152.6
 2.340  0.5150  151.3   3.862   61.8  0.1216   46.7  0.2332 -153.1
 2.360  0.5159  150.8   3.829   61.4  0.1224   46.6  0.2333 -153.6
 2.380  0.5169  150.4   3.796   61.1  0.1232   46.5  0.2335 -154.1
 2.400  0.5179  149.9   3.763   60.7  0.1240   46.4  0.2336 -154.6
 2.420  0.5187  149.4   3.734   60.4  0.1248   46.3  0.2339 -155.1
 2.440  0.5196  149.0   3.704   60.0  0.1256   46.2  0.2341 -155.5
 2.460  0.5205  148.5   3.675   59.7  0.1264   46.1  0.2344 -156.0
 2.480  0.5215  148.1   3.646   59.4  0.1272   45.9  0.2347 -156.5
 2.500  0.5224  147.6   3.617   59.0  0.1279   45.8  0.2350 -156.9
 2.520  0.5235  147.2   3.588   58.7  0.1287   45.7  0.2353 -157.4
 2.540  0.5245  146.7   3.559   58.3  0.1295   45.6  0.2357 -157.8
 2.560  0.5256  146.3   3.531   57.9  0.1303   45.5  0.2360 -158.3
 2.580  0.5267  145.8   3.502   57.6  0.1311   45.4  0.2364 -158.7
 2.600  0.5278  145.4   3.474   57.2  0.1319   45.3  0.2368 -159.2
 2.620  0.5285  145.0   3.449   56.9  0.1327   45.2  0.2372 -159.6
 2.640  0.5292  144.6   3.424   56.6  0.1334   45.0  0.2377 -160.1
 2.660  0.5299  144.1   3.398   56.3  0.1342   44.9  0.2382 -160.5
 2.680  0.5307  143.7   3.373   55.9  0.1350   44.8  0.2386 -161.0
 2.700  0.5314  143.3   3.349   55.6  0.1357   44.6  0.2391 -161.4
 2.720  0.5323  142.9   3.324   55.3  0.1365   44.5  0.2396 -161.9
 2.740  0.5331  142.4   3.299   54.9  0.1373   44.4  0.2402 -162.3
 2.760  0.5340  142.0   3.275   54.6  0.1381   44.2  0.2407 -162.7
 2.780  0.5349  141.6   3.250   54.3  0.1388   44.1  0.2412 -163.2
 2.800  0.5358  141.2   3.226   53.9  0.1396   44.0  0.2418 -163.6
 2.820  0.5367  140.8   3.204   53.6  0.1404   43.9  0.2423 -164.0
 2.840  0.5376  140.4   3.182   53.3  0.1411   43.7  0.2429 -164.4
 2.860  0.5386  140.0   3.160   53.0  0.1419   43.6  0.2434 -164.8
 2.880  0.5396  139.6   3.138   52.7  0.1426   43.5  0.2440 -165.2
 2.900  0.5406  139.2   3.116   52.4  0.1434   43.3  0.2446 -165.6
 2.920  0.5416  138.8   3.094   52.0  0.1442   43.2  0.2452 -166.0
 2.940  0.5427  138.5   3.072   51.7  0.1449   43.1  0.2458 -166.4
 2.960  0.5438  138.1   3.051   51.4  0.1457   42.9  0.2464 -166.8
 2.980  0.5449  137.7   3.029   51.0  0.1464   42.8  0.2471 -167.2
 3.000  0.5460  137.3   3.008   50.7  0.1472   42.7  0.2477 -167.6
 3.100  0.5499  135.4   2.916   49.3  0.1507   41.9  0.2508 -169.5
 3.200  0.5543  133.5   2.826   47.9  0.1543   41.2  0.2541 -171.4
 3.300  0.5593  131.7   2.738   46.4  0.1579   40.4  0.2577 -173.2
 3.400  0.5649  129.9   2.652   44.7  0.1615   39.8  0.2615 -174.9
 3.500  0.5711  128.1   2.568   43.0  0.1651   39.1  0.2656 -176.6
 3.600  0.5763  126.5   2.498   41.7  0.1683   38.3  0.2695 -178.5
 3.700  0.5820  124.8   2.429   40.4  0.1715   37.5  0.2737  179.7
 3.800  0.5882  123.3   2.361   38.9  0.1747   36.8  0.2782  177.9
 3.900  0.5948  121.7   2.295   37.4  0.1779   36.1  0.2829  176.2
 4.000  0.6018  120.2   2.231   35.8  0.1812   35.4  0.2879  174.6
 4.100  0.6068  118.8   2.175   34.6  0.1840   34.7  0.2931  172.9
 4.200  0.6121  117.5   2.121   33.4  0.1869   34.0  0.2985  171.3
 4.300  0.6178  116.2   2.067   32.0  0.1898   33.3  0.3042  169.7
 4.400  0.6238  114.9   2.014   30.7  0.1927   32.6  0.3100  168.2
 4.500  0.6301  113.6   1.963   29.2  0.1957   32.0  0.3161  166.8
 4.600  0.6339  112.4   1.920   28.1  0.1985   31.4  0.3203  165.6
 4.700  0.6379  111.2   1.877   27.0  0.2013   30.8  0.3247  164.5
 4.800  0.6422  110.0   1.836   25.8  0.2041   30.2  0.3292  163.3
 4.900  0.6468  108.8   1.795   24.5  0.2069   29.6  0.3338  162.3
 5.000  0.6516  107.7   1.755   23.2  0.2098   29.1  0.3385  161.2
 5.100  0.6543  106.7   1.722   22.2  0.2129   28.4  0.3412  160.3
 5.200  0.6573  105.7   1.690   21.1  0.2160   27.7  0.3441  159.4
 5.300  0.6604  104.7   1.658   20.0  0.2191   27.1  0.3470  158.5
 5.400  0.6637  103.8   1.627   18.9  0.2222   26.4  0.3499  157.7
 5.500  0.6672  102.8   1.596   17.7  0.2254   25.8  0.3530  156.8
 5.600  0.6692  102.0   1.570   16.6  0.2283   25.0  0.3563  156.0
 5.700  0.6714  101.1   1.544   15.5  0.2312   24.3  0.3596  155.2
 5.800  0.6737  100.3   1.519   14.4  0.2341   23.6  0.3630  154.4
 5.900  0.6761   99.5   1.495   13.2  0.2371   22.9  0.3665  153.6
 6.000  0.6787   98.7   1.471   12.0  0.2401   22.2  0.3701  152.8
 6.100  0.6790   97.9   1.449   11.0  0.2426   21.5  0.3722  152.3
 6.200  0.6794   97.1   1.427   10.0  0.2451   20.8  0.3744  151.7
 6.300  0.6800   96.3   1.405    9.0  0.2477   20.1  0.3766  151.2
 6.400  0.6807   95.5   1.384    7.9  0.2503   19.5  0.3788  150.7
 6.500  0.6815   94.7   1.364    6.8  0.2529   18.8  0.3811  150.2
 6.600  0.6809   93.7   1.347    5.8  0.2558   18.2  0.3805  149.8
 6.800  0.6802   91.8   1.314    3.9  0.2617   16.9  0.3794  148.9
 7.000  0.6803   89.9   1.283    1.8  0.2678   15.7  0.3783  148.1
 7.200  0.6820   87.7   1.257   -0.3  0.2742   14.1  0.3777  146.6
 7.400  0.6847   85.5   1.232   -2.6  0.2809   12.5  0.3774  145.1
 7.600  0.6886   83.1   1.208   -4.9  0.2872   10.8  0.3790  143.2
 7.800  0.6940   80.6   1.184   -7.3  0.2931    9.0  0.3827  140.9
 8.000  0.7007   78.1   1.162   -9.8  0.2994    7.2  0.3871  138.7
 8.200  0.7060   75.4   1.132  -12.2  0.3033    5.1  0.3914  135.8
 8.400  0.7129   72.8   1.104  -14.7  0.3077    3.0  0.3966  133.1
 8.600  0.7219   70.3   1.075  -17.1  0.3103    1.0  0.4033  129.7
 8.800  0.7329   68.0   1.045  -19.4  0.3112   -1.1  0.4121  125.8
 9.000  0.7451   65.7   1.016  -21.8  0.3125   -3.1  0.4228  122.1
 9.200  0.7608   63.8   0.982  -23.6  0.3111   -4.6  0.4394  117.9
 9.400  0.7774   62.0   0.950  -25.6  0.3100   -6.1  0.4582  113.9
 9.600  0.7917   60.3   0.918  -27.3  0.3087   -7.4  0.4773  110.5
 9.800  0.8036   58.8   0.887  -28.7  0.3072   -8.3  0.4962  107.5
10.000  0.8161   57.3   0.857  -30.2  0.3058   -9.3  0.5165  104.7
!
!  f       NFmin   Gammaopt  rn/50
! GHz       dB    MAG  ANG    -
 0.450      1.09  0.04   41   0.14
 1.900      1.24  0.11 -165   0.12
 3.500      1.23  0.36 -131   0.13
!
! (c) 2016  Infineon Technologies AG, Munich
