! Infineon Technologies  Discrete & RF Semiconductors
! BFP460
! VCE =  2.5 V,  IC =  50 mA
! Common Emitter S-Parameters:                            Jan 2016
# GHz  S  MA  R  50
!  f         S11            S21            S12            S22
! GHz     MAG   ANG      MAG   ANG      MAG   ANG      MAG   ANG
 0.030  0.3447  -29.3  65.609  168.5  0.0043   83.8  0.8953  -11.8
 0.035  0.3455  -33.6  65.036  166.4  0.0049   82.4  0.8901  -14.0
 0.040  0.3483  -37.8  64.551  164.3  0.0056   81.4  0.8863  -16.3
 0.045  0.3471  -41.9  63.780  162.2  0.0061   79.4  0.8786  -18.4
 0.050  0.3478  -46.1  63.099  160.0  0.0066   77.7  0.8721  -20.6
 0.055  0.3528  -50.2  62.418  158.3  0.0073   76.2  0.8632  -22.6
 0.060  0.3596  -54.1  61.791  156.6  0.0080   74.9  0.8555  -24.7
 0.065  0.3619  -58.4  61.076  154.7  0.0086   74.1  0.8451  -26.7
 0.070  0.3662  -62.7  60.429  152.8  0.0093   73.4  0.8358  -28.7
 0.075  0.3701  -65.8  59.569  151.3  0.0097   72.5  0.8244  -30.6
 0.080  0.3751  -68.9  58.750  149.8  0.0102   71.7  0.8139  -32.5
 0.085  0.3776  -72.4  57.798  148.2  0.0107   70.9  0.8018  -34.3
 0.090  0.3815  -75.8  56.894  146.5  0.0112   70.1  0.7904  -36.1
 0.095  0.3827  -78.4  55.889  145.1  0.0116   69.2  0.7785  -37.8
 0.100  0.3847  -81.0  54.917  143.7  0.0121   68.4  0.7672  -39.5
 0.105  0.3892  -83.9  54.075  142.3  0.0125   67.7  0.7547  -41.1
 0.110  0.3946  -86.8  53.266  140.9  0.0129   67.0  0.7428  -42.7
 0.115  0.3954  -89.5  52.326  139.6  0.0133   66.3  0.7308  -44.2
 0.120  0.3970  -92.2  51.416  138.2  0.0137   65.7  0.7193  -45.8
 0.125  0.3985  -94.6  50.533  137.1  0.0140   65.3  0.7071  -47.2
 0.130  0.4006  -96.9  49.671  135.9  0.0144   64.9  0.6954  -48.6
 0.135  0.4030  -99.2  48.830  134.7  0.0147   64.3  0.6839  -49.9
 0.140  0.4060 -101.4  48.010  133.5  0.0151   63.8  0.6728  -51.3
 0.145  0.4082 -103.4  47.108  132.5  0.0154   63.4  0.6615  -52.5
 0.150  0.4109 -105.4  46.222  131.4  0.0157   63.1  0.6506  -53.8
 0.155  0.4109 -107.1  45.455  130.7  0.0160   62.8  0.6400  -54.7
 0.160  0.4113 -108.7  44.697  129.9  0.0163   62.5  0.6296  -55.7
 0.165  0.4120 -110.4  43.946  129.1  0.0165   62.2  0.6194  -56.7
 0.170  0.4131 -112.0  43.205  128.3  0.0168   61.9  0.6094  -57.7
 0.175  0.4145 -113.7  42.472  127.4  0.0171   61.6  0.5995  -58.7
 0.180  0.4162 -115.3  41.749  126.5  0.0174   61.3  0.5899  -59.8
 0.185  0.4183 -116.9  41.037  125.6  0.0177   61.0  0.5805  -60.9
 0.190  0.4207 -118.5  40.335  124.7  0.0179   60.8  0.5713  -62.1
 0.195  0.4234 -120.0  39.645  123.7  0.0182   60.5  0.5624  -63.3
 0.200  0.4264 -121.6  38.966  122.7  0.0185   60.3  0.5537  -64.5
 0.220  0.4291 -126.3  36.623  120.3  0.0195   60.0  0.5224  -67.5
 0.240  0.4345 -130.9  34.351  117.7  0.0205   59.6  0.4927  -70.9
 0.260  0.4390 -134.8  32.342  115.3  0.0214   59.5  0.4665  -74.0
 0.280  0.4416 -138.2  30.559  113.4  0.0223   59.6  0.4431  -76.7
 0.300  0.4457 -141.6  28.816  111.2  0.0232   59.6  0.4207  -79.6
 0.320  0.4472 -144.3  27.398  109.8  0.0240   59.8  0.4024  -81.7
 0.340  0.4496 -146.9  25.998  108.2  0.0249   59.9  0.3847  -84.0
 0.360  0.4514 -149.3  24.746  106.7  0.0257   60.1  0.3690  -86.1
 0.380  0.4522 -151.4  23.634  105.4  0.0266   60.3  0.3550  -88.0
 0.400  0.4537 -153.6  22.535  104.0  0.0274   60.5  0.3414  -90.1
 0.420  0.4550 -155.4  21.620  103.0  0.0283   60.7  0.3301  -91.7
 0.440  0.4568 -157.2  20.712  101.9  0.0292   60.9  0.3191  -93.5
 0.450  0.4578 -158.1  20.261  101.3  0.0296   61.0  0.3137  -94.4
 0.460  0.4580 -158.9  19.887  100.9  0.0300   61.2  0.3091  -95.1
 0.480  0.4586 -160.4  19.142  100.0  0.0309   61.5  0.3002  -96.6
 0.500  0.4595 -161.9  18.403   99.0  0.0317   61.8  0.2914  -98.2
 0.520  0.4600 -163.2  17.821   98.3  0.0326   62.0  0.2845  -99.4
 0.540  0.4608 -164.4  17.241   97.6  0.0335   62.3  0.2776 -100.7
 0.560  0.4618 -165.7  16.665   96.8  0.0344   62.5  0.2710 -102.0
 0.580  0.4630 -167.0  16.092   95.9  0.0353   62.7  0.2644 -103.4
 0.600  0.4644 -168.2  15.523   95.0  0.0362   62.9  0.2581 -104.9
 0.620  0.4649 -169.2  15.097   94.4  0.0371   63.1  0.2533 -106.0
 0.640  0.4655 -170.2  14.673   93.8  0.0380   63.2  0.2485 -107.1
 0.660  0.4662 -171.2  14.250   93.2  0.0389   63.3  0.2439 -108.2
 0.680  0.4671 -172.2  13.830   92.5  0.0398   63.5  0.2393 -109.4
 0.700  0.4681 -173.2  13.411   91.8  0.0407   63.6  0.2349 -110.6
 0.720  0.4685 -174.0  13.087   91.3  0.0416   63.7  0.2315 -111.5
 0.740  0.4690 -174.9  12.763   90.8  0.0425   63.8  0.2281 -112.5
 0.760  0.4696 -175.7  12.441   90.2  0.0434   63.8  0.2249 -113.5
 0.780  0.4703 -176.6  12.121   89.6  0.0443   63.9  0.2216 -114.5
 0.800  0.4711 -177.4  11.801   89.0  0.0452   64.0  0.2185 -115.6
 0.820  0.4716 -178.2  11.548   88.5  0.0461   64.1  0.2160 -116.4
 0.840  0.4721 -178.9  11.295   88.1  0.0470   64.2  0.2136 -117.3
 0.860  0.4727 -179.7  11.044   87.6  0.0480   64.2  0.2112 -118.1
 0.880  0.4734  179.6  10.793   87.0  0.0489   64.3  0.2089 -119.0
 0.900  0.4742  178.8  10.543   86.5  0.0498   64.4  0.2066 -119.9
 0.920  0.4745  178.1  10.337   86.1  0.0507   64.4  0.2047 -120.7
 0.940  0.4748  177.4  10.132   85.6  0.0516   64.4  0.2029 -121.4
 0.960  0.4752  176.8   9.928   85.2  0.0526   64.5  0.2011 -122.2
 0.980  0.4757  176.1   9.724   84.7  0.0535   64.5  0.1994 -123.0
 1.000  0.4762  175.4   9.521   84.2  0.0544   64.5  0.1977 -123.8
 1.020  0.4764  174.8   9.351   83.8  0.0553   64.5  0.1964 -124.5
 1.040  0.4768  174.2   9.182   83.4  0.0563   64.4  0.1951 -125.1
 1.060  0.4771  173.5   9.013   82.9  0.0572   64.4  0.1938 -125.8
 1.080  0.4775  172.9   8.845   82.5  0.0582   64.3  0.1926 -126.5
 1.100  0.4780  172.3   8.677   82.0  0.0591   64.3  0.1914 -127.2
 1.120  0.4784  171.7   8.535   81.6  0.0600   64.3  0.1904 -127.8
 1.140  0.4788  171.2   8.394   81.2  0.0610   64.3  0.1894 -128.5
 1.160  0.4792  170.6   8.253   80.8  0.0619   64.2  0.1884 -129.1
 1.180  0.4797  170.1   8.112   80.4  0.0629   64.2  0.1874 -129.7
 1.200  0.4803  169.5   7.972   80.0  0.0638   64.2  0.1865 -130.4
 1.220  0.4808  169.0   7.851   79.6  0.0647   64.1  0.1858 -131.0
 1.240  0.4814  168.4   7.731   79.2  0.0657   64.0  0.1851 -131.5
 1.260  0.4820  167.9   7.611   78.8  0.0666   64.0  0.1845 -132.1
 1.280  0.4827  167.3   7.492   78.4  0.0676   63.9  0.1838 -132.6
 1.300  0.4834  166.8   7.373   78.0  0.0685   63.8  0.1832 -133.2
 1.320  0.4837  166.3   7.269   77.6  0.0694   63.7  0.1826 -133.7
 1.340  0.4841  165.8   7.166   77.3  0.0703   63.6  0.1820 -134.3
 1.360  0.4845  165.3   7.062   76.9  0.0713   63.6  0.1814 -134.8
 1.380  0.4850  164.8   6.960   76.5  0.0722   63.5  0.1808 -135.4
 1.400  0.4855  164.3   6.857   76.1  0.0731   63.4  0.1803 -135.9
 1.420  0.4859  163.8   6.767   75.8  0.0740   63.3  0.1800 -136.4
 1.440  0.4864  163.3   6.678   75.4  0.0750   63.2  0.1797 -136.8
 1.460  0.4869  162.8   6.589   75.0  0.0759   63.1  0.1794 -137.3
 1.480  0.4875  162.3   6.500   74.7  0.0769   63.0  0.1791 -137.7
 1.500  0.4881  161.8   6.411   74.3  0.0778   62.9  0.1788 -138.2
 1.520  0.4886  161.3   6.331   74.0  0.0787   62.8  0.1785 -138.7
 1.540  0.4892  160.8   6.252   73.6  0.0796   62.7  0.1782 -139.2
 1.560  0.4898  160.3   6.173   73.3  0.0806   62.5  0.1780 -139.6
 1.580  0.4905  159.8   6.094   73.0  0.0815   62.4  0.1777 -140.1
 1.600  0.4912  159.3   6.015   72.6  0.0824   62.3  0.1775 -140.6
 1.620  0.4916  158.9   5.946   72.3  0.0833   62.2  0.1773 -141.0
 1.640  0.4920  158.4   5.878   71.9  0.0842   62.1  0.1772 -141.4
 1.660  0.4924  158.0   5.809   71.5  0.0852   61.9  0.1771 -141.9
 1.680  0.4929  157.5   5.741   71.2  0.0861   61.8  0.1769 -142.3
 1.700  0.4934  157.1   5.673   70.8  0.0870   61.7  0.1768 -142.7
 1.720  0.4939  156.7   5.610   70.5  0.0879   61.6  0.1768 -143.1
 1.740  0.4944  156.2   5.548   70.1  0.0889   61.4  0.1768 -143.5
 1.760  0.4949  155.8   5.485   69.8  0.0898   61.3  0.1768 -144.0
 1.780  0.4955  155.3   5.423   69.5  0.0908   61.1  0.1768 -144.4
 1.800  0.4961  154.9   5.361   69.1  0.0917   61.0  0.1768 -144.8
 1.820  0.4966  154.4   5.306   68.8  0.0926   60.9  0.1768 -145.2
 1.840  0.4972  154.0   5.251   68.4  0.0935   60.7  0.1768 -145.6
 1.860  0.4978  153.5   5.197   68.1  0.0945   60.6  0.1768 -146.1
 1.880  0.4984  153.1   5.142   67.8  0.0954   60.4  0.1768 -146.5
 1.900  0.4991  152.6   5.088   67.4  0.0963   60.3  0.1768 -146.9
 1.920  0.4999  152.2   5.038   67.1  0.0972   60.2  0.1769 -147.3
 1.940  0.5008  151.8   4.988   66.7  0.0981   60.0  0.1770 -147.7
 1.960  0.5017  151.3   4.938   66.3  0.0990   59.9  0.1771 -148.1
 1.980  0.5026  150.9   4.888   66.0  0.0999   59.7  0.1773 -148.5
 2.000  0.5035  150.5   4.839   65.6  0.1008   59.6  0.1774 -148.9
 2.020  0.5041  150.1   4.795   65.3  0.1017   59.4  0.1776 -149.3
 2.040  0.5047  149.7   4.750   65.0  0.1026   59.3  0.1778 -149.8
 2.060  0.5054  149.3   4.706   64.7  0.1035   59.1  0.1780 -150.2
 2.080  0.5060  148.8   4.662   64.4  0.1044   58.9  0.1783 -150.6
 2.100  0.5067  148.4   4.618   64.0  0.1053   58.8  0.1785 -151.1
 2.120  0.5074  148.0   4.574   63.7  0.1063   58.6  0.1788 -151.5
 2.140  0.5082  147.6   4.531   63.4  0.1072   58.5  0.1790 -151.9
 2.160  0.5090  147.2   4.487   63.0  0.1081   58.3  0.1793 -152.3
 2.180  0.5098  146.8   4.444   62.7  0.1090   58.1  0.1796 -152.8
 2.200  0.5106  146.4   4.401   62.3  0.1099   58.0  0.1799 -153.2
 2.220  0.5114  146.0   4.364   62.0  0.1108   57.8  0.1803 -153.6
 2.240  0.5121  145.6   4.327   61.7  0.1117   57.6  0.1806 -154.1
 2.260  0.5129  145.2   4.291   61.4  0.1125   57.5  0.1810 -154.5
 2.280  0.5138  144.8   4.254   61.1  0.1134   57.3  0.1814 -154.9
 2.300  0.5146  144.4   4.218   60.8  0.1143   57.1  0.1818 -155.3
 2.320  0.5155  144.0   4.182   60.4  0.1152   56.9  0.1822 -155.7
 2.340  0.5164  143.7   4.145   60.1  0.1160   56.8  0.1826 -156.2
 2.360  0.5173  143.3   4.110   59.8  0.1169   56.6  0.1830 -156.6
 2.380  0.5182  142.9   4.074   59.4  0.1178   56.5  0.1835 -157.0
 2.400  0.5192  142.5   4.038   59.1  0.1187   56.3  0.1839 -157.4
 2.420  0.5200  142.1   4.006   58.8  0.1196   56.1  0.1845 -157.8
 2.440  0.5208  141.8   3.974   58.5  0.1204   55.9  0.1850 -158.3
 2.460  0.5216  141.4   3.943   58.2  0.1213   55.8  0.1856 -158.7
 2.480  0.5225  141.0   3.911   57.9  0.1221   55.6  0.1862 -159.1
 2.500  0.5234  140.6   3.879   57.6  0.1230   55.4  0.1868 -159.5
 2.520  0.5243  140.3   3.848   57.2  0.1238   55.3  0.1874 -160.0
 2.540  0.5252  139.9   3.817   56.9  0.1247   55.1  0.1880 -160.4
 2.560  0.5261  139.5   3.786   56.6  0.1256   54.9  0.1886 -160.8
 2.580  0.5271  139.2   3.755   56.2  0.1264   54.8  0.1893 -161.2
 2.600  0.5281  138.8   3.724   55.9  0.1273   54.6  0.1899 -161.6
 2.620  0.5289  138.4   3.697   55.6  0.1281   54.4  0.1906 -162.0
 2.640  0.5297  138.1   3.670   55.3  0.1289   54.2  0.1913 -162.4
 2.660  0.5305  137.7   3.643   55.0  0.1298   54.0  0.1921 -162.8
 2.680  0.5314  137.4   3.616   54.8  0.1306   53.9  0.1928 -163.2
 2.700  0.5323  137.0   3.589   54.5  0.1314   53.7  0.1936 -163.6
 2.720  0.5331  136.7   3.562   54.2  0.1323   53.5  0.1944 -164.0
 2.740  0.5341  136.3   3.535   53.8  0.1331   53.3  0.1951 -164.4
 2.760  0.5350  136.0   3.509   53.5  0.1339   53.1  0.1959 -164.7
 2.780  0.5359  135.6   3.482   53.2  0.1348   53.0  0.1967 -165.1
 2.800  0.5369  135.3   3.456   52.9  0.1356   52.8  0.1975 -165.5
 2.820  0.5378  135.0   3.432   52.6  0.1364   52.6  0.1983 -165.9
 2.840  0.5387  134.6   3.408   52.3  0.1372   52.4  0.1991 -166.3
 2.860  0.5396  134.3   3.384   52.0  0.1380   52.2  0.1999 -166.6
 2.880  0.5405  134.0   3.361   51.8  0.1389   52.1  0.2007 -167.0
 2.900  0.5414  133.6   3.337   51.5  0.1397   51.9  0.2015 -167.4
 2.920  0.5424  133.3   3.313   51.2  0.1405   51.7  0.2023 -167.8
 2.940  0.5434  133.0   3.290   50.8  0.1413   51.5  0.2032 -168.1
 2.960  0.5444  132.7   3.266   50.5  0.1421   51.3  0.2040 -168.5
 2.980  0.5454  132.3   3.243   50.2  0.1430   51.2  0.2048 -168.8
 3.000  0.5464  132.0   3.220   49.9  0.1438   51.0  0.2057 -169.2
 3.100  0.5505  130.3   3.122   48.6  0.1476   50.0  0.2098 -170.9
 3.200  0.5550  128.7   3.025   47.3  0.1514   49.0  0.2141 -172.6
 3.300  0.5600  127.1   2.930   45.8  0.1552   48.1  0.2186 -174.2
 3.400  0.5654  125.5   2.838   44.3  0.1591   47.2  0.2233 -175.7
 3.500  0.5712  124.0   2.747   42.6  0.1630   46.4  0.2281 -177.2
 3.600  0.5765  122.5   2.672   41.4  0.1664   45.4  0.2329 -179.0
 3.700  0.5821  121.1   2.599   40.1  0.1698   44.5  0.2379  179.2
 3.800  0.5882  119.7   2.526   38.7  0.1733   43.6  0.2431  177.5
 3.900  0.5945  118.3   2.456   37.2  0.1768   42.7  0.2486  175.9
 4.000  0.6012  117.0   2.387   35.7  0.1803   41.9  0.2542  174.3
 4.100  0.6065  115.8   2.328   34.5  0.1833   41.0  0.2602  172.7
 4.200  0.6120  114.6   2.269   33.3  0.1864   40.2  0.2664  171.1
 4.300  0.6178  113.4   2.212   32.1  0.1895   39.4  0.2729  169.6
 4.400  0.6239  112.2   2.156   30.7  0.1926   38.6  0.2794  168.2
 4.500  0.6302  111.1   2.101   29.3  0.1958   37.8  0.2862  166.8
 4.600  0.6341  110.0   2.055   28.2  0.1988   37.0  0.2910  165.6
 4.700  0.6382  108.9   2.009   27.1  0.2017   36.3  0.2958  164.5
 4.800  0.6426  107.8   1.965   26.0  0.2048   35.6  0.3008  163.5
 4.900  0.6472  106.8   1.921   24.8  0.2078   34.9  0.3059  162.4
 5.000  0.6520  105.7   1.878   23.5  0.2109   34.2  0.3111  161.4
 5.100  0.6548  104.8   1.843   22.5  0.2141   33.4  0.3142  160.5
 5.200  0.6577  103.8   1.808   21.5  0.2173   32.7  0.3174  159.7
 5.300  0.6608  102.9   1.774   20.4  0.2206   31.9  0.3207  158.8
 5.400  0.6641  102.0   1.741   19.3  0.2239   31.2  0.3240  158.0
 5.500  0.6675  101.1   1.708   18.1  0.2273   30.5  0.3274  157.2
 5.600  0.6694  100.3   1.680   17.1  0.2303   29.6  0.3310  156.4
 5.700  0.6714   99.5   1.652   16.0  0.2333   28.8  0.3346  155.6
 5.800  0.6735   98.7   1.625   14.9  0.2363   28.0  0.3383  154.8
 5.900  0.6758   98.0   1.599   13.8  0.2394   27.2  0.3420  154.0
 6.000  0.6782   97.2   1.573   12.6  0.2426   26.4  0.3458  153.3
 6.100  0.6787   96.4   1.549   11.6  0.2452   25.6  0.3482  152.8
 6.200  0.6793   95.6   1.526   10.6  0.2478   24.8  0.3506  152.3
 6.300  0.6800   94.9   1.502    9.6  0.2504   24.1  0.3531  151.8
 6.400  0.6808   94.1   1.480    8.5  0.2532   23.3  0.3556  151.4
 6.500  0.6818   93.3   1.458    7.4  0.2559   22.6  0.3581  150.9
 6.600  0.6811   92.4   1.440    6.4  0.2589   21.9  0.3576  150.5
 6.800  0.6803   90.5   1.404    4.5  0.2650   20.5  0.3567  149.8
 7.000  0.6801   88.7   1.370    2.4  0.2712   19.1  0.3559  149.0
 7.200  0.6819   86.5   1.341    0.3  0.2777   17.4  0.3554  147.5
 7.400  0.6846   84.4   1.315   -1.9  0.2844   15.8  0.3551  146.0
 7.600  0.6884   82.0   1.288   -4.2  0.2908   14.0  0.3568  144.2
 7.800  0.6935   79.6   1.261   -6.6  0.2968   12.1  0.3607  141.9
 8.000  0.7000   77.1   1.237   -9.1  0.3032   10.2  0.3652  139.7
 8.200  0.7053   74.5   1.205  -11.5  0.3072    8.0  0.3698  136.9
 8.400  0.7119   72.0   1.175  -14.0  0.3116    5.9  0.3752  134.1
 8.600  0.7208   69.5   1.144  -16.4  0.3142    3.8  0.3821  130.8
 8.800  0.7315   67.3   1.112  -18.6  0.3152    1.7  0.3913  126.8
 9.000  0.7434   65.1   1.081  -21.0  0.3166   -0.4  0.4023  123.1
 9.200  0.7593   63.2   1.046  -22.9  0.3153   -2.0  0.4194  118.7
 9.400  0.7760   61.5   1.012  -24.9  0.3142   -3.6  0.4388  114.7
 9.600  0.7907   59.8   0.978  -26.6  0.3131   -4.9  0.4585  111.1
 9.800  0.8032   58.3   0.945  -28.0  0.3116   -5.9  0.4783  108.0
10.000  0.8163   56.9   0.912  -29.6  0.3103   -6.9  0.4993  105.2
!
!  f       NFmin   Gammaopt  rn/50
! GHz       dB    MAG  ANG    -
 0.450      1.86  0.32 -170   0.13
 0.900      1.89  0.29 -162   0.14
 1.900      1.98  0.40 -140   0.16
 3.500      1.78  0.62 -116   0.27
!
! (c) 2016  Infineon Technologies AG, Munich
