! Infineon Technologies  Discrete & RF Semiconductors
! BFP460
! VCE =  4.0 V,  IC =  25 mA
! Common Emitter S-Parameters:                            Jan 2016
# GHz  S  MA  R  50
!  f         S11            S21            S12            S22
! GHz     MAG   ANG      MAG   ANG      MAG   ANG      MAG   ANG
 0.030  0.5608  -15.4  50.030  170.4  0.0046   82.5  0.9379   -9.3
 0.035  0.5579  -18.0  49.724  168.9  0.0054   81.4  0.9346  -10.8
 0.040  0.5561  -20.7  49.454  167.3  0.0062   80.6  0.9320  -12.4
 0.045  0.5519  -23.1  49.007  165.8  0.0070   80.0  0.9275  -13.8
 0.050  0.5486  -25.5  48.596  164.2  0.0078   79.6  0.9235  -15.2
 0.055  0.5485  -28.3  48.279  163.0  0.0085   77.9  0.9177  -16.7
 0.060  0.5498  -31.1  47.985  161.7  0.0092   76.5  0.9125  -18.3
 0.065  0.5484  -33.5  47.711  160.3  0.0099   75.2  0.9057  -19.8
 0.070  0.5480  -35.9  47.467  158.8  0.0106   74.1  0.8995  -21.4
 0.075  0.5464  -38.1  47.029  157.7  0.0112   73.8  0.8923  -22.8
 0.080  0.5456  -40.4  46.610  156.5  0.0118   73.6  0.8856  -24.2
 0.085  0.5432  -43.0  46.143  155.2  0.0124   72.8  0.8774  -25.6
 0.090  0.5419  -45.6  45.701  153.8  0.0131   72.0  0.8697  -27.0
 0.095  0.5401  -47.6  45.143  152.7  0.0137   71.3  0.8615  -28.3
 0.100  0.5390  -49.6  44.603  151.5  0.0144   70.7  0.8537  -29.7
 0.105  0.5373  -51.8  44.190  150.3  0.0149   69.8  0.8448  -31.0
 0.110  0.5363  -54.0  43.796  149.1  0.0154   68.9  0.8363  -32.3
 0.115  0.5330  -56.2  43.303  147.9  0.0159   68.3  0.8275  -33.5
 0.120  0.5306  -58.5  42.829  146.7  0.0165   67.8  0.8190  -34.8
 0.125  0.5277  -60.4  42.333  145.7  0.0170   67.0  0.8098  -36.0
 0.130  0.5255  -62.4  41.850  144.7  0.0175   66.2  0.8009  -37.2
 0.135  0.5231  -64.3  41.384  143.6  0.0180   65.6  0.7918  -38.3
 0.140  0.5213  -66.3  40.933  142.5  0.0185   65.1  0.7831  -39.5
 0.145  0.5189  -68.2  40.378  141.5  0.0189   64.6  0.7740  -40.6
 0.150  0.5170  -70.1  39.836  140.4  0.0193   64.1  0.7652  -41.8
 0.155  0.5133  -71.7  39.336  139.6  0.0197   63.6  0.7557  -42.7
 0.160  0.5099  -73.3  38.844  138.8  0.0201   63.1  0.7464  -43.6
 0.165  0.5070  -75.0  38.360  138.0  0.0205   62.7  0.7373  -44.5
 0.170  0.5045  -76.6  37.883  137.2  0.0209   62.2  0.7283  -45.4
 0.175  0.5025  -78.3  37.415  136.3  0.0213   61.8  0.7196  -46.4
 0.180  0.5008  -80.0  36.955  135.4  0.0217   61.4  0.7110  -47.3
 0.185  0.4996  -81.7  36.504  134.5  0.0221   61.0  0.7027  -48.3
 0.190  0.4989  -83.4  36.063  133.6  0.0225   60.6  0.6946  -49.4
 0.195  0.4986  -85.1  35.631  132.7  0.0229   60.3  0.6867  -50.4
 0.200  0.4987  -86.8  35.209  131.7  0.0233   59.9  0.6791  -51.5
 0.220  0.4897  -92.1  33.497  129.1  0.0245   58.7  0.6475  -54.4
 0.240  0.4850  -97.6  31.858  126.3  0.0258   57.6  0.6177  -57.7
 0.260  0.4812 -102.6  30.352  123.8  0.0269   56.7  0.5902  -60.6
 0.280  0.4769 -107.0  28.947  121.6  0.0280   56.0  0.5643  -63.1
 0.300  0.4754 -111.4  27.588  119.2  0.0290   55.4  0.5395  -65.9
 0.320  0.4706 -115.0  26.390  117.5  0.0299   55.1  0.5178  -67.9
 0.340  0.4677 -118.7  25.219  115.6  0.0308   54.8  0.4968  -70.1
 0.360  0.4651 -122.1  24.150  113.9  0.0317   54.5  0.4777  -72.2
 0.380  0.4622 -125.1  23.175  112.4  0.0326   54.3  0.4602  -74.0
 0.400  0.4607 -128.2  22.218  110.7  0.0334   54.1  0.4433  -76.0
 0.420  0.4585 -130.9  21.391  109.5  0.0342   54.1  0.4285  -77.6
 0.440  0.4572 -133.6  20.574  108.2  0.0350   54.0  0.4140  -79.3
 0.450  0.4570 -134.9  20.170  107.5  0.0354   54.0  0.4069  -80.2
 0.460  0.4559 -136.0  19.823  107.0  0.0358   54.0  0.4007  -80.9
 0.480  0.4542 -138.2  19.133  105.9  0.0365   54.1  0.3885  -82.3
 0.500  0.4532 -140.4  18.450  104.8  0.0373   54.2  0.3765  -83.8
 0.520  0.4517 -142.2  17.894  104.0  0.0381   54.3  0.3668  -84.9
 0.540  0.4507 -144.1  17.342  103.1  0.0389   54.5  0.3572  -86.1
 0.560  0.4501 -146.0  16.794  102.1  0.0396   54.6  0.3478  -87.3
 0.580  0.4500 -147.8  16.251  101.1  0.0404   54.7  0.3386  -88.6
 0.600  0.4504 -149.7  15.714  100.0  0.0412   54.8  0.3295  -90.0
 0.620  0.4494 -151.2  15.297   99.3  0.0420   54.9  0.3224  -91.0
 0.640  0.4487 -152.7  14.883   98.6  0.0428   55.1  0.3154  -92.1
 0.660  0.4482 -154.1  14.472   97.8  0.0435   55.2  0.3085  -93.2
 0.680  0.4481 -155.6  14.063   97.0  0.0443   55.3  0.3017  -94.3
 0.700  0.4483 -157.1  13.657   96.1  0.0451   55.4  0.2950  -95.5
 0.720  0.4479 -158.3  13.336   95.5  0.0459   55.5  0.2897  -96.4
 0.740  0.4477 -159.6  13.016   94.9  0.0467   55.7  0.2845  -97.3
 0.760  0.4477 -160.8  12.697   94.2  0.0475   55.8  0.2793  -98.2
 0.780  0.4479 -162.1  12.381   93.5  0.0483   55.9  0.2742  -99.2
 0.800  0.4483 -163.3  12.066   92.8  0.0491   56.0  0.2692 -100.2
 0.820  0.4481 -164.3  11.812   92.3  0.0499   56.1  0.2652 -101.0
 0.840  0.4480 -165.4  11.560   91.8  0.0507   56.3  0.2612 -101.8
 0.860  0.4481 -166.4  11.308   91.2  0.0516   56.4  0.2573 -102.6
 0.880  0.4483 -167.5  11.058   90.6  0.0524   56.5  0.2535 -103.4
 0.900  0.4487 -168.5  10.809   90.0  0.0532   56.6  0.2497 -104.3
 0.920  0.4486 -169.4  10.602   89.5  0.0540   56.7  0.2466 -105.0
 0.940  0.4485 -170.4  10.396   89.0  0.0548   56.8  0.2435 -105.8
 0.960  0.4486 -171.3  10.191   88.5  0.0557   56.8  0.2404 -106.5
 0.980  0.4489 -172.3   9.986   88.0  0.0565   56.9  0.2374 -107.3
 1.000  0.4492 -173.2   9.783   87.4  0.0573   57.0  0.2344 -108.1
 1.020  0.4494 -174.0   9.611   86.9  0.0581   57.1  0.2320 -108.8
 1.040  0.4496 -174.8   9.440   86.5  0.0590   57.1  0.2297 -109.5
 1.060  0.4499 -175.7   9.270   86.0  0.0598   57.2  0.2273 -110.2
 1.080  0.4504 -176.5   9.100   85.4  0.0607   57.2  0.2251 -110.9
 1.100  0.4509 -177.3   8.931   84.9  0.0615   57.3  0.2228 -111.6
 1.120  0.4510 -178.0   8.787   84.5  0.0623   57.3  0.2208 -112.2
 1.140  0.4513 -178.8   8.643   84.1  0.0632   57.3  0.2189 -112.9
 1.160  0.4516 -179.5   8.500   83.6  0.0640   57.4  0.2170 -113.5
 1.180  0.4519  179.7   8.357   83.2  0.0649   57.4  0.2151 -114.2
 1.200  0.4524  179.0   8.215   82.7  0.0657   57.4  0.2133 -114.9
 1.220  0.4527  178.3   8.092   82.3  0.0665   57.4  0.2118 -115.5
 1.240  0.4531  177.6   7.970   81.9  0.0674   57.4  0.2104 -116.0
 1.260  0.4536  176.9   7.848   81.5  0.0682   57.5  0.2090 -116.6
 1.280  0.4541  176.2   7.726   81.0  0.0691   57.5  0.2076 -117.2
 1.300  0.4547  175.5   7.605   80.6  0.0699   57.5  0.2062 -117.8
 1.320  0.4548  174.9   7.499   80.2  0.0708   57.5  0.2049 -118.4
 1.340  0.4549  174.3   7.393   79.8  0.0716   57.5  0.2036 -118.9
 1.360  0.4551  173.6   7.288   79.4  0.0725   57.4  0.2023 -119.5
 1.380  0.4554  173.0   7.183   79.0  0.0733   57.4  0.2010 -120.1
 1.400  0.4557  172.4   7.078   78.6  0.0742   57.4  0.1998 -120.7
 1.420  0.4563  171.8   6.986   78.2  0.0751   57.4  0.1989 -121.2
 1.440  0.4569  171.2   6.894   77.8  0.0759   57.3  0.1980 -121.7
 1.460  0.4575  170.5   6.803   77.4  0.0768   57.3  0.1971 -122.2
 1.480  0.4582  169.9   6.712   77.0  0.0776   57.2  0.1962 -122.7
 1.500  0.4590  169.3   6.621   76.6  0.0785   57.2  0.1953 -123.2
 1.520  0.4594  168.7   6.540   76.2  0.0793   57.1  0.1945 -123.7
 1.540  0.4598  168.1   6.459   75.9  0.0802   57.1  0.1937 -124.3
 1.560  0.4603  167.5   6.378   75.5  0.0810   57.0  0.1929 -124.8
 1.580  0.4608  166.9   6.297   75.1  0.0819   57.0  0.1921 -125.4
 1.600  0.4614  166.3   6.217   74.7  0.0827   56.9  0.1914 -125.9
 1.620  0.4617  165.8   6.146   74.3  0.0836   56.8  0.1908 -126.4
 1.640  0.4621  165.3   6.076   74.0  0.0845   56.8  0.1902 -126.8
 1.660  0.4625  164.7   6.006   73.6  0.0853   56.7  0.1896 -127.3
 1.680  0.4629  164.2   5.936   73.2  0.0862   56.7  0.1891 -127.7
 1.700  0.4634  163.7   5.867   72.8  0.0871   56.6  0.1885 -128.2
 1.720  0.4638  163.2   5.803   72.5  0.0879   56.5  0.1880 -128.7
 1.740  0.4643  162.6   5.739   72.1  0.0888   56.4  0.1875 -129.2
 1.760  0.4648  162.1   5.675   71.8  0.0896   56.4  0.1871 -129.6
 1.780  0.4654  161.5   5.611   71.5  0.0905   56.3  0.1866 -130.1
 1.800  0.4660  161.0   5.548   71.1  0.0913   56.2  0.1862 -130.6
 1.820  0.4666  160.5   5.491   70.8  0.0922   56.1  0.1858 -131.1
 1.840  0.4673  160.0   5.435   70.4  0.0930   56.0  0.1854 -131.6
 1.860  0.4680  159.4   5.379   70.0  0.0939   56.0  0.1851 -132.0
 1.880  0.4688  158.9   5.323   69.7  0.0947   55.9  0.1847 -132.5
 1.900  0.4696  158.4   5.267   69.3  0.0956   55.8  0.1844 -133.0
 1.920  0.4701  157.9   5.215   69.0  0.0965   55.7  0.1841 -133.5
 1.940  0.4707  157.4   5.164   68.6  0.0973   55.6  0.1838 -134.0
 1.960  0.4713  157.0   5.113   68.2  0.0982   55.4  0.1836 -134.4
 1.980  0.4719  156.5   5.062   67.9  0.0990   55.3  0.1833 -134.9
 2.000  0.4726  156.0   5.011   67.5  0.0999   55.2  0.1831 -135.4
 2.020  0.4734  155.5   4.965   67.2  0.1007   55.1  0.1830 -135.9
 2.040  0.4742  155.0   4.920   66.9  0.1016   55.0  0.1828 -136.4
 2.060  0.4750  154.6   4.874   66.5  0.1024   54.9  0.1827 -136.8
 2.080  0.4759  154.1   4.829   66.2  0.1033   54.7  0.1826 -137.3
 2.100  0.4768  153.6   4.784   65.9  0.1041   54.6  0.1825 -137.8
 2.120  0.4777  153.2   4.739   65.5  0.1050   54.5  0.1824 -138.3
 2.140  0.4787  152.7   4.694   65.2  0.1058   54.4  0.1823 -138.8
 2.160  0.4797  152.2   4.650   64.8  0.1067   54.3  0.1823 -139.2
 2.180  0.4807  151.8   4.605   64.5  0.1075   54.2  0.1822 -139.7
 2.200  0.4818  151.3   4.561   64.1  0.1084   54.1  0.1822 -140.2
 2.220  0.4824  150.9   4.523   63.8  0.1092   54.0  0.1822 -140.7
 2.240  0.4831  150.4   4.485   63.5  0.1101   53.8  0.1823 -141.2
 2.260  0.4837  150.0   4.447   63.1  0.1109   53.7  0.1824 -141.7
 2.280  0.4845  149.5   4.410   62.8  0.1117   53.5  0.1824 -142.2
 2.300  0.4852  149.1   4.372   62.5  0.1125   53.4  0.1825 -142.7
 2.320  0.4860  148.6   4.335   62.1  0.1134   53.2  0.1826 -143.1
 2.340  0.4868  148.2   4.298   61.8  0.1142   53.1  0.1828 -143.6
 2.360  0.4876  147.8   4.261   61.4  0.1150   53.0  0.1829 -144.1
 2.380  0.4884  147.3   4.224   61.1  0.1159   52.8  0.1830 -144.6
 2.400  0.4893  146.9   4.187   60.7  0.1167   52.7  0.1832 -145.1
 2.420  0.4901  146.5   4.154   60.4  0.1175   52.6  0.1835 -145.6
 2.440  0.4909  146.0   4.122   60.1  0.1183   52.4  0.1837 -146.1
 2.460  0.4918  145.6   4.089   59.8  0.1192   52.3  0.1840 -146.6
 2.480  0.4927  145.2   4.057   59.5  0.1200   52.1  0.1844 -147.1
 2.500  0.4936  144.8   4.024   59.2  0.1208   52.0  0.1847 -147.6
 2.520  0.4945  144.4   3.992   58.8  0.1216   51.8  0.1850 -148.1
 2.540  0.4955  143.9   3.960   58.5  0.1224   51.7  0.1854 -148.6
 2.560  0.4964  143.5   3.928   58.2  0.1233   51.6  0.1857 -149.1
 2.580  0.4975  143.1   3.897   57.8  0.1241   51.4  0.1861 -149.6
 2.600  0.4985  142.7   3.865   57.5  0.1249   51.3  0.1865 -150.1
 2.620  0.4994  142.3   3.837   57.2  0.1257   51.1  0.1869 -150.6
 2.640  0.5003  141.9   3.808   56.9  0.1265   51.0  0.1874 -151.1
 2.660  0.5012  141.5   3.780   56.6  0.1273   50.8  0.1879 -151.5
 2.680  0.5022  141.1   3.752   56.3  0.1280   50.7  0.1883 -152.0
 2.700  0.5032  140.7   3.724   56.0  0.1288   50.5  0.1888 -152.5
 2.720  0.5042  140.3   3.696   55.6  0.1296   50.4  0.1893 -153.0
 2.740  0.5052  140.0   3.668   55.3  0.1304   50.2  0.1899 -153.4
 2.760  0.5062  139.6   3.641   55.0  0.1312   50.1  0.1904 -153.9
 2.780  0.5073  139.2   3.613   54.6  0.1320   49.9  0.1909 -154.3
 2.800  0.5084  138.8   3.586   54.3  0.1328   49.8  0.1915 -154.8
 2.820  0.5093  138.4   3.561   54.0  0.1336   49.6  0.1921 -155.3
 2.840  0.5102  138.1   3.537   53.7  0.1344   49.5  0.1927 -155.7
 2.860  0.5111  137.7   3.512   53.4  0.1352   49.3  0.1933 -156.2
 2.880  0.5121  137.4   3.488   53.2  0.1359   49.2  0.1939 -156.6
 2.900  0.5131  137.0   3.464   52.9  0.1367   49.0  0.1946 -157.0
 2.920  0.5141  136.7   3.440   52.6  0.1375   48.9  0.1952 -157.5
 2.940  0.5151  136.3   3.416   52.2  0.1383   48.7  0.1959 -157.9
 2.960  0.5161  136.0   3.392   51.9  0.1391   48.6  0.1965 -158.3
 2.980  0.5171  135.6   3.368   51.6  0.1399   48.4  0.1972 -158.8
 3.000  0.5182  135.3   3.344   51.3  0.1407   48.3  0.1979 -159.2
 3.100  0.5226  133.5   3.242   50.0  0.1443   47.4  0.2012 -161.3
 3.200  0.5276  131.7   3.143   48.6  0.1480   46.6  0.2047 -163.3
 3.300  0.5330  130.0   3.045   47.1  0.1517   45.8  0.2085 -165.2
 3.400  0.5389  128.3   2.949   45.5  0.1554   45.0  0.2125 -167.1
 3.500  0.5453  126.6   2.856   43.8  0.1592   44.3  0.2167 -168.9
 3.600  0.5508  125.1   2.778   42.6  0.1625   43.4  0.2207 -171.0
 3.700  0.5567  123.5   2.702   41.3  0.1658   42.6  0.2251 -173.1
 3.800  0.5630  122.1   2.627   39.9  0.1691   41.7  0.2296 -175.0
 3.900  0.5697  120.6   2.554   38.4  0.1725   41.0  0.2345 -176.9
 4.000  0.5767  119.2   2.482   36.9  0.1759   40.2  0.2396 -178.7
 4.100  0.5822  117.9   2.421   35.7  0.1789   39.4  0.2451  179.4
 4.200  0.5881  116.6   2.360   34.5  0.1818   38.6  0.2508  177.6
 4.300  0.5942  115.4   2.301   33.1  0.1849   37.8  0.2567  175.9
 4.400  0.6006  114.2   2.243   31.8  0.1879   37.1  0.2629  174.3
 4.500  0.6072  113.0   2.187   30.3  0.1910   36.4  0.2693  172.7
 4.600  0.6113  111.8   2.139   29.2  0.1939   35.7  0.2739  171.4
 4.700  0.6156  110.7   2.092   28.1  0.1968   35.0  0.2786  170.1
 4.800  0.6202  109.5   2.045   26.9  0.1998   34.4  0.2834  168.9
 4.900  0.6250  108.4   2.000   25.7  0.2028   33.7  0.2883  167.7
 5.000  0.6301  107.3   1.955   24.4  0.2058   33.1  0.2934  166.6
 5.100  0.6332  106.3   1.918   23.4  0.2089   32.4  0.2965  165.6
 5.200  0.6364  105.4   1.882   22.3  0.2121   31.6  0.2997  164.7
 5.300  0.6398  104.4   1.846   21.2  0.2153   30.9  0.3029  163.8
 5.400  0.6434  103.5   1.811   20.1  0.2185   30.3  0.3063  162.9
 5.500  0.6471  102.6   1.777   18.9  0.2218   29.6  0.3097  162.0
 5.600  0.6493  101.8   1.748   17.9  0.2247   28.8  0.3133  161.1
 5.700  0.6517  101.0   1.719   16.8  0.2277   28.0  0.3171  160.3
 5.800  0.6542  100.2   1.690   15.7  0.2307   27.3  0.3208  159.5
 5.900  0.6568   99.4   1.663   14.5  0.2337   26.5  0.3247  158.7
 6.000  0.6595   98.6   1.636   13.3  0.2368   25.8  0.3286  157.9
 6.100  0.6601   97.8   1.611   12.3  0.2394   25.0  0.3312  157.3
 6.200  0.6608   97.0   1.586   11.3  0.2420   24.3  0.3338  156.8
 6.300  0.6616   96.2   1.562   10.2  0.2446   23.6  0.3364  156.3
 6.400  0.6625   95.4   1.538    9.1  0.2473   22.9  0.3390  155.7
 6.500  0.6636   94.6   1.515    8.0  0.2500   22.2  0.3417  155.2
 6.600  0.6630   93.7   1.496    7.1  0.2529   21.5  0.3414  154.8
 6.800  0.6624   91.8   1.458    5.1  0.2589   20.1  0.3409  154.1
 7.000  0.6625   90.0   1.422    3.0  0.2650   18.8  0.3405  153.4
 7.200  0.6642   87.8   1.392    0.9  0.2714   17.2  0.3402  151.9
 7.400  0.6670   85.6   1.364   -1.4  0.2781   15.6  0.3401  150.4
 7.600  0.6711   83.2   1.336   -3.7  0.2844   13.9  0.3418  148.6
 7.800  0.6768   80.7   1.308   -6.1  0.2904   12.1  0.3455  146.3
 8.000  0.6837   78.3   1.283   -8.7  0.2967   10.3  0.3498  144.1
 8.200  0.6893   75.7   1.250  -11.0  0.3008    8.1  0.3542  141.2
 8.400  0.6963   73.1   1.219  -13.5  0.3054    6.0  0.3594  138.4
 8.600  0.7057   70.6   1.187  -15.9  0.3083    4.0  0.3661  134.9
 8.800  0.7173   68.3   1.153  -18.2  0.3095    1.9  0.3749  130.8
 9.000  0.7300   66.1   1.122  -20.6  0.3112   -0.1  0.3856  126.9
 9.200  0.7465   64.2   1.085  -22.5  0.3102   -1.7  0.4023  122.2
 9.400  0.7637   62.5   1.050  -24.5  0.3094   -3.3  0.4213  118.0
 9.600  0.7791   60.8   1.015  -26.3  0.3085   -4.6  0.4411  114.3
 9.800  0.7924   59.3   0.981  -27.8  0.3073   -5.6  0.4611  111.0
10.000  0.8063   57.9   0.947  -29.4  0.3062   -6.6  0.4824  108.0
!
!  f       NFmin   Gammaopt  rn/50
! GHz       dB    MAG  ANG    -
 0.450      1.36  0.13 -171   0.13
 0.900      1.38  0.11 -170   0.13
 1.900      1.49  0.23 -146   0.13
 3.500      1.42  0.46 -122   0.16
!
! (c) 2016  Infineon Technologies AG, Munich
