! Infineon Technologies  Discrete & RF Semiconductors
! BFP460
! VCE =  2.0 V,  IC =  30 mA
! Common Emitter S-Parameters:                            Jan 2016
# GHz  S  MA  R  50
!  f         S11            S21            S12            S22
! GHz     MAG   ANG      MAG   ANG      MAG   ANG      MAG   ANG
 0.030  0.4895  -19.9  55.794  170.0  0.0049   84.3  0.9245  -10.9
 0.035  0.4863  -23.2  55.420  168.2  0.0056   82.4  0.9202  -12.8
 0.040  0.4847  -26.6  55.101  166.4  0.0064   81.0  0.9170  -14.7
 0.045  0.4837  -29.5  54.579  164.5  0.0071   80.6  0.9110  -16.6
 0.050  0.4840  -32.5  54.121  162.5  0.0078   80.2  0.9061  -18.5
 0.055  0.4843  -35.9  53.674  161.0  0.0086   78.1  0.8989  -20.3
 0.060  0.4863  -39.2  53.263  159.5  0.0095   76.3  0.8926  -22.2
 0.065  0.4823  -42.3  52.835  157.9  0.0099   75.3  0.8839  -23.9
 0.070  0.4798  -45.5  52.450  156.2  0.0104   74.3  0.8760  -25.7
 0.075  0.4823  -48.3  51.864  154.9  0.0111   73.6  0.8671  -27.4
 0.080  0.4860  -51.1  51.307  153.5  0.0118   73.0  0.8590  -29.2
 0.085  0.4832  -54.0  50.655  152.0  0.0124   71.8  0.8488  -30.8
 0.090  0.4816  -57.0  50.037  150.5  0.0131   70.8  0.8394  -32.5
 0.095  0.4807  -59.3  49.308  149.2  0.0137   70.2  0.8295  -34.0
 0.100  0.4806  -61.6  48.604  147.9  0.0143   69.6  0.8202  -35.6
 0.105  0.4812  -64.1  48.028  146.6  0.0148   68.5  0.8094  -37.1
 0.110  0.4826  -66.5  47.477  145.3  0.0153   67.5  0.7992  -38.6
 0.115  0.4803  -69.0  46.801  144.1  0.0158   66.8  0.7888  -40.0
 0.120  0.4789  -71.6  46.148  142.8  0.0163   66.2  0.7789  -41.5
 0.125  0.4768  -73.9  45.491  141.7  0.0168   65.6  0.7681  -42.9
 0.130  0.4754  -76.2  44.851  140.6  0.0173   65.0  0.7578  -44.3
 0.135  0.4749  -78.4  44.234  139.5  0.0177   64.4  0.7475  -45.6
 0.140  0.4751  -80.7  43.635  138.3  0.0181   63.9  0.7376  -46.9
 0.145  0.4744  -82.7  42.932  137.2  0.0186   63.3  0.7273  -48.1
 0.150  0.4742  -84.7  42.244  136.1  0.0191   62.8  0.7173  -49.4
 0.155  0.4719  -86.4  41.629  135.3  0.0194   62.3  0.7070  -50.4
 0.160  0.4700  -88.1  41.022  134.5  0.0198   61.9  0.6969  -51.3
 0.165  0.4685  -89.8  40.424  133.7  0.0201   61.5  0.6871  -52.4
 0.170  0.4675  -91.6  39.833  132.9  0.0204   61.0  0.6774  -53.4
 0.175  0.4669  -93.3  39.252  132.0  0.0207   60.6  0.6680  -54.5
 0.180  0.4667  -95.1  38.679  131.1  0.0211   60.2  0.6589  -55.6
 0.185  0.4670  -96.8  38.116  130.2  0.0214   59.9  0.6499  -56.7
 0.190  0.4676  -98.5  37.564  129.3  0.0217   59.5  0.6413  -57.9
 0.195  0.4688 -100.3  37.021  128.3  0.0221   59.1  0.6329  -59.1
 0.200  0.4703 -102.0  36.490  127.3  0.0224   58.8  0.6248  -60.3
 0.220  0.4663 -107.3  34.494  124.8  0.0236   57.9  0.5928  -63.5
 0.240  0.4663 -112.6  32.574  121.9  0.0247   57.2  0.5630  -67.1
 0.260  0.4662 -117.3  30.848  119.5  0.0258   56.6  0.5360  -70.3
 0.280  0.4648 -121.4  29.278  117.4  0.0267   56.2  0.5112  -73.1
 0.300  0.4657 -125.5  27.749  115.2  0.0277   55.9  0.4877  -76.2
 0.320  0.4639 -128.8  26.460  113.6  0.0285   55.7  0.4676  -78.4
 0.340  0.4636 -132.1  25.193  111.8  0.0294   55.6  0.4483  -80.9
 0.360  0.4634 -135.2  24.047  110.2  0.0302   55.5  0.4310  -83.2
 0.380  0.4627 -137.9  23.012  108.8  0.0311   55.5  0.4154  -85.3
 0.400  0.4631 -140.6  21.993  107.3  0.0319   55.5  0.4004  -87.5
 0.420  0.4627 -142.8  21.134  106.2  0.0327   55.6  0.3875  -89.3
 0.440  0.4630 -145.1  20.283  105.0  0.0336   55.7  0.3750  -91.2
 0.450  0.4634 -146.2  19.862  104.3  0.0340   55.8  0.3689  -92.2
 0.460  0.4631 -147.2  19.507  103.8  0.0344   55.9  0.3636  -93.0
 0.480  0.4630 -149.1  18.801  102.9  0.0353   56.1  0.3533  -94.6
 0.500  0.4634 -151.0  18.101  101.8  0.0361   56.3  0.3432  -96.3
 0.520  0.4628 -152.6  17.540  101.0  0.0369   56.5  0.3351  -97.6
 0.540  0.4626 -154.2  16.982  100.2  0.0378   56.7  0.3271  -99.0
 0.560  0.4627 -155.8  16.428   99.3  0.0386   56.9  0.3194 -100.4
 0.580  0.4632 -157.4  15.878   98.4  0.0395   57.0  0.3118 -101.9
 0.600  0.4641 -159.0  15.333   97.4  0.0403   57.2  0.3045 -103.5
 0.620  0.4640 -160.2  14.917   96.8  0.0411   57.4  0.2987 -104.7
 0.640  0.4641 -161.5  14.504   96.1  0.0420   57.5  0.2931 -105.9
 0.660  0.4645 -162.7  14.093   95.4  0.0428   57.7  0.2876 -107.1
 0.680  0.4650 -164.0  13.684   94.6  0.0437   57.9  0.2823 -108.4
 0.700  0.4658 -165.2  13.277   93.8  0.0445   58.0  0.2771 -109.8
 0.720  0.4658 -166.3  12.960   93.3  0.0454   58.2  0.2730 -110.8
 0.740  0.4660 -167.3  12.645   92.7  0.0463   58.3  0.2689 -111.8
 0.760  0.4663 -168.4  12.331   92.1  0.0471   58.4  0.2650 -112.9
 0.780  0.4668 -169.4  12.018   91.5  0.0480   58.6  0.2612 -114.0
 0.800  0.4674 -170.5  11.707   90.8  0.0489   58.7  0.2574 -115.1
 0.820  0.4676 -171.4  11.458   90.3  0.0498   58.8  0.2544 -116.0
 0.840  0.4679 -172.3  11.209   89.8  0.0506   58.9  0.2514 -116.9
 0.860  0.4683 -173.1  10.962   89.3  0.0515   59.0  0.2486 -117.9
 0.880  0.4689 -174.0  10.715   88.7  0.0523   59.1  0.2457 -118.8
 0.900  0.4695 -174.9  10.470   88.1  0.0532   59.2  0.2430 -119.8
 0.920  0.4695 -175.7  10.268   87.7  0.0541   59.3  0.2407 -120.6
 0.940  0.4696 -176.5  10.066   87.2  0.0550   59.4  0.2385 -121.4
 0.960  0.4698 -177.4   9.865   86.7  0.0559   59.4  0.2363 -122.2
 0.980  0.4701 -178.2   9.665   86.2  0.0568   59.5  0.2342 -123.0
 1.000  0.4705 -179.0   9.465   85.7  0.0577   59.6  0.2321 -123.9
 1.020  0.4707 -179.7   9.297   85.3  0.0586   59.6  0.2304 -124.6
 1.040  0.4710  179.6   9.130   84.8  0.0595   59.6  0.2288 -125.4
 1.060  0.4714  178.8   8.963   84.4  0.0604   59.7  0.2272 -126.1
 1.080  0.4718  178.1   8.797   83.9  0.0613   59.7  0.2257 -126.9
 1.100  0.4723  177.4   8.632   83.4  0.0622   59.7  0.2242 -127.7
 1.120  0.4726  176.7   8.492   83.0  0.0631   59.7  0.2229 -128.4
 1.140  0.4730  176.1   8.352   82.6  0.0640   59.7  0.2215 -129.0
 1.160  0.4734  175.4   8.212   82.2  0.0650   59.7  0.2203 -129.7
 1.180  0.4739  174.8   8.073   81.7  0.0659   59.7  0.2190 -130.4
 1.200  0.4744  174.1   7.935   81.3  0.0668   59.7  0.2178 -131.1
 1.220  0.4748  173.5   7.815   80.9  0.0677   59.7  0.2169 -131.7
 1.240  0.4752  172.9   7.696   80.5  0.0686   59.7  0.2160 -132.3
 1.260  0.4756  172.3   7.577   80.1  0.0696   59.6  0.2151 -132.9
 1.280  0.4761  171.7   7.459   79.6  0.0705   59.6  0.2142 -133.5
 1.300  0.4767  171.1   7.341   79.2  0.0714   59.6  0.2134 -134.1
 1.320  0.4771  170.5   7.238   78.8  0.0723   59.6  0.2126 -134.7
 1.340  0.4775  169.9   7.136   78.5  0.0732   59.5  0.2117 -135.3
 1.360  0.4779  169.4   7.033   78.1  0.0741   59.5  0.2109 -135.9
 1.380  0.4784  168.8   6.932   77.7  0.0750   59.4  0.2102 -136.5
 1.400  0.4790  168.2   6.830   77.3  0.0759   59.4  0.2094 -137.1
 1.420  0.4794  167.6   6.741   76.9  0.0768   59.3  0.2089 -137.6
 1.440  0.4799  167.1   6.652   76.6  0.0777   59.3  0.2084 -138.1
 1.460  0.4805  166.5   6.563   76.2  0.0787   59.2  0.2080 -138.6
 1.480  0.4811  166.0   6.475   75.8  0.0796   59.2  0.2075 -139.1
 1.500  0.4817  165.4   6.387   75.4  0.0805   59.1  0.2071 -139.6
 1.520  0.4823  164.9   6.309   75.1  0.0814   59.0  0.2067 -140.1
 1.540  0.4829  164.3   6.230   74.7  0.0823   58.9  0.2063 -140.6
 1.560  0.4835  163.8   6.152   74.3  0.0833   58.9  0.2059 -141.1
 1.580  0.4842  163.2   6.075   74.0  0.0842   58.8  0.2055 -141.6
 1.600  0.4849  162.7   5.997   73.6  0.0851   58.7  0.2051 -142.1
 1.620  0.4852  162.2   5.928   73.2  0.0860   58.6  0.2048 -142.6
 1.640  0.4855  161.7   5.860   72.9  0.0869   58.5  0.2045 -143.0
 1.660  0.4858  161.3   5.792   72.5  0.0879   58.4  0.2043 -143.5
 1.680  0.4862  160.8   5.724   72.1  0.0888   58.3  0.2040 -143.9
 1.700  0.4866  160.3   5.656   71.7  0.0897   58.2  0.2038 -144.4
 1.720  0.4871  159.8   5.594   71.4  0.0906   58.1  0.2037 -144.9
 1.740  0.4876  159.3   5.532   71.0  0.0915   58.0  0.2035 -145.3
 1.760  0.4881  158.9   5.470   70.7  0.0925   57.9  0.2034 -145.8
 1.780  0.4887  158.4   5.408   70.4  0.0934   57.8  0.2033 -146.2
 1.800  0.4893  157.9   5.347   70.0  0.0943   57.7  0.2032 -146.7
 1.820  0.4900  157.4   5.292   69.7  0.0952   57.6  0.2031 -147.1
 1.840  0.4906  156.9   5.237   69.3  0.0961   57.5  0.2030 -147.6
 1.860  0.4914  156.5   5.183   69.0  0.0970   57.3  0.2029 -148.0
 1.880  0.4921  156.0   5.128   68.7  0.0979   57.2  0.2029 -148.5
 1.900  0.4929  155.5   5.074   68.3  0.0988   57.1  0.2028 -148.9
 1.920  0.4935  155.0   5.024   67.9  0.0997   57.0  0.2028 -149.3
 1.940  0.4942  154.5   4.975   67.6  0.1006   56.9  0.2028 -149.8
 1.960  0.4948  154.1   4.926   67.2  0.1015   56.7  0.2029 -150.2
 1.980  0.4956  153.6   4.877   66.8  0.1024   56.6  0.2029 -150.7
 2.000  0.4963  153.1   4.828   66.4  0.1033   56.5  0.2030 -151.1
 2.020  0.4970  152.7   4.784   66.1  0.1042   56.3  0.2031 -151.5
 2.040  0.4976  152.2   4.739   65.8  0.1051   56.2  0.2032 -152.0
 2.060  0.4983  151.8   4.695   65.5  0.1060   56.0  0.2034 -152.4
 2.080  0.4991  151.4   4.651   65.2  0.1069   55.9  0.2035 -152.8
 2.100  0.4998  150.9   4.608   64.8  0.1078   55.7  0.2037 -153.3
 2.120  0.5006  150.5   4.564   64.5  0.1087   55.6  0.2039 -153.7
 2.140  0.5015  150.1   4.520   64.2  0.1096   55.4  0.2041 -154.1
 2.160  0.5023  149.6   4.477   63.8  0.1105   55.3  0.2043 -154.5
 2.180  0.5032  149.2   4.434   63.5  0.1114   55.1  0.2045 -155.0
 2.200  0.5041  148.8   4.391   63.1  0.1123   55.0  0.2047 -155.4
 2.220  0.5049  148.4   4.354   62.8  0.1132   54.9  0.2050 -155.8
 2.240  0.5056  147.9   4.318   62.5  0.1141   54.7  0.2053 -156.3
 2.260  0.5065  147.5   4.281   62.2  0.1149   54.6  0.2056 -156.7
 2.280  0.5073  147.1   4.245   61.8  0.1158   54.4  0.2060 -157.1
 2.300  0.5082  146.7   4.209   61.5  0.1167   54.3  0.2063 -157.6
 2.320  0.5091  146.3   4.173   61.2  0.1176   54.1  0.2067 -158.0
 2.340  0.5100  145.8   4.137   60.9  0.1185   54.0  0.2070 -158.4
 2.360  0.5109  145.4   4.101   60.5  0.1193   53.9  0.2074 -158.9
 2.380  0.5119  145.0   4.065   60.2  0.1202   53.7  0.2078 -159.3
 2.400  0.5129  144.6   4.030   59.8  0.1211   53.6  0.2082 -159.7
 2.420  0.5137  144.2   3.998   59.5  0.1219   53.4  0.2087 -160.1
 2.440  0.5145  143.8   3.966   59.2  0.1228   53.2  0.2092 -160.6
 2.460  0.5153  143.4   3.935   58.9  0.1236   53.1  0.2097 -161.0
 2.480  0.5161  143.0   3.903   58.6  0.1245   52.9  0.2103 -161.4
 2.500  0.5170  142.6   3.872   58.3  0.1253   52.7  0.2108 -161.8
 2.520  0.5179  142.2   3.841   57.9  0.1262   52.6  0.2114 -162.2
 2.540  0.5188  141.8   3.810   57.6  0.1270   52.4  0.2119 -162.7
 2.560  0.5197  141.4   3.779   57.3  0.1279   52.2  0.2125 -163.1
 2.580  0.5207  141.0   3.748   56.9  0.1287   52.1  0.2131 -163.5
 2.600  0.5217  140.6   3.717   56.6  0.1296   51.9  0.2137 -163.9
 2.620  0.5225  140.2   3.690   56.3  0.1304   51.7  0.2144 -164.3
 2.640  0.5234  139.8   3.663   56.0  0.1313   51.6  0.2150 -164.7
 2.660  0.5242  139.5   3.636   55.7  0.1321   51.4  0.2157 -165.1
 2.680  0.5251  139.1   3.609   55.4  0.1329   51.2  0.2164 -165.5
 2.700  0.5260  138.7   3.582   55.1  0.1337   51.1  0.2171 -165.9
 2.720  0.5270  138.4   3.556   54.8  0.1346   50.9  0.2178 -166.3
 2.740  0.5279  138.0   3.529   54.5  0.1354   50.8  0.2186 -166.7
 2.760  0.5289  137.6   3.503   54.2  0.1362   50.6  0.2193 -167.1
 2.780  0.5299  137.3   3.476   53.8  0.1371   50.5  0.2200 -167.5
 2.800  0.5309  136.9   3.450   53.5  0.1379   50.3  0.2208 -167.9
 2.820  0.5318  136.5   3.426   53.2  0.1387   50.1  0.2215 -168.3
 2.840  0.5327  136.2   3.402   52.9  0.1395   49.9  0.2223 -168.6
 2.860  0.5336  135.8   3.379   52.6  0.1403   49.8  0.2230 -169.0
 2.880  0.5345  135.5   3.355   52.4  0.1411   49.6  0.2238 -169.4
 2.900  0.5355  135.1   3.331   52.1  0.1419   49.4  0.2246 -169.7
 2.920  0.5365  134.8   3.308   51.8  0.1427   49.3  0.2254 -170.1
 2.940  0.5375  134.4   3.285   51.4  0.1436   49.1  0.2262 -170.4
 2.960  0.5385  134.1   3.261   51.1  0.1444   48.9  0.2270 -170.8
 2.980  0.5395  133.7   3.238   50.8  0.1452   48.8  0.2278 -171.2
 3.000  0.5406  133.4   3.215   50.5  0.1460   48.6  0.2286 -171.5
 3.100  0.5447  131.7   3.117   49.2  0.1497   47.6  0.2325 -173.2
 3.200  0.5493  130.0   3.020   47.8  0.1535   46.7  0.2367 -174.9
 3.300  0.5543  128.4   2.926   46.3  0.1574   45.8  0.2410 -176.5
 3.400  0.5598  126.8   2.833   44.8  0.1612   45.0  0.2455 -178.0
 3.500  0.5657  125.2   2.743   43.1  0.1651   44.2  0.2502 -179.5
 3.600  0.5710  123.7   2.668   41.9  0.1685   43.3  0.2548  178.7
 3.700  0.5767  122.2   2.595   40.6  0.1719   42.4  0.2597  177.0
 3.800  0.5828  120.7   2.522   39.2  0.1753   41.5  0.2648  175.3
 3.900  0.5892  119.3   2.452   37.7  0.1788   40.7  0.2702  173.7
 4.000  0.5960  117.9   2.383   36.2  0.1823   39.9  0.2757  172.2
 4.100  0.6014  116.6   2.324   35.0  0.1853   39.1  0.2815  170.6
 4.200  0.6070  115.4   2.265   33.8  0.1883   38.3  0.2875  169.0
 4.300  0.6129  114.2   2.208   32.6  0.1914   37.5  0.2937  167.6
 4.400  0.6191  113.0   2.152   31.2  0.1945   36.7  0.3001  166.2
 4.500  0.6256  111.8   2.097   29.8  0.1976   36.0  0.3067  164.8
 4.600  0.6295  110.6   2.051   28.7  0.2005   35.3  0.3112  163.7
 4.700  0.6336  109.5   2.006   27.6  0.2035   34.5  0.3159  162.5
 4.800  0.6380  108.4   1.961   26.4  0.2064   33.8  0.3206  161.5
 4.900  0.6426  107.3   1.918   25.2  0.2095   33.2  0.3255  160.4
 5.000  0.6474  106.2   1.875   23.9  0.2125   32.5  0.3305  159.4
 5.100  0.6501  105.2   1.840   22.9  0.2157   31.7  0.3334  158.5
 5.200  0.6530  104.3   1.805   21.9  0.2189   31.0  0.3364  157.6
 5.300  0.6561  103.4   1.771   20.8  0.2221   30.2  0.3394  156.8
 5.400  0.6593  102.4   1.737   19.7  0.2254   29.5  0.3425  155.9
 5.500  0.6627  101.5   1.704   18.6  0.2287   28.8  0.3457  155.1
 5.600  0.6647  100.7   1.676   17.6  0.2316   28.0  0.3491  154.3
 5.700  0.6668   99.9   1.649   16.5  0.2346   27.2  0.3525  153.5
 5.800  0.6691   99.1   1.622   15.4  0.2376   26.4  0.3560  152.8
 5.900  0.6715   98.4   1.596   14.3  0.2407   25.6  0.3596  152.0
 6.000  0.6740   97.6   1.570   13.1  0.2438   24.9  0.3632  151.3
 6.100  0.6744   96.8   1.546   12.1  0.2464   24.1  0.3653  150.8
 6.200  0.6749   96.0   1.523   11.1  0.2490   23.4  0.3674  150.3
 6.300  0.6756   95.2   1.500   10.1  0.2516   22.6  0.3696  149.8
 6.400  0.6764   94.4   1.478    9.0  0.2543   21.9  0.3718  149.3
 6.500  0.6773   93.6   1.456    7.9  0.2570   21.2  0.3740  148.8
 6.600  0.6767   92.7   1.438    6.9  0.2600   20.5  0.3733  148.4
 6.800  0.6759   90.8   1.403    5.0  0.2661   19.1  0.3720  147.5
 7.000  0.6758   89.0   1.369    2.9  0.2723   17.8  0.3708  146.7
 7.200  0.6775   86.8   1.341    0.8  0.2787   16.1  0.3701  145.2
 7.400  0.6802   84.7   1.314   -1.4  0.2854   14.5  0.3696  143.7
 7.600  0.6840   82.3   1.288   -3.7  0.2917   12.7  0.3711  141.9
 7.800  0.6892   79.8   1.262   -6.1  0.2976   10.8  0.3748  139.6
 8.000  0.6956   77.4   1.238   -8.6  0.3039    8.9  0.3791  137.4
 8.200  0.7008   74.8   1.206  -10.9  0.3078    6.7  0.3836  134.6
 8.400  0.7075   72.3   1.176  -13.4  0.3122    4.6  0.3890  131.9
 8.600  0.7163   69.8   1.145  -15.8  0.3147    2.5  0.3959  128.6
 8.800  0.7272   67.5   1.113  -18.1  0.3156    0.4  0.4052  124.7
 9.000  0.7393   65.3   1.082  -20.5  0.3168   -1.7  0.4163  121.0
 9.200  0.7554   63.4   1.047  -22.3  0.3153   -3.3  0.4334  116.7
 9.400  0.7723   61.7   1.013  -24.3  0.3141   -4.8  0.4527  112.8
 9.600  0.7870   60.0   0.979  -26.0  0.3128   -6.1  0.4723  109.4
 9.800  0.7995   58.5   0.946  -27.4  0.3112   -7.1  0.4917  106.4
10.000  0.8125   57.1   0.913  -29.0  0.3097   -8.1  0.5123  103.7
!
!  f       NFmin   Gammaopt  rn/50
! GHz       dB    MAG  ANG    -
 0.450      1.47  0.19 -172   0.12
 0.900      1.49  0.17 -164   0.13
 1.900      1.61  0.28 -144   0.13
 3.500      1.51  0.49 -120   0.18
!
! (c) 2016  Infineon Technologies AG, Munich
