! Infineon Technologies  Discrete & RF Semiconductors
! BFP460
! VCE =  2.0 V,  IC =  40 mA
! Common Emitter S-Parameters:                            Jan 2016
# GHz  S  MA  R  50
!  f         S11            S21            S12            S22
! GHz     MAG   ANG      MAG   ANG      MAG   ANG      MAG   ANG
 0.030  0.4017  -25.5  62.144  169.0  0.0046   83.7  0.9053  -11.8
 0.035  0.4011  -29.4  61.646  167.0  0.0053   82.3  0.9003  -13.9
 0.040  0.4024  -33.2  61.223  165.0  0.0060   81.3  0.8966  -16.1
 0.045  0.4011  -36.8  60.551  162.9  0.0067   79.3  0.8896  -18.2
 0.050  0.4015  -40.5  59.961  160.8  0.0074   77.6  0.8838  -20.3
 0.055  0.4032  -44.3  59.361  159.2  0.0080   77.0  0.8752  -22.3
 0.060  0.4066  -48.0  58.811  157.5  0.0086   76.4  0.8677  -24.4
 0.065  0.4076  -52.0  58.201  155.7  0.0092   75.4  0.8581  -26.3
 0.070  0.4106  -55.9  57.649  153.9  0.0099   74.5  0.8495  -28.3
 0.075  0.4129  -58.7  56.891  152.5  0.0104   72.8  0.8385  -30.1
 0.080  0.4161  -61.4  56.170  151.0  0.0110   71.3  0.8284  -32.0
 0.085  0.4168  -65.1  55.312  149.4  0.0115   70.7  0.8169  -33.8
 0.090  0.4193  -68.8  54.499  147.7  0.0120   70.1  0.8063  -35.6
 0.095  0.4198  -71.2  53.596  146.4  0.0125   69.2  0.7951  -37.2
 0.100  0.4211  -73.6  52.723  145.0  0.0130   68.3  0.7845  -38.9
 0.105  0.4228  -76.3  51.972  143.7  0.0135   67.7  0.7727  -40.5
 0.110  0.4254  -79.0  51.250  142.3  0.0140   67.2  0.7615  -42.1
 0.115  0.4261  -81.8  50.399  141.0  0.0144   66.5  0.7498  -43.6
 0.120  0.4278  -84.6  49.576  139.6  0.0149   65.8  0.7387  -45.2
 0.125  0.4272  -86.9  48.772  138.5  0.0153   65.1  0.7270  -46.6
 0.130  0.4272  -89.2  47.985  137.4  0.0157   64.4  0.7157  -48.0
 0.135  0.4286  -91.5  47.217  136.2  0.0160   64.0  0.7045  -49.4
 0.140  0.4306  -93.7  46.470  135.0  0.0164   63.6  0.6938  -50.8
 0.145  0.4308  -95.7  45.635  133.9  0.0168   63.1  0.6830  -52.1
 0.150  0.4315  -97.7  44.817  132.8  0.0172   62.7  0.6725  -53.4
 0.155  0.4309  -99.4  44.101  132.0  0.0175   62.3  0.6620  -54.4
 0.160  0.4306 -101.1  43.393  131.3  0.0178   62.0  0.6517  -55.3
 0.165  0.4308 -102.9  42.693  130.5  0.0181   61.6  0.6416  -56.4
 0.170  0.4313 -104.6  42.002  129.6  0.0184   61.3  0.6317  -57.4
 0.175  0.4323 -106.3  41.320  128.8  0.0187   61.0  0.6220  -58.5
 0.180  0.4336 -108.0  40.647  127.9  0.0190   60.7  0.6125  -59.6
 0.185  0.4353 -109.7  39.985  126.9  0.0193   60.4  0.6033  -60.7
 0.190  0.4373 -111.4  39.334  126.0  0.0196   60.1  0.5943  -61.9
 0.195  0.4398 -113.1  38.694  125.0  0.0199   59.8  0.5856  -63.1
 0.200  0.4426 -114.7  38.065  124.0  0.0202   59.5  0.5772  -64.4
 0.220  0.4424 -119.7  35.835  121.6  0.0212   58.9  0.5457  -67.6
 0.240  0.4456 -124.7  33.676  118.9  0.0222   58.3  0.5161  -71.2
 0.260  0.4486 -129.0  31.760  116.5  0.0232   58.0  0.4898  -74.4
 0.280  0.4503 -132.6  30.050  114.6  0.0241   57.9  0.4661  -77.2
 0.300  0.4537 -136.2  28.379  112.4  0.0250   57.8  0.4436  -80.3
 0.320  0.4542 -139.1  27.003  110.9  0.0258   57.8  0.4249  -82.5
 0.340  0.4559 -142.0  25.648  109.2  0.0267   57.9  0.4070  -85.0
 0.360  0.4571 -144.6  24.433  107.7  0.0275   58.0  0.3910  -87.3
 0.380  0.4576 -146.9  23.347  106.4  0.0284   58.2  0.3767  -89.3
 0.400  0.4588 -149.3  22.274  105.0  0.0292   58.4  0.3629  -91.5
 0.420  0.4595 -151.3  21.381  103.9  0.0300   58.6  0.3512  -93.2
 0.440  0.4607 -153.2  20.495  102.8  0.0309   58.8  0.3399  -95.0
 0.450  0.4615 -154.2  20.056  102.2  0.0313   58.9  0.3344  -96.0
 0.460  0.4617 -155.0  19.690  101.8  0.0317   59.0  0.3297  -96.8
 0.480  0.4625 -156.7  18.961  100.9  0.0326   59.3  0.3205  -98.4
 0.500  0.4636 -158.4  18.238   99.9  0.0335   59.6  0.3116 -100.1
 0.520  0.4637 -159.8  17.663   99.2  0.0344   59.8  0.3044 -101.4
 0.540  0.4641 -161.1  17.091   98.4  0.0353   60.0  0.2974 -102.8
 0.560  0.4647 -162.5  16.523   97.6  0.0361   60.2  0.2905 -104.2
 0.580  0.4656 -163.8  15.958   96.7  0.0370   60.4  0.2839 -105.7
 0.600  0.4667 -165.2  15.398   95.7  0.0379   60.6  0.2774 -107.3
 0.620  0.4669 -166.3  14.977   95.1  0.0388   60.8  0.2724 -108.4
 0.640  0.4673 -167.4  14.558   94.5  0.0397   60.9  0.2676 -109.6
 0.660  0.4679 -168.5  14.141   93.8  0.0405   61.1  0.2629 -110.8
 0.680  0.4686 -169.6  13.725   93.1  0.0414   61.3  0.2583 -112.1
 0.700  0.4695 -170.7  13.312   92.4  0.0423   61.4  0.2538 -113.4
 0.720  0.4698 -171.6  12.991   91.9  0.0432   61.5  0.2503 -114.4
 0.740  0.4703 -172.5  12.671   91.3  0.0441   61.7  0.2468 -115.4
 0.760  0.4709 -173.5  12.353   90.7  0.0451   61.8  0.2434 -116.5
 0.780  0.4716 -174.4  12.036   90.1  0.0460   61.9  0.2401 -117.6
 0.800  0.4724 -175.3  11.720   89.5  0.0469   62.0  0.2369 -118.7
 0.820  0.4727 -176.1  11.469   89.0  0.0478   62.1  0.2344 -119.6
 0.840  0.4732 -176.9  11.218   88.5  0.0487   62.2  0.2319 -120.4
 0.860  0.4737 -177.6  10.968   88.0  0.0497   62.2  0.2295 -121.3
 0.880  0.4743 -178.4  10.720   87.5  0.0506   62.3  0.2272 -122.3
 0.900  0.4750 -179.2  10.472   86.9  0.0515   62.4  0.2249 -123.2
 0.920  0.4752 -179.9  10.269   86.5  0.0524   62.4  0.2230 -124.0
 0.940  0.4754  179.3  10.066   86.0  0.0533   62.5  0.2211 -124.8
 0.960  0.4758  178.6   9.863   85.6  0.0543   62.5  0.2193 -125.6
 0.980  0.4762  177.8   9.662   85.1  0.0552   62.6  0.2175 -126.4
 1.000  0.4767  177.1   9.461   84.6  0.0561   62.6  0.2158 -127.2
 1.020  0.4770  176.5   9.293   84.2  0.0570   62.6  0.2144 -127.9
 1.040  0.4773  175.8   9.125   83.8  0.0579   62.6  0.2131 -128.7
 1.060  0.4777  175.2   8.958   83.3  0.0589   62.6  0.2119 -129.4
 1.080  0.4781  174.5   8.791   82.9  0.0598   62.6  0.2106 -130.1
 1.100  0.4786  173.9   8.625   82.4  0.0607   62.6  0.2094 -130.9
 1.120  0.4790  173.3   8.484   82.0  0.0616   62.6  0.2083 -131.5
 1.140  0.4794  172.7   8.344   81.6  0.0626   62.6  0.2073 -132.2
 1.160  0.4799  172.1   8.204   81.2  0.0635   62.5  0.2063 -132.9
 1.180  0.4804  171.5   8.064   80.8  0.0645   62.5  0.2053 -133.5
 1.200  0.4810  170.9   7.925   80.4  0.0654   62.5  0.2044 -134.2
 1.220  0.4814  170.3   7.805   80.0  0.0663   62.4  0.2037 -134.8
 1.240  0.4819  169.8   7.685   79.6  0.0673   62.4  0.2030 -135.3
 1.260  0.4825  169.2   7.566   79.2  0.0682   62.3  0.2023 -135.9
 1.280  0.4831  168.7   7.447   78.8  0.0692   62.3  0.2016 -136.4
 1.300  0.4837  168.1   7.328   78.4  0.0701   62.2  0.2010 -137.0
 1.320  0.4840  167.6   7.226   78.0  0.0710   62.1  0.2004 -137.6
 1.340  0.4843  167.1   7.123   77.7  0.0720   62.1  0.1998 -138.1
 1.360  0.4846  166.5   7.022   77.3  0.0729   62.0  0.1992 -138.7
 1.380  0.4850  166.0   6.920   76.9  0.0739   62.0  0.1986 -139.2
 1.400  0.4854  165.5   6.819   76.5  0.0748   61.9  0.1981 -139.8
 1.420  0.4861  165.0   6.729   76.1  0.0757   61.8  0.1978 -140.3
 1.440  0.4868  164.5   6.640   75.8  0.0767   61.7  0.1974 -140.8
 1.460  0.4875  163.9   6.551   75.4  0.0776   61.6  0.1971 -141.2
 1.480  0.4883  163.4   6.462   75.0  0.0786   61.5  0.1968 -141.7
 1.500  0.4891  162.9   6.374   74.6  0.0795   61.4  0.1965 -142.2
 1.520  0.4896  162.4   6.295   74.3  0.0804   61.3  0.1962 -142.7
 1.540  0.4901  161.9   6.217   73.9  0.0814   61.2  0.1959 -143.2
 1.560  0.4907  161.4   6.139   73.6  0.0823   61.1  0.1957 -143.6
 1.580  0.4913  160.9   6.061   73.3  0.0833   61.0  0.1954 -144.1
 1.600  0.4920  160.4   5.983   72.9  0.0842   60.9  0.1952 -144.6
 1.620  0.4923  159.9   5.914   72.6  0.0851   60.8  0.1950 -145.0
 1.640  0.4926  159.5   5.846   72.2  0.0860   60.7  0.1949 -145.5
 1.660  0.4930  159.0   5.778   71.8  0.0870   60.5  0.1947 -145.9
 1.680  0.4934  158.6   5.710   71.5  0.0879   60.4  0.1946 -146.4
 1.700  0.4938  158.1   5.642   71.1  0.0888   60.3  0.1945 -146.8
 1.720  0.4943  157.6   5.580   70.8  0.0897   60.2  0.1945 -147.2
 1.740  0.4949  157.2   5.517   70.4  0.0907   60.1  0.1944 -147.6
 1.760  0.4954  156.7   5.455   70.1  0.0916   59.9  0.1944 -148.1
 1.780  0.4961  156.3   5.394   69.8  0.0926   59.8  0.1944 -148.5
 1.800  0.4967  155.8   5.332   69.4  0.0935   59.7  0.1944 -148.9
 1.820  0.4972  155.3   5.277   69.1  0.0944   59.6  0.1944 -149.3
 1.840  0.4978  154.9   5.223   68.7  0.0953   59.4  0.1944 -149.7
 1.860  0.4983  154.4   5.169   68.4  0.0963   59.3  0.1944 -150.2
 1.880  0.4990  154.0   5.115   68.1  0.0972   59.1  0.1945 -150.6
 1.900  0.4996  153.5   5.061   67.7  0.0981   59.0  0.1945 -151.0
 1.920  0.5003  153.1   5.011   67.4  0.0990   58.9  0.1946 -151.4
 1.940  0.5010  152.6   4.961   67.0  0.0999   58.7  0.1947 -151.8
 1.960  0.5017  152.2   4.912   66.6  0.1009   58.6  0.1948 -152.2
 1.980  0.5024  151.7   4.862   66.3  0.1018   58.4  0.1950 -152.6
 2.000  0.5032  151.3   4.813   65.9  0.1027   58.3  0.1951 -153.0
 2.020  0.5039  150.9   4.769   65.6  0.1036   58.1  0.1953 -153.4
 2.040  0.5046  150.5   4.725   65.3  0.1045   58.0  0.1955 -153.8
 2.060  0.5053  150.1   4.681   65.0  0.1054   57.8  0.1957 -154.3
 2.080  0.5060  149.6   4.637   64.7  0.1063   57.7  0.1960 -154.7
 2.100  0.5068  149.2   4.594   64.3  0.1072   57.5  0.1962 -155.1
 2.120  0.5076  148.8   4.550   64.0  0.1082   57.4  0.1965 -155.5
 2.140  0.5085  148.4   4.507   63.7  0.1091   57.2  0.1967 -156.0
 2.160  0.5093  148.0   4.464   63.3  0.1100   57.1  0.1970 -156.4
 2.180  0.5102  147.6   4.421   63.0  0.1109   56.9  0.1973 -156.8
 2.200  0.5111  147.2   4.378   62.6  0.1118   56.8  0.1976 -157.2
 2.220  0.5118  146.8   4.341   62.3  0.1127   56.6  0.1980 -157.6
 2.240  0.5125  146.4   4.305   62.0  0.1136   56.5  0.1984 -158.0
 2.260  0.5133  146.0   4.268   61.7  0.1145   56.3  0.1988 -158.4
 2.280  0.5141  145.6   4.232   61.3  0.1153   56.1  0.1992 -158.9
 2.300  0.5149  145.2   4.196   61.0  0.1162   56.0  0.1996 -159.3
 2.320  0.5157  144.8   4.160   60.7  0.1171   55.8  0.2000 -159.7
 2.340  0.5166  144.4   4.124   60.4  0.1180   55.7  0.2004 -160.1
 2.360  0.5175  144.0   4.088   60.0  0.1189   55.5  0.2009 -160.5
 2.380  0.5184  143.6   4.052   59.7  0.1198   55.3  0.2013 -160.9
 2.400  0.5193  143.2   4.017   59.3  0.1207   55.2  0.2018 -161.3
 2.420  0.5201  142.8   3.985   59.0  0.1216   55.0  0.2024 -161.7
 2.440  0.5209  142.4   3.954   58.7  0.1224   54.8  0.2029 -162.1
 2.460  0.5217  142.0   3.922   58.4  0.1233   54.6  0.2035 -162.6
 2.480  0.5226  141.6   3.891   58.1  0.1241   54.5  0.2041 -163.0
 2.500  0.5235  141.2   3.860   57.8  0.1250   54.3  0.2047 -163.4
 2.520  0.5244  140.8   3.828   57.5  0.1258   54.1  0.2053 -163.8
 2.540  0.5253  140.5   3.797   57.2  0.1267   53.9  0.2059 -164.2
 2.560  0.5263  140.1   3.766   56.9  0.1276   53.7  0.2065 -164.6
 2.580  0.5273  139.7   3.736   56.5  0.1284   53.6  0.2072 -165.0
 2.600  0.5283  139.3   3.705   56.2  0.1293   53.4  0.2078 -165.4
 2.620  0.5291  138.9   3.678   55.9  0.1301   53.2  0.2085 -165.8
 2.640  0.5300  138.6   3.651   55.6  0.1310   53.0  0.2093 -166.2
 2.660  0.5308  138.2   3.624   55.3  0.1318   52.9  0.2100 -166.5
 2.680  0.5317  137.8   3.597   55.0  0.1326   52.7  0.2108 -166.9
 2.700  0.5326  137.5   3.571   54.7  0.1335   52.5  0.2115 -167.3
 2.720  0.5335  137.1   3.544   54.4  0.1343   52.4  0.2123 -167.7
 2.740  0.5344  136.8   3.518   54.1  0.1352   52.2  0.2131 -168.0
 2.760  0.5354  136.4   3.491   53.8  0.1360   52.0  0.2139 -168.4
 2.780  0.5364  136.1   3.465   53.4  0.1369   51.9  0.2147 -168.7
 2.800  0.5374  135.7   3.439   53.1  0.1377   51.7  0.2155 -169.1
 2.820  0.5383  135.4   3.415   52.8  0.1385   51.5  0.2163 -169.5
 2.840  0.5391  135.1   3.391   52.5  0.1393   51.3  0.2171 -169.8
 2.860  0.5400  134.7   3.368   52.2  0.1401   51.1  0.2179 -170.1
 2.880  0.5410  134.4   3.344   52.0  0.1410   51.0  0.2187 -170.5
 2.900  0.5419  134.1   3.320   51.7  0.1418   50.8  0.2195 -170.8
 2.920  0.5428  133.8   3.297   51.4  0.1426   50.6  0.2203 -171.2
 2.940  0.5438  133.4   3.274   51.0  0.1434   50.4  0.2212 -171.5
 2.960  0.5448  133.1   3.250   50.7  0.1442   50.2  0.2220 -171.8
 2.980  0.5458  132.8   3.227   50.4  0.1451   50.1  0.2228 -172.2
 3.000  0.5468  132.5   3.204   50.1  0.1459   49.9  0.2237 -172.5
 3.100  0.5508  130.8   3.106   48.8  0.1497   48.9  0.2278 -174.2
 3.200  0.5552  129.2   3.010   47.5  0.1535   47.9  0.2321 -175.8
 3.300  0.5601  127.6   2.915   46.0  0.1574   47.0  0.2366 -177.4
 3.400  0.5654  126.0   2.822   44.5  0.1613   46.1  0.2413 -178.9
 3.500  0.5712  124.4   2.732   42.8  0.1652   45.3  0.2461  179.7
 3.600  0.5765  122.9   2.657   41.6  0.1686   44.3  0.2509  177.9
 3.700  0.5822  121.4   2.584   40.3  0.1720   43.4  0.2559  176.2
 3.800  0.5882  120.0   2.512   38.9  0.1754   42.6  0.2612  174.6
 3.900  0.5946  118.6   2.442   37.4  0.1789   41.7  0.2666  173.0
 4.000  0.6014  117.2   2.373   35.9  0.1824   40.9  0.2723  171.5
 4.100  0.6066  116.0   2.314   34.7  0.1854   40.0  0.2782  169.9
 4.200  0.6120  114.8   2.256   33.5  0.1885   39.2  0.2843  168.4
 4.300  0.6177  113.6   2.199   32.3  0.1916   38.4  0.2907  167.0
 4.400  0.6237  112.4   2.143   30.9  0.1947   37.6  0.2971  165.6
 4.500  0.6299  111.3   2.088   29.5  0.1979   36.8  0.3038  164.3
 4.600  0.6339  110.2   2.042   28.4  0.2008   36.1  0.3085  163.2
 4.700  0.6382  109.1   1.997   27.3  0.2038   35.3  0.3132  162.1
 4.800  0.6427  108.0   1.953   26.2  0.2068   34.6  0.3181  161.0
 4.900  0.6474  106.9   1.910   25.0  0.2098   34.0  0.3231  160.0
 5.000  0.6524  105.8   1.867   23.7  0.2129   33.3  0.3282  159.0
 5.100  0.6550  104.8   1.832   22.7  0.2161   32.5  0.3311  158.1
 5.200  0.6577  103.9   1.798   21.7  0.2193   31.8  0.3342  157.3
 5.300  0.6607  103.0   1.764   20.6  0.2226   31.0  0.3372  156.5
 5.400  0.6638  102.0   1.731   19.5  0.2259   30.3  0.3404  155.7
 5.500  0.6671  101.1   1.698   18.4  0.2293   29.6  0.3436  154.9
 5.600  0.6690  100.3   1.670   17.4  0.2322   28.7  0.3470  154.1
 5.700  0.6711   99.6   1.643   16.3  0.2352   27.9  0.3504  153.3
 5.800  0.6733   98.8   1.616   15.2  0.2383   27.1  0.3540  152.5
 5.900  0.6756   98.0   1.590   14.0  0.2414   26.3  0.3576  151.7
 6.000  0.6780   97.3   1.565   12.8  0.2445   25.5  0.3612  151.0
 6.100  0.6783   96.5   1.541   11.8  0.2471   24.7  0.3633  150.5
 6.200  0.6787   95.7   1.518   10.9  0.2497   24.0  0.3655  150.0
 6.300  0.6793   95.0   1.495    9.8  0.2523   23.2  0.3677  149.5
 6.400  0.6800   94.2   1.472    8.8  0.2550   22.5  0.3699  149.1
 6.500  0.6808   93.4   1.450    7.7  0.2577   21.8  0.3722  148.6
 6.600  0.6803   92.5   1.432    6.7  0.2607   21.1  0.3715  148.2
 6.800  0.6798   90.6   1.397    4.8  0.2668   19.7  0.3703  147.4
 7.000  0.6800   88.7   1.364    2.7  0.2730   18.3  0.3691  146.6
 7.200  0.6814   86.5   1.336    0.6  0.2795   16.6  0.3684  145.1
 7.400  0.6838   84.4   1.309   -1.5  0.2862   14.9  0.3679  143.6
 7.600  0.6874   82.1   1.283   -3.8  0.2925   13.1  0.3695  141.7
 7.800  0.6926   79.6   1.257   -6.2  0.2985   11.2  0.3733  139.5
 8.000  0.6991   77.2   1.233   -8.7  0.3048    9.3  0.3777  137.3
 8.200  0.7043   74.6   1.201  -11.1  0.3087    7.1  0.3822  134.5
 8.400  0.7109   72.0   1.171  -13.6  0.3130    5.0  0.3876  131.7
 8.600  0.7198   69.5   1.140  -16.0  0.3155    2.9  0.3946  128.4
 8.800  0.7307   67.3   1.108  -18.3  0.3164    0.8  0.4039  124.6
 9.000  0.7427   65.1   1.078  -20.7  0.3176   -1.3  0.4150  120.9
 9.200  0.7586   63.2   1.042  -22.5  0.3161   -2.9  0.4321  116.6
 9.400  0.7753   61.5   1.008  -24.5  0.3149   -4.5  0.4515  112.7
 9.600  0.7899   59.8   0.974  -26.2  0.3136   -5.8  0.4711  109.3
 9.800  0.8024   58.3   0.941  -27.6  0.3120   -6.7  0.4906  106.3
10.000  0.8154   56.9   0.909  -29.1  0.3105   -7.7  0.5113  103.6
!
!  f       NFmin   Gammaopt  rn/50
! GHz       dB    MAG  ANG    -
 0.450      1.67  0.27 -170   0.11
 0.900      1.70  0.24 -162   0.13
 1.900      1.79  0.34 -141   0.14
 3.500      1.63  0.57 -118   0.22
!
! (c) 2016  Infineon Technologies AG, Munich
