! Infineon Technologies  Discrete & RF Semiconductors
! BFP460
! VCE =  2.0 V,  IC =  14 mA
! Common Emitter S-Parameters:                            Jan 2016
# GHz  S  MA  R  50
!  f         S11            S21            S12            S22
! GHz     MAG   ANG      MAG   ANG      MAG   ANG      MAG   ANG
 0.030  0.6930  -11.8  36.408  173.1  0.0057   84.5  0.9608   -7.6
 0.035  0.6910  -13.7  36.281  171.8  0.0065   83.6  0.9583   -8.9
 0.040  0.6897  -15.6  36.175  170.4  0.0074   82.9  0.9563  -10.2
 0.045  0.6865  -17.5  35.974  168.9  0.0083   81.8  0.9532  -11.5
 0.050  0.6841  -19.5  35.798  167.4  0.0093   80.9  0.9505  -12.8
 0.055  0.6826  -21.4  35.657  166.4  0.0101   80.5  0.9467  -14.0
 0.060  0.6819  -23.4  35.526  165.4  0.0109   80.2  0.9434  -15.3
 0.065  0.6784  -25.2  35.455  164.2  0.0117   78.6  0.9390  -16.6
 0.070  0.6757  -27.1  35.400  162.9  0.0126   77.2  0.9350  -17.9
 0.075  0.6757  -28.9  35.181  162.0  0.0134   76.7  0.9299  -19.1
 0.080  0.6764  -30.6  34.971  161.0  0.0142   76.3  0.9253  -20.3
 0.085  0.6736  -32.6  34.741  159.9  0.0150   75.5  0.9196  -21.5
 0.090  0.6717  -34.6  34.524  158.8  0.0159   74.8  0.9143  -22.7
 0.095  0.6690  -36.2  34.213  157.8  0.0167   74.0  0.9085  -23.9
 0.100  0.6668  -37.9  33.914  156.7  0.0176   73.2  0.9031  -25.1
 0.105  0.6646  -39.6  33.717  155.7  0.0183   72.5  0.8968  -26.2
 0.110  0.6631  -41.4  33.531  154.7  0.0191   71.9  0.8908  -27.4
 0.115  0.6599  -43.2  33.278  153.6  0.0197   71.2  0.8844  -28.5
 0.120  0.6573  -45.0  33.037  152.5  0.0204   70.5  0.8783  -29.6
 0.125  0.6531  -46.5  32.770  151.6  0.0211   69.7  0.8712  -30.7
 0.130  0.6494  -48.1  32.511  150.7  0.0218   69.0  0.8644  -31.8
 0.135  0.6458  -49.8  32.261  149.7  0.0224   68.4  0.8575  -32.8
 0.140  0.6428  -51.6  32.020  148.7  0.0231   67.9  0.8509  -33.9
 0.145  0.6403  -53.2  31.693  147.8  0.0237   67.1  0.8438  -34.9
 0.150  0.6383  -54.9  31.375  146.8  0.0243   66.4  0.8369  -36.0
 0.155  0.6336  -56.3  31.074  146.0  0.0248   65.8  0.8288  -36.9
 0.160  0.6293  -57.7  30.779  145.3  0.0254   65.2  0.8210  -37.7
 0.165  0.6254  -59.2  30.489  144.5  0.0260   64.6  0.8133  -38.6
 0.170  0.6218  -60.6  30.206  143.7  0.0265   64.1  0.8059  -39.6
 0.175  0.6187  -62.1  29.928  142.8  0.0271   63.5  0.7986  -40.5
 0.180  0.6160  -63.6  29.657  142.0  0.0276   63.0  0.7916  -41.4
 0.185  0.6137  -65.1  29.392  141.1  0.0282   62.5  0.7848  -42.4
 0.190  0.6119  -66.6  29.134  140.3  0.0288   62.1  0.7782  -43.4
 0.195  0.6104  -68.1  28.882  139.4  0.0293   61.6  0.7718  -44.4
 0.200  0.6094  -69.6  28.638  138.5  0.0299   61.2  0.7657  -45.4
 0.220  0.5953  -74.6  27.512  135.8  0.0316   59.5  0.7367  -48.4
 0.240  0.5858  -79.8  26.450  132.9  0.0334   57.9  0.7100  -51.7
 0.260  0.5770  -84.5  25.438  130.3  0.0350   56.6  0.6844  -54.7
 0.280  0.5677  -88.9  24.450  128.1  0.0364   55.4  0.6592  -57.3
 0.300  0.5618  -93.4  23.504  125.6  0.0379   54.3  0.6356  -60.2
 0.320  0.5527  -97.2  22.617  123.7  0.0391   53.4  0.6132  -62.5
 0.340  0.5461 -101.0  21.756  121.7  0.0402   52.5  0.5919  -64.9
 0.360  0.5397 -104.6  20.953  119.8  0.0413   51.8  0.5721  -67.2
 0.380  0.5328 -107.9  20.201  118.1  0.0423   51.1  0.5533  -69.2
 0.400  0.5278 -111.2  19.467  116.3  0.0433   50.5  0.5353  -71.4
 0.420  0.5222 -114.1  18.803  114.9  0.0442   50.0  0.5189  -73.2
 0.440  0.5180 -117.0  18.151  113.5  0.0451   49.6  0.5031  -75.0
 0.450  0.5164 -118.5  17.829  112.7  0.0456   49.4  0.4954  -76.0
 0.460  0.5139 -119.8  17.545  112.1  0.0460   49.3  0.4884  -76.8
 0.480  0.5098 -122.3  16.984  110.9  0.0468   49.0  0.4747  -78.3
 0.500  0.5066 -124.9  16.430  109.6  0.0476   48.8  0.4613  -80.0
 0.520  0.5025 -127.0  15.961  108.6  0.0484   48.7  0.4498  -81.3
 0.540  0.4991 -129.2  15.497  107.6  0.0491   48.5  0.4386  -82.6
 0.560  0.4964 -131.4  15.039  106.5  0.0499   48.4  0.4276  -84.0
 0.580  0.4944 -133.6  14.586  105.3  0.0506   48.2  0.4168  -85.5
 0.600  0.4932 -135.8  14.140  104.1  0.0514   48.1  0.4064  -87.1
 0.620  0.4907 -137.5  13.779  103.3  0.0521   48.1  0.3978  -88.2
 0.640  0.4887 -139.3  13.422  102.5  0.0529   48.1  0.3894  -89.4
 0.660  0.4871 -141.0  13.067  101.6  0.0536   48.1  0.3812  -90.6
 0.680  0.4860 -142.8  12.715  100.7  0.0544   48.1  0.3732  -91.9
 0.700  0.4854 -144.6  12.367   99.7  0.0551   48.1  0.3653  -93.2
 0.720  0.4837 -146.0  12.085   99.0  0.0558   48.1  0.3587  -94.2
 0.740  0.4823 -147.5  11.805   98.3  0.0565   48.1  0.3523  -95.2
 0.760  0.4813 -149.0  11.527   97.6  0.0573   48.2  0.3459  -96.3
 0.780  0.4805 -150.4  11.250   96.8  0.0580   48.2  0.3397  -97.4
 0.800  0.4801 -151.9  10.976   96.0  0.0587   48.2  0.3336  -98.5
 0.820  0.4791 -153.2  10.752   95.4  0.0594   48.3  0.3286  -99.4
 0.840  0.4784 -154.4  10.530   94.8  0.0601   48.3  0.3237 -100.3
 0.860  0.4779 -155.7  10.308   94.1  0.0609   48.4  0.3189 -101.2
 0.880  0.4776 -156.9  10.088   93.4  0.0616   48.4  0.3141 -102.2
 0.900  0.4776 -158.2   9.870   92.7  0.0623   48.5  0.3095 -103.2
 0.920  0.4768 -159.3   9.685   92.2  0.0630   48.6  0.3055 -104.0
 0.940  0.4761 -160.4   9.501   91.6  0.0638   48.6  0.3015 -104.9
 0.960  0.4756 -161.5   9.317   91.0  0.0645   48.7  0.2976 -105.7
 0.980  0.4753 -162.6   9.135   90.4  0.0653   48.7  0.2938 -106.6
 1.000  0.4752 -163.7   8.954   89.8  0.0660   48.8  0.2900 -107.5
 1.020  0.4748 -164.7   8.799   89.3  0.0667   48.9  0.2869 -108.2
 1.040  0.4745 -165.7   8.645   88.8  0.0675   49.0  0.2839 -109.0
 1.060  0.4743 -166.6   8.492   88.2  0.0682   49.0  0.2809 -109.7
 1.080  0.4743 -167.6   8.340   87.7  0.0690   49.1  0.2779 -110.5
 1.100  0.4744 -168.6   8.188   87.1  0.0697   49.2  0.2750 -111.3
 1.120  0.4743 -169.5   8.058   86.6  0.0705   49.2  0.2724 -112.0
 1.140  0.4743 -170.4   7.929   86.1  0.0712   49.3  0.2699 -112.7
 1.160  0.4744 -171.3   7.801   85.6  0.0720   49.3  0.2674 -113.4
 1.180  0.4746 -172.2   7.673   85.1  0.0727   49.4  0.2650 -114.2
 1.200  0.4750 -173.1   7.546   84.6  0.0735   49.4  0.2626 -114.9
 1.220  0.4750 -173.9   7.434   84.2  0.0743   49.4  0.2606 -115.5
 1.240  0.4750 -174.7   7.323   83.7  0.0751   49.4  0.2587 -116.2
 1.260  0.4751 -175.5   7.212   83.3  0.0758   49.5  0.2567 -116.9
 1.280  0.4754 -176.3   7.101   82.8  0.0766   49.5  0.2549 -117.5
 1.300  0.4757 -177.1   6.991   82.3  0.0774   49.5  0.2530 -118.2
 1.320  0.4758 -177.8   6.895   81.9  0.0782   49.5  0.2512 -118.8
 1.340  0.4760 -178.6   6.799   81.5  0.0789   49.6  0.2495 -119.5
 1.360  0.4762 -179.3   6.704   81.0  0.0797   49.6  0.2477 -120.1
 1.380  0.4766  179.9   6.609   80.6  0.0804   49.7  0.2461 -120.7
 1.400  0.4770  179.2   6.514   80.1  0.0812   49.7  0.2444 -121.4
 1.420  0.4772  178.5   6.430   79.7  0.0820   49.7  0.2431 -122.0
 1.440  0.4775  177.8   6.347   79.3  0.0828   49.7  0.2418 -122.5
 1.460  0.4778  177.1   6.264   78.8  0.0836   49.7  0.2405 -123.1
 1.480  0.4782  176.4   6.181   78.4  0.0844   49.7  0.2393 -123.7
 1.500  0.4787  175.7   6.099   77.9  0.0852   49.7  0.2381 -124.3
 1.520  0.4788  175.0   6.025   77.5  0.0860   49.7  0.2370 -124.8
 1.540  0.4790  174.3   5.951   77.1  0.0868   49.7  0.2358 -125.4
 1.560  0.4793  173.6   5.877   76.7  0.0875   49.6  0.2347 -126.0
 1.580  0.4797  172.9   5.804   76.3  0.0883   49.6  0.2337 -126.5
 1.600  0.4801  172.2   5.731   75.9  0.0891   49.6  0.2326 -127.1
 1.620  0.4804  171.6   5.666   75.5  0.0899   49.6  0.2317 -127.6
 1.640  0.4808  171.0   5.602   75.1  0.0907   49.6  0.2307 -128.2
 1.660  0.4812  170.5   5.538   74.7  0.0915   49.5  0.2298 -128.7
 1.680  0.4817  169.9   5.474   74.3  0.0923   49.5  0.2290 -129.3
 1.700  0.4822  169.3   5.410   73.9  0.0931   49.5  0.2281 -129.8
 1.720  0.4827  168.7   5.352   73.5  0.0939   49.5  0.2274 -130.3
 1.740  0.4833  168.1   5.293   73.2  0.0947   49.4  0.2267 -130.8
 1.760  0.4839  167.6   5.235   72.8  0.0956   49.4  0.2261 -131.4
 1.780  0.4846  167.0   5.178   72.4  0.0964   49.3  0.2254 -131.9
 1.800  0.4853  166.4   5.120   72.0  0.0972   49.3  0.2248 -132.4
 1.820  0.4856  165.8   5.068   71.6  0.0980   49.2  0.2242 -132.9
 1.840  0.4860  165.2   5.016   71.3  0.0988   49.2  0.2235 -133.4
 1.860  0.4864  164.5   4.965   70.9  0.0996   49.1  0.2229 -133.9
 1.880  0.4869  163.9   4.913   70.5  0.1004   49.1  0.2224 -134.4
 1.900  0.4875  163.3   4.862   70.1  0.1012   49.0  0.2218 -134.9
 1.920  0.4882  162.8   4.815   69.7  0.1020   48.9  0.2213 -135.4
 1.940  0.4888  162.2   4.768   69.4  0.1028   48.9  0.2209 -135.9
 1.960  0.4896  161.7   4.721   69.0  0.1036   48.8  0.2204 -136.4
 1.980  0.4904  161.1   4.674   68.6  0.1044   48.8  0.2200 -136.9
 2.000  0.4912  160.6   4.628   68.2  0.1052   48.7  0.2196 -137.4
 2.020  0.4917  160.1   4.586   67.9  0.1060   48.6  0.2193 -137.9
 2.040  0.4923  159.6   4.544   67.5  0.1068   48.5  0.2189 -138.4
 2.060  0.4929  159.1   4.502   67.2  0.1076   48.4  0.2186 -138.9
 2.080  0.4936  158.5   4.461   66.8  0.1084   48.4  0.2183 -139.4
 2.100  0.4943  158.0   4.419   66.5  0.1092   48.3  0.2180 -139.9
 2.120  0.4951  157.5   4.378   66.1  0.1100   48.2  0.2178 -140.4
 2.140  0.4958  157.0   4.337   65.8  0.1108   48.1  0.2175 -140.9
 2.160  0.4966  156.5   4.296   65.4  0.1116   48.1  0.2173 -141.4
 2.180  0.4975  156.0   4.255   65.0  0.1124   48.0  0.2171 -141.9
 2.200  0.4984  155.5   4.215   64.6  0.1132   47.9  0.2169 -142.4
 2.220  0.4991  155.0   4.180   64.3  0.1140   47.8  0.2168 -142.9
 2.240  0.4998  154.5   4.145   63.9  0.1148   47.7  0.2167 -143.4
 2.260  0.5006  154.0   4.110   63.6  0.1156   47.6  0.2166 -143.9
 2.280  0.5014  153.5   4.076   63.2  0.1164   47.5  0.2165 -144.4
 2.300  0.5022  153.0   4.042   62.9  0.1171   47.4  0.2164 -144.9
 2.320  0.5031  152.5   4.007   62.5  0.1179   47.3  0.2164 -145.5
 2.340  0.5040  152.1   3.973   62.1  0.1187   47.3  0.2164 -146.0
 2.360  0.5049  151.6   3.939   61.8  0.1195   47.2  0.2164 -146.5
 2.380  0.5059  151.1   3.906   61.4  0.1203   47.1  0.2164 -147.0
 2.400  0.5069  150.6   3.872   61.0  0.1211   47.0  0.2164 -147.5
 2.420  0.5078  150.1   3.842   60.7  0.1219   46.9  0.2165 -148.0
 2.440  0.5086  149.7   3.811   60.4  0.1227   46.8  0.2167 -148.5
 2.460  0.5096  149.2   3.781   60.0  0.1235   46.7  0.2168 -149.0
 2.480  0.5105  148.7   3.751   59.7  0.1243   46.5  0.2170 -149.5
 2.500  0.5115  148.3   3.721   59.4  0.1250   46.4  0.2172 -150.0
 2.520  0.5125  147.8   3.692   59.0  0.1258   46.3  0.2174 -150.5
 2.540  0.5136  147.4   3.662   58.7  0.1266   46.2  0.2176 -150.9
 2.560  0.5146  146.9   3.633   58.3  0.1274   46.1  0.2179 -151.4
 2.580  0.5158  146.5   3.603   58.0  0.1282   46.0  0.2181 -151.9
 2.600  0.5169  146.0   3.574   57.6  0.1290   45.9  0.2184 -152.4
 2.620  0.5176  145.6   3.548   57.3  0.1298   45.8  0.2188 -152.9
 2.640  0.5183  145.1   3.522   57.0  0.1305   45.6  0.2191 -153.4
 2.660  0.5190  144.7   3.497   56.7  0.1313   45.5  0.2195 -153.8
 2.680  0.5198  144.3   3.471   56.3  0.1320   45.4  0.2199 -154.3
 2.700  0.5206  143.9   3.446   56.0  0.1328   45.2  0.2203 -154.8
 2.720  0.5214  143.5   3.420   55.7  0.1336   45.1  0.2207 -155.2
 2.740  0.5222  143.0   3.395   55.3  0.1343   45.0  0.2212 -155.7
 2.760  0.5231  142.6   3.370   55.0  0.1351   44.8  0.2216 -156.2
 2.780  0.5240  142.2   3.345   54.7  0.1358   44.7  0.2221 -156.6
 2.800  0.5249  141.8   3.320   54.3  0.1366   44.6  0.2226 -157.1
 2.820  0.5258  141.4   3.297   54.0  0.1373   44.5  0.2231 -157.5
 2.840  0.5267  141.0   3.274   53.7  0.1381   44.3  0.2236 -158.0
 2.860  0.5277  140.6   3.251   53.4  0.1388   44.2  0.2241 -158.4
 2.880  0.5286  140.2   3.229   53.1  0.1396   44.1  0.2246 -158.8
 2.900  0.5296  139.8   3.206   52.8  0.1403   43.9  0.2251 -159.3
 2.920  0.5307  139.4   3.184   52.4  0.1410   43.8  0.2256 -159.7
 2.940  0.5317  139.1   3.161   52.1  0.1418   43.7  0.2262 -160.1
 2.960  0.5328  138.7   3.139   51.8  0.1425   43.5  0.2267 -160.6
 2.980  0.5339  138.3   3.117   51.4  0.1433   43.4  0.2273 -161.0
 3.000  0.5350  137.9   3.095   51.1  0.1440   43.3  0.2279 -161.4
 3.100  0.5391  136.0   3.000   49.7  0.1475   42.5  0.2307 -163.4
 3.200  0.5438  134.1   2.908   48.3  0.1510   41.8  0.2337 -165.4
 3.300  0.5491  132.3   2.817   46.8  0.1546   41.1  0.2371 -167.3
 3.400  0.5549  130.5   2.728   45.1  0.1581   40.4  0.2407 -169.2
 3.500  0.5613  128.7   2.642   43.4  0.1617   39.8  0.2445 -171.0
 3.600  0.5665  127.0   2.570   42.1  0.1648   39.0  0.2481 -173.0
 3.700  0.5723  125.4   2.499   40.8  0.1680   38.3  0.2521 -175.0
 3.800  0.5785  123.7   2.430   39.3  0.1712   37.6  0.2563 -177.0
 3.900  0.5851  122.1   2.363   37.8  0.1744   36.9  0.2608 -178.8
 4.000  0.5922  120.6   2.297   36.2  0.1777   36.2  0.2656  179.4
 4.100  0.5974  119.2   2.240   35.0  0.1805   35.5  0.2707  177.6
 4.200  0.6030  117.9   2.184   33.7  0.1834   34.8  0.2761  175.9
 4.300  0.6089  116.6   2.128   32.4  0.1863   34.1  0.2817  174.2
 4.400  0.6151  115.3   2.075   31.0  0.1892   33.4  0.2875  172.6
 4.500  0.6216  114.0   2.022   29.5  0.1922   32.8  0.2936  171.1
 4.600  0.6256  112.8   1.978   28.4  0.1950   32.2  0.2979  169.8
 4.700  0.6298  111.6   1.934   27.2  0.1978   31.6  0.3023  168.6
 4.800  0.6343  110.5   1.892   26.0  0.2007   31.0  0.3069  167.4
 4.900  0.6390  109.3   1.850   24.7  0.2035   30.4  0.3116  166.2
 5.000  0.6440  108.2   1.809   23.4  0.2064   29.9  0.3164  165.1
 5.100  0.6468  107.2   1.775   22.4  0.2095   29.2  0.3193  164.2
 5.200  0.6498  106.2   1.741   21.3  0.2126   28.6  0.3223  163.2
 5.300  0.6530  105.2   1.708   20.2  0.2157   27.9  0.3253  162.3
 5.400  0.6564  104.2   1.676   19.0  0.2188   27.3  0.3285  161.5
 5.500  0.6600  103.2   1.644   17.8  0.2220   26.7  0.3317  160.6
 5.600  0.6621  102.4   1.617   16.8  0.2249   25.9  0.3352  159.7
 5.700  0.6642  101.6   1.590   15.7  0.2278   25.2  0.3388  158.9
 5.800  0.6666  100.8   1.564   14.6  0.2307   24.5  0.3424  158.1
 5.900  0.6690  100.0   1.539   13.4  0.2337   23.8  0.3461  157.3
 6.000  0.6716   99.2   1.514   12.2  0.2367   23.1  0.3499  156.5
 6.100  0.6721   98.4   1.491   11.2  0.2392   22.4  0.3523  155.9
 6.200  0.6728   97.5   1.468   10.2  0.2418   21.7  0.3547  155.4
 6.300  0.6736   96.7   1.446    9.1  0.2443   21.0  0.3572  154.9
 6.400  0.6745   95.8   1.424    8.0  0.2470   20.4  0.3597  154.3
 6.500  0.6756   95.0   1.403    6.9  0.2496   19.7  0.3622  153.8
 6.600  0.6750   94.1   1.385    5.9  0.2525   19.1  0.3619  153.4
 6.800  0.6744   92.2   1.351    3.9  0.2585   17.8  0.3612  152.6
 7.000  0.6745   90.3   1.318    1.8  0.2645   16.6  0.3607  151.8
 7.200  0.6764   88.1   1.291   -0.3  0.2709   15.0  0.3603  150.3
 7.400  0.6794   85.9   1.265   -2.5  0.2775   13.5  0.3603  148.8
 7.600  0.6834   83.5   1.239   -4.8  0.2838   11.8  0.3620  146.8
 7.800  0.6890   80.9   1.214   -7.3  0.2899   10.0  0.3657  144.5
 8.000  0.6959   78.4   1.191   -9.9  0.2962    8.2  0.3701  142.3
 8.200  0.7013   75.8   1.160  -12.2  0.3003    6.1  0.3745  139.4
 8.400  0.7082   73.2   1.132  -14.7  0.3048    4.1  0.3797  136.7
 8.600  0.7174   70.7   1.102  -17.1  0.3076    2.1  0.3863  133.2
 8.800  0.7286   68.3   1.070  -19.4  0.3087    0.0  0.3949  129.2
 9.000  0.7411   66.0   1.041  -21.8  0.3102   -2.0  0.4053  125.4
 9.200  0.7570   64.1   1.007  -23.7  0.3091   -3.6  0.4217  120.9
 9.400  0.7737   62.2   0.973  -25.7  0.3082   -5.1  0.4404  116.8
 9.600  0.7883   60.5   0.941  -27.4  0.3072   -6.4  0.4598  113.2
 9.800  0.8007   59.0   0.909  -28.9  0.3059   -7.3  0.4793  110.0
10.000  0.8137   57.6   0.878  -30.5  0.3047   -8.3  0.5001  107.1
!
!  f       NFmin   Gammaopt  rn/50
! GHz       dB    MAG  ANG    -
 0.450      1.09  0.04   41   0.14
 1.900      1.24  0.11 -165   0.12
 3.500      1.23  0.36 -131   0.13
!
! (c) 2016  Infineon Technologies AG, Munich
