! Infineon Technologies  Discrete & RF Semiconductors
! BFP460
! VCE =  2.5 V,  IC =  35 mA
! Common Emitter S-Parameters:                            Jan 2016
# GHz  S  MA  R  50
!  f         S11            S21            S12            S22
! GHz     MAG   ANG      MAG   ANG      MAG   ANG      MAG   ANG
 0.030  0.4523  -21.7  59.204  169.4  0.0045   82.9  0.9222  -11.1
 0.035  0.4498  -25.2  58.766  167.6  0.0053   81.9  0.9176  -13.0
 0.040  0.4489  -28.7  58.390  165.7  0.0061   81.1  0.9141  -15.0
 0.045  0.4474  -31.7  57.782  163.8  0.0067   80.6  0.9076  -16.8
 0.050  0.4471  -34.8  57.240  161.8  0.0074   80.1  0.9021  -18.7
 0.055  0.4491  -38.2  56.740  160.3  0.0081   77.8  0.8942  -20.6
 0.060  0.4527  -41.6  56.281  158.7  0.0088   75.9  0.8872  -22.5
 0.065  0.4492  -45.2  55.769  157.0  0.0094   75.0  0.8786  -24.3
 0.070  0.4475  -48.9  55.307  155.3  0.0101   74.2  0.8708  -26.1
 0.075  0.4500  -51.5  54.649  154.0  0.0106   73.4  0.8609  -27.8
 0.080  0.4534  -54.1  54.022  152.6  0.0112   72.6  0.8518  -29.6
 0.085  0.4521  -57.2  53.290  151.1  0.0117   71.6  0.8410  -31.2
 0.090  0.4521  -60.3  52.598  149.5  0.0123   70.7  0.8308  -32.9
 0.095  0.4513  -62.7  51.790  148.2  0.0128   70.0  0.8204  -34.5
 0.100  0.4513  -65.2  51.009  146.9  0.0134   69.3  0.8107  -36.1
 0.105  0.4522  -67.8  50.362  145.6  0.0139   68.6  0.7995  -37.6
 0.110  0.4541  -70.4  49.741  144.3  0.0144   67.9  0.7889  -39.1
 0.115  0.4524  -73.1  48.998  143.0  0.0148   67.1  0.7780  -40.5
 0.120  0.4518  -75.8  48.280  141.7  0.0153   66.4  0.7675  -42.0
 0.125  0.4510  -77.8  47.554  140.6  0.0157   65.6  0.7563  -43.3
 0.130  0.4507  -79.9  46.847  139.4  0.0162   64.8  0.7456  -44.7
 0.135  0.4505  -82.3  46.166  138.3  0.0166   64.3  0.7349  -46.0
 0.140  0.4510  -84.7  45.503  137.1  0.0170   63.9  0.7245  -47.3
 0.145  0.4500  -86.7  44.740  136.0  0.0174   63.4  0.7139  -48.5
 0.150  0.4495  -88.8  43.994  134.9  0.0178   63.0  0.7036  -49.8
 0.155  0.4478  -90.5  43.332  134.1  0.0181   62.6  0.6932  -50.7
 0.160  0.4465  -92.2  42.677  133.3  0.0184   62.2  0.6830  -51.7
 0.165  0.4456  -94.0  42.031  132.5  0.0188   61.9  0.6729  -52.7
 0.170  0.4451  -95.7  41.394  131.7  0.0191   61.5  0.6631  -53.7
 0.175  0.4450  -97.5  40.765  130.8  0.0194   61.2  0.6535  -54.7
 0.180  0.4453  -99.2  40.146  129.9  0.0197   60.8  0.6441  -55.8
 0.185  0.4460 -100.9  39.538  129.0  0.0200   60.5  0.6350  -56.9
 0.190  0.4472 -102.7  38.939  128.1  0.0204   60.2  0.6261  -58.0
 0.195  0.4487 -104.4  38.352  127.1  0.0207   59.9  0.6174  -59.2
 0.200  0.4507 -106.1  37.776  126.1  0.0210   59.6  0.6090  -60.4
 0.220  0.4483 -111.4  35.660  123.7  0.0220   58.8  0.5768  -63.5
 0.240  0.4497 -116.7  33.617  120.9  0.0231   58.1  0.5465  -66.9
 0.260  0.4508 -121.3  31.787  118.5  0.0241   57.6  0.5193  -70.1
 0.280  0.4502 -125.2  30.135  116.4  0.0250   57.3  0.4945  -72.8
 0.300  0.4517 -129.1  28.525  114.2  0.0259   57.0  0.4708  -75.8
 0.320  0.4514 -132.3  27.180  112.6  0.0267   57.0  0.4510  -77.9
 0.340  0.4525 -135.6  25.856  110.9  0.0276   56.9  0.4318  -80.3
 0.360  0.4530 -138.5  24.663  109.4  0.0284   56.9  0.4146  -82.4
 0.380  0.4526 -141.0  23.589  108.0  0.0293   57.0  0.3991  -84.4
 0.400  0.4530 -143.5  22.531  106.5  0.0301   57.1  0.3842  -86.6
 0.420  0.4529 -145.7  21.643  105.4  0.0309   57.3  0.3715  -88.3
 0.440  0.4535 -147.9  20.763  104.2  0.0318   57.4  0.3591  -90.1
 0.450  0.4541 -149.0  20.327  103.6  0.0322   57.5  0.3530  -91.0
 0.460  0.4540 -149.9  19.961  103.1  0.0326   57.6  0.3478  -91.7
 0.480  0.4541 -151.8  19.232  102.2  0.0335   57.8  0.3376  -93.3
 0.500  0.4547 -153.6  18.509  101.1  0.0343   58.0  0.3277  -94.9
 0.520  0.4545 -155.1  17.932  100.3  0.0351   58.2  0.3197  -96.1
 0.540  0.4546 -156.6  17.358   99.5  0.0360   58.5  0.3119  -97.4
 0.560  0.4551 -158.2  16.787   98.7  0.0368   58.7  0.3043  -98.8
 0.580  0.4558 -159.7  16.221   97.8  0.0377   58.9  0.2968 -100.2
 0.600  0.4569 -161.2  15.659   96.8  0.0385   59.1  0.2895 -101.7
 0.620  0.4569 -162.4  15.234   96.2  0.0394   59.3  0.2839 -102.8
 0.640  0.4570 -163.6  14.811   95.6  0.0402   59.4  0.2784 -103.9
 0.660  0.4574 -164.7  14.389   94.9  0.0411   59.6  0.2731 -105.1
 0.680  0.4580 -165.9  13.970   94.2  0.0419   59.8  0.2678 -106.3
 0.700  0.4587 -167.1  13.553   93.4  0.0428   59.9  0.2627 -107.6
 0.720  0.4588 -168.1  13.228   92.9  0.0437   60.0  0.2586 -108.6
 0.740  0.4591 -169.1  12.905   92.3  0.0446   60.2  0.2546 -109.6
 0.760  0.4595 -170.1  12.583   91.7  0.0454   60.3  0.2507 -110.6
 0.780  0.4601 -171.1  12.262   91.1  0.0463   60.4  0.2468 -111.7
 0.800  0.4608 -172.1  11.943   90.4  0.0472   60.5  0.2431 -112.8
 0.820  0.4611 -173.0  11.689   89.9  0.0481   60.6  0.2401 -113.7
 0.840  0.4614 -173.8  11.435   89.4  0.0490   60.7  0.2372 -114.5
 0.860  0.4619 -174.7  11.182   88.9  0.0498   60.8  0.2343 -115.4
 0.880  0.4625 -175.5  10.931   88.4  0.0507   60.9  0.2315 -116.4
 0.900  0.4632 -176.4  10.680   87.8  0.0516   61.0  0.2288 -117.3
 0.920  0.4633 -177.2  10.473   87.3  0.0525   61.0  0.2265 -118.1
 0.940  0.4635 -178.0  10.267   86.9  0.0534   61.1  0.2243 -118.9
 0.960  0.4638 -178.7  10.061   86.4  0.0543   61.1  0.2221 -119.7
 0.980  0.4641 -179.5   9.857   85.8  0.0552   61.2  0.2200 -120.5
 1.000  0.4646  179.7   9.653   85.3  0.0561   61.2  0.2179 -121.3
 1.020  0.4648  179.0   9.482   84.9  0.0570   61.2  0.2163 -122.0
 1.040  0.4652  178.3   9.311   84.5  0.0579   61.2  0.2146 -122.7
 1.060  0.4655  177.6   9.140   84.0  0.0588   61.3  0.2131 -123.4
 1.080  0.4660  176.9   8.970   83.6  0.0597   61.3  0.2115 -124.2
 1.100  0.4665  176.2   8.801   83.1  0.0606   61.3  0.2100 -124.9
 1.120  0.4668  175.6   8.658   82.7  0.0615   61.3  0.2087 -125.5
 1.140  0.4672  174.9   8.515   82.3  0.0624   61.3  0.2074 -126.2
 1.160  0.4676  174.3   8.373   81.9  0.0634   61.3  0.2062 -126.9
 1.180  0.4681  173.6   8.231   81.4  0.0643   61.3  0.2050 -127.5
 1.200  0.4687  173.0   8.090   81.0  0.0652   61.3  0.2038 -128.2
 1.220  0.4691  172.4   7.968   80.6  0.0661   61.3  0.2029 -128.8
 1.240  0.4696  171.8   7.846   80.2  0.0670   61.2  0.2019 -129.4
 1.260  0.4701  171.3   7.725   79.8  0.0680   61.2  0.2010 -130.0
 1.280  0.4707  170.7   7.604   79.4  0.0689   61.1  0.2002 -130.6
 1.300  0.4713  170.1   7.483   79.0  0.0698   61.1  0.1993 -131.2
 1.320  0.4717  169.5   7.378   78.6  0.0707   61.0  0.1985 -131.8
 1.340  0.4721  168.9   7.274   78.3  0.0716   61.0  0.1977 -132.3
 1.360  0.4725  168.4   7.169   77.9  0.0726   60.9  0.1970 -132.9
 1.380  0.4730  167.8   7.066   77.5  0.0735   60.9  0.1962 -133.4
 1.400  0.4736  167.2   6.962   77.1  0.0744   60.8  0.1955 -134.0
 1.420  0.4741  166.7   6.871   76.7  0.0753   60.7  0.1950 -134.5
 1.440  0.4746  166.1   6.780   76.4  0.0762   60.6  0.1945 -135.0
 1.460  0.4751  165.6   6.690   76.0  0.0771   60.6  0.1940 -135.5
 1.480  0.4757  165.0   6.600   75.6  0.0780   60.5  0.1936 -136.0
 1.500  0.4763  164.5   6.510   75.2  0.0789   60.4  0.1931 -136.5
 1.520  0.4768  164.0   6.430   74.9  0.0798   60.3  0.1927 -137.0
 1.540  0.4774  163.4   6.349   74.5  0.0807   60.2  0.1923 -137.5
 1.560  0.4780  162.9   6.269   74.1  0.0817   60.2  0.1919 -138.0
 1.580  0.4787  162.3   6.189   73.8  0.0826   60.1  0.1916 -138.5
 1.600  0.4794  161.8   6.110   73.4  0.0835   60.0  0.1912 -139.0
 1.620  0.4798  161.3   6.040   73.1  0.0844   59.9  0.1909 -139.5
 1.640  0.4802  160.9   5.971   72.7  0.0853   59.8  0.1906 -139.9
 1.660  0.4806  160.4   5.901   72.3  0.0863   59.7  0.1903 -140.4
 1.680  0.4811  160.0   5.832   72.0  0.0872   59.6  0.1901 -140.8
 1.700  0.4816  159.5   5.763   71.6  0.0881   59.5  0.1898 -141.3
 1.720  0.4820  159.0   5.699   71.3  0.0890   59.4  0.1897 -141.7
 1.740  0.4825  158.6   5.636   70.9  0.0899   59.3  0.1895 -142.2
 1.760  0.4830  158.1   5.572   70.6  0.0909   59.1  0.1894 -142.6
 1.780  0.4835  157.7   5.509   70.3  0.0918   59.0  0.1893 -143.1
 1.800  0.4841  157.2   5.446   69.9  0.0927   58.9  0.1892 -143.5
 1.820  0.4847  156.7   5.390   69.6  0.0936   58.8  0.1891 -143.9
 1.840  0.4853  156.2   5.335   69.2  0.0945   58.7  0.1890 -144.4
 1.860  0.4859  155.8   5.280   68.9  0.0954   58.5  0.1889 -144.8
 1.880  0.4866  155.3   5.225   68.6  0.0963   58.4  0.1889 -145.3
 1.900  0.4873  154.8   5.170   68.2  0.0972   58.3  0.1888 -145.7
 1.920  0.4880  154.3   5.119   67.9  0.0981   58.2  0.1888 -146.1
 1.940  0.4888  153.9   5.068   67.5  0.0990   58.0  0.1888 -146.6
 1.960  0.4895  153.4   5.018   67.1  0.0999   57.9  0.1888 -147.0
 1.980  0.4904  153.0   4.967   66.8  0.1008   57.7  0.1889 -147.5
 2.000  0.4912  152.5   4.917   66.4  0.1017   57.6  0.1889 -147.9
 2.020  0.4918  152.1   4.872   66.1  0.1026   57.4  0.1890 -148.3
 2.040  0.4924  151.6   4.827   65.8  0.1035   57.3  0.1892 -148.8
 2.060  0.4931  151.2   4.782   65.5  0.1044   57.2  0.1893 -149.2
 2.080  0.4937  150.8   4.738   65.2  0.1053   57.0  0.1894 -149.7
 2.100  0.4945  150.3   4.694   64.8  0.1061   56.9  0.1896 -150.1
 2.120  0.4952  149.9   4.649   64.5  0.1070   56.7  0.1898 -150.5
 2.140  0.4959  149.5   4.605   64.2  0.1079   56.6  0.1900 -151.0
 2.160  0.4967  149.0   4.561   63.8  0.1088   56.5  0.1902 -151.4
 2.180  0.4976  148.6   4.518   63.5  0.1097   56.3  0.1904 -151.9
 2.200  0.4984  148.2   4.474   63.1  0.1106   56.2  0.1906 -152.3
 2.220  0.4992  147.8   4.436   62.8  0.1115   56.0  0.1909 -152.7
 2.240  0.5000  147.4   4.399   62.5  0.1124   55.9  0.1912 -153.2
 2.260  0.5009  147.0   4.362   62.2  0.1132   55.7  0.1915 -153.6
 2.280  0.5018  146.5   4.325   61.8  0.1141   55.5  0.1918 -154.1
 2.300  0.5027  146.1   4.288   61.5  0.1150   55.4  0.1921 -154.5
 2.320  0.5036  145.7   4.251   61.2  0.1159   55.2  0.1924 -155.0
 2.340  0.5046  145.3   4.214   60.9  0.1168   55.1  0.1928 -155.4
 2.360  0.5056  144.9   4.178   60.5  0.1176   54.9  0.1931 -155.8
 2.380  0.5066  144.5   4.141   60.2  0.1185   54.7  0.1935 -156.3
 2.400  0.5076  144.1   4.105   59.8  0.1194   54.6  0.1939 -156.7
 2.420  0.5084  143.7   4.073   59.5  0.1202   54.4  0.1944 -157.1
 2.440  0.5093  143.3   4.041   59.2  0.1211   54.3  0.1949 -157.6
 2.460  0.5101  142.9   4.009   58.9  0.1219   54.1  0.1954 -158.0
 2.480  0.5110  142.5   3.977   58.6  0.1228   53.9  0.1959 -158.4
 2.500  0.5120  142.1   3.945   58.3  0.1236   53.8  0.1965 -158.9
 2.520  0.5129  141.7   3.913   57.9  0.1245   53.6  0.1970 -159.3
 2.540  0.5139  141.4   3.882   57.6  0.1253   53.5  0.1976 -159.7
 2.560  0.5149  141.0   3.850   57.3  0.1262   53.3  0.1981 -160.2
 2.580  0.5159  140.6   3.819   56.9  0.1270   53.2  0.1987 -160.6
 2.600  0.5169  140.2   3.788   56.6  0.1279   53.0  0.1993 -161.0
 2.620  0.5177  139.8   3.760   56.3  0.1287   52.8  0.2000 -161.4
 2.640  0.5185  139.5   3.733   56.0  0.1295   52.6  0.2007 -161.8
 2.660  0.5194  139.1   3.705   55.7  0.1303   52.5  0.2014 -162.2
 2.680  0.5202  138.7   3.678   55.4  0.1312   52.3  0.2021 -162.6
 2.700  0.5211  138.4   3.650   55.1  0.1320   52.1  0.2028 -163.0
 2.720  0.5220  138.0   3.623   54.8  0.1328   52.0  0.2035 -163.4
 2.740  0.5229  137.7   3.596   54.5  0.1336   51.8  0.2042 -163.8
 2.760  0.5239  137.3   3.569   54.2  0.1345   51.6  0.2050 -164.2
 2.780  0.5248  137.0   3.542   53.8  0.1353   51.5  0.2057 -164.6
 2.800  0.5258  136.6   3.515   53.5  0.1361   51.3  0.2065 -165.0
 2.820  0.5267  136.3   3.491   53.2  0.1369   51.1  0.2072 -165.4
 2.840  0.5276  135.9   3.466   52.9  0.1377   50.9  0.2080 -165.8
 2.860  0.5285  135.6   3.442   52.6  0.1385   50.8  0.2087 -166.2
 2.880  0.5294  135.2   3.418   52.4  0.1394   50.6  0.2095 -166.6
 2.900  0.5304  134.9   3.394   52.1  0.1402   50.4  0.2102 -166.9
 2.920  0.5313  134.5   3.370   51.8  0.1410   50.3  0.2110 -167.3
 2.940  0.5323  134.2   3.347   51.4  0.1418   50.1  0.2118 -167.7
 2.960  0.5333  133.9   3.323   51.1  0.1427   49.9  0.2126 -168.1
 2.980  0.5344  133.5   3.299   50.8  0.1435   49.8  0.2134 -168.4
 3.000  0.5354  133.2   3.276   50.5  0.1443   49.6  0.2142 -168.8
 3.100  0.5397  131.5   3.176   49.2  0.1480   48.6  0.2181 -170.6
 3.200  0.5445  129.8   3.078   47.9  0.1518   47.7  0.2223 -172.3
 3.300  0.5497  128.1   2.982   46.4  0.1556   46.8  0.2266 -174.0
 3.400  0.5555  126.5   2.888   44.9  0.1594   46.0  0.2311 -175.6
 3.500  0.5616  124.9   2.796   43.2  0.1633   45.2  0.2358 -177.1
 3.600  0.5669  123.4   2.720   42.0  0.1667   44.2  0.2405 -179.0
 3.700  0.5725  121.9   2.644   40.7  0.1701   43.3  0.2454  179.2
 3.800  0.5785  120.5   2.571   39.3  0.1735   42.5  0.2505  177.5
 3.900  0.5849  119.1   2.498   37.8  0.1770   41.6  0.2558  175.9
 4.000  0.5916  117.7   2.428   36.3  0.1805   40.8  0.2614  174.3
 4.100  0.5970  116.5   2.368   35.1  0.1835   39.9  0.2673  172.6
 4.200  0.6027  115.2   2.308   33.9  0.1865   39.1  0.2733  171.1
 4.300  0.6087  114.0   2.250   32.7  0.1896   38.3  0.2796  169.5
 4.400  0.6149  112.9   2.193   31.3  0.1927   37.5  0.2861  168.1
 4.500  0.6214  111.7   2.137   29.9  0.1959   36.8  0.2927  166.7
 4.600  0.6253  110.6   2.090   28.8  0.1988   36.1  0.2974  165.5
 4.700  0.6295  109.5   2.044   27.7  0.2018   35.3  0.3021  164.4
 4.800  0.6339  108.4   1.999   26.5  0.2048   34.6  0.3070  163.3
 4.900  0.6385  107.3   1.954   25.3  0.2078   34.0  0.3120  162.2
 5.000  0.6434  106.2   1.911   24.0  0.2109   33.3  0.3171  161.2
 5.100  0.6462  105.2   1.875   23.0  0.2141   32.5  0.3201  160.3
 5.200  0.6491  104.3   1.839   22.0  0.2173   31.8  0.3231  159.4
 5.300  0.6522  103.4   1.805   20.9  0.2205   31.0  0.3262  158.6
 5.400  0.6555  102.4   1.770   19.8  0.2238   30.3  0.3294  157.7
 5.500  0.6590  101.5   1.737   18.6  0.2271   29.6  0.3327  156.9
 5.600  0.6611  100.7   1.708   17.6  0.2300   28.8  0.3362  156.1
 5.700  0.6633   99.9   1.680   16.5  0.2330   27.9  0.3397  155.3
 5.800  0.6656   99.1   1.653   15.4  0.2361   27.1  0.3434  154.5
 5.900  0.6680   98.4   1.626   14.3  0.2392   26.4  0.3471  153.7
 6.000  0.6706   97.6   1.600   13.1  0.2423   25.6  0.3508  153.0
 6.100  0.6711   96.8   1.576   12.1  0.2449   24.8  0.3531  152.5
 6.200  0.6717   96.0   1.552   11.1  0.2475   24.1  0.3554  151.9
 6.300  0.6725   95.3   1.528   10.1  0.2502   23.3  0.3577  151.4
 6.400  0.6734   94.5   1.505    9.0  0.2529   22.6  0.3600  150.9
 6.500  0.6744   93.7   1.483    7.9  0.2556   21.9  0.3624  150.4
 6.600  0.6738   92.8   1.464    6.9  0.2586   21.2  0.3619  150.0
 6.800  0.6730   90.9   1.428    5.0  0.2646   19.8  0.3609  149.3
 7.000  0.6729   89.1   1.394    2.9  0.2708   18.5  0.3599  148.5
 7.200  0.6744   86.9   1.365    0.8  0.2773   16.8  0.3592  147.0
 7.400  0.6770   84.7   1.338   -1.4  0.2840   15.2  0.3588  145.5
 7.600  0.6807   82.3   1.311   -3.7  0.2903   13.4  0.3604  143.7
 7.800  0.6857   79.9   1.284   -6.1  0.2963   11.5  0.3642  141.4
 8.000  0.6921   77.4   1.259   -8.6  0.3026    9.6  0.3686  139.2
 8.200  0.6977   74.8   1.226  -11.0  0.3065    7.4  0.3731  136.4
 8.400  0.7047   72.3   1.195  -13.5  0.3109    5.3  0.3785  133.6
 8.600  0.7139   69.8   1.164  -15.9  0.3135    3.2  0.3854  130.3
 8.800  0.7252   67.6   1.131  -18.1  0.3145    1.1  0.3947  126.3
 9.000  0.7376   65.4   1.100  -20.5  0.3159   -1.0  0.4057  122.6
 9.200  0.7536   63.5   1.064  -22.3  0.3146   -2.6  0.4227  118.2
 9.400  0.7704   61.8   1.029  -24.3  0.3135   -4.2  0.4421  114.2
 9.600  0.7853   60.1   0.995  -26.0  0.3123   -5.5  0.4618  110.7
 9.800  0.7981   58.6   0.962  -27.5  0.3108   -6.4  0.4815  107.6
10.000  0.8114   57.2   0.929  -29.1  0.3095   -7.4  0.5024  104.8
!
!  f       NFmin   Gammaopt  rn/50
! GHz       dB    MAG  ANG    -
 0.450      1.56  0.23 -168   0.12
 0.900      1.59  0.20 -163   0.13
 1.900      1.71  0.31 -143   0.14
 3.500      1.58  0.54 -119   0.20
!
! (c) 2016  Infineon Technologies AG, Munich
