! Infineon Technologies  Discrete & RF Semiconductors
! BFP460
! VCE =  1.5 V,  IC =  30 mA
! Common Emitter S-Parameters:                            Jan 2016
# GHz  S  MA  R  50
!  f         S11            S21            S12            S22
! GHz     MAG   ANG      MAG   ANG      MAG   ANG      MAG   ANG
 0.030  0.4792  -21.6  55.762  169.8  0.0051   84.1  0.9122  -11.6
 0.035  0.4773  -24.9  55.376  168.0  0.0059   82.3  0.9078  -13.6
 0.040  0.4771  -28.3  55.047  166.1  0.0067   81.0  0.9045  -15.7
 0.045  0.4753  -31.4  54.507  164.1  0.0074   80.1  0.8982  -17.7
 0.050  0.4750  -34.6  54.033  162.1  0.0081   79.3  0.8929  -19.7
 0.055  0.4737  -38.0  53.566  160.6  0.0088   77.8  0.8854  -21.6
 0.060  0.4740  -41.4  53.139  159.0  0.0096   76.5  0.8789  -23.6
 0.065  0.4737  -44.8  52.689  157.3  0.0103   74.9  0.8702  -25.5
 0.070  0.4751  -48.1  52.286  155.6  0.0111   73.5  0.8625  -27.4
 0.075  0.4769  -50.8  51.677  154.3  0.0117   72.8  0.8531  -29.2
 0.080  0.4798  -53.4  51.097  152.9  0.0124   72.1  0.8445  -31.0
 0.085  0.4781  -56.5  50.416  151.4  0.0130   71.2  0.8342  -32.7
 0.090  0.4778  -59.7  49.771  149.8  0.0136   70.3  0.8246  -34.5
 0.095  0.4768  -62.1  49.020  148.5  0.0142   69.3  0.8145  -36.1
 0.100  0.4766  -64.6  48.295  147.2  0.0148   68.4  0.8050  -37.8
 0.105  0.4781  -67.2  47.690  145.9  0.0153   67.7  0.7942  -39.4
 0.110  0.4805  -69.7  47.111  144.5  0.0159   67.1  0.7841  -41.0
 0.115  0.4782  -72.2  46.413  143.2  0.0163   66.3  0.7736  -42.5
 0.120  0.4769  -74.8  45.739  141.9  0.0168   65.5  0.7636  -44.0
 0.125  0.4756  -77.1  45.062  140.8  0.0173   65.0  0.7527  -45.4
 0.130  0.4751  -79.5  44.402  139.7  0.0178   64.5  0.7423  -46.9
 0.135  0.4751  -81.8  43.761  138.5  0.0182   63.9  0.7319  -48.3
 0.140  0.4758  -84.0  43.139  137.3  0.0187   63.3  0.7219  -49.7
 0.145  0.4745  -86.1  42.421  136.3  0.0191   62.6  0.7117  -51.0
 0.150  0.4739  -88.2  41.717  135.2  0.0195   62.0  0.7019  -52.3
 0.155  0.4719  -89.9  41.092  134.4  0.0199   61.6  0.6917  -53.3
 0.160  0.4703  -91.6  40.475  133.6  0.0202   61.2  0.6817  -54.3
 0.165  0.4692  -93.3  39.866  132.8  0.0206   60.8  0.6719  -55.4
 0.170  0.4685  -95.1  39.265  132.0  0.0209   60.4  0.6623  -56.5
 0.175  0.4682  -96.8  38.674  131.1  0.0213   60.0  0.6531  -57.6
 0.180  0.4683  -98.5  38.091  130.2  0.0216   59.6  0.6440  -58.8
 0.185  0.4689 -100.3  37.519  129.3  0.0220   59.3  0.6353  -60.0
 0.190  0.4699 -102.0  36.956  128.3  0.0224   58.9  0.6268  -61.2
 0.195  0.4713 -103.7  36.404  127.3  0.0227   58.6  0.6187  -62.5
 0.200  0.4731 -105.4  35.863  126.3  0.0231   58.3  0.6108  -63.8
 0.220  0.4703 -110.6  33.861  123.9  0.0242   57.4  0.5794  -67.2
 0.240  0.4715 -115.9  31.928  121.1  0.0253   56.6  0.5503  -71.0
 0.260  0.4726 -120.5  30.196  118.6  0.0264   56.0  0.5244  -74.5
 0.280  0.4723 -124.5  28.632  116.6  0.0273   55.7  0.5006  -77.4
 0.300  0.4743 -128.5  27.109  114.3  0.0282   55.4  0.4783  -80.7
 0.320  0.4734 -131.7  25.833  112.7  0.0291   55.3  0.4591  -83.2
 0.340  0.4740 -134.9  24.578  111.0  0.0300   55.2  0.4409  -85.9
 0.360  0.4742 -137.8  23.445  109.5  0.0309   55.1  0.4246  -88.3
 0.380  0.4735 -140.5  22.427  108.1  0.0318   55.2  0.4099  -90.5
 0.400  0.4738 -143.1  21.422  106.6  0.0326   55.2  0.3959  -92.9
 0.420  0.4736 -145.3  20.579  105.5  0.0334   55.3  0.3839  -94.8
 0.440  0.4741 -147.4  19.743  104.3  0.0343   55.4  0.3724  -96.8
 0.450  0.4746 -148.5  19.329  103.7  0.0347   55.5  0.3668  -97.9
 0.460  0.4744 -149.4  18.980  103.2  0.0351   55.6  0.3619  -98.8
 0.480  0.4743 -151.3  18.287  102.3  0.0360   55.8  0.3524 -100.5
 0.500  0.4747 -153.2  17.599  101.2  0.0368   56.0  0.3432 -102.4
 0.520  0.4744 -154.7  17.051  100.4  0.0377   56.2  0.3357 -103.8
 0.540  0.4745 -156.2  16.506   99.6  0.0385   56.4  0.3285 -105.3
 0.560  0.4748 -157.8  15.964   98.7  0.0394   56.6  0.3214 -106.8
 0.580  0.4756 -159.3  15.427   97.8  0.0402   56.8  0.3146 -108.4
 0.600  0.4766 -160.8  14.894   96.8  0.0411   57.0  0.3081 -110.1
 0.620  0.4766 -162.0  14.489   96.2  0.0420   57.2  0.3029 -111.3
 0.640  0.4767 -163.2  14.086   95.6  0.0428   57.4  0.2979 -112.6
 0.660  0.4771 -164.4  13.684   94.9  0.0437   57.6  0.2931 -113.9
 0.680  0.4777 -165.6  13.285   94.2  0.0445   57.7  0.2883 -115.2
 0.700  0.4785 -166.8  12.888   93.4  0.0454   57.9  0.2838 -116.6
 0.720  0.4785 -167.8  12.579   92.8  0.0463   58.0  0.2801 -117.7
 0.740  0.4786 -168.8  12.272   92.3  0.0472   58.2  0.2765 -118.8
 0.760  0.4788 -169.9  11.966   91.6  0.0481   58.3  0.2730 -119.9
 0.780  0.4792 -170.9  11.661   91.0  0.0490   58.4  0.2697 -121.0
 0.800  0.4798 -171.9  11.358   90.3  0.0499   58.5  0.2664 -122.2
 0.820  0.4801 -172.8  11.116   89.8  0.0508   58.6  0.2638 -123.1
 0.840  0.4806 -173.6  10.875   89.3  0.0517   58.8  0.2613 -124.1
 0.860  0.4811 -174.5  10.634   88.8  0.0526   58.9  0.2588 -125.0
 0.880  0.4817 -175.3  10.395   88.3  0.0535   59.0  0.2564 -126.0
 0.900  0.4825 -176.2  10.156   87.7  0.0544   59.1  0.2541 -127.0
 0.920  0.4826 -177.0   9.959   87.3  0.0553   59.2  0.2521 -127.8
 0.940  0.4828 -177.8   9.763   86.8  0.0562   59.2  0.2503 -128.7
 0.960  0.4831 -178.5   9.567   86.3  0.0572   59.3  0.2484 -129.5
 0.980  0.4834 -179.3   9.372   85.8  0.0581   59.3  0.2466 -130.4
 1.000  0.4839  179.9   9.178   85.3  0.0590   59.4  0.2449 -131.3
 1.020  0.4841  179.2   9.015   84.9  0.0599   59.4  0.2435 -132.0
 1.040  0.4845  178.5   8.853   84.4  0.0608   59.4  0.2421 -132.8
 1.060  0.4849  177.7   8.691   84.0  0.0618   59.5  0.2408 -133.6
 1.080  0.4853  177.0   8.530   83.5  0.0627   59.5  0.2395 -134.3
 1.100  0.4859  176.3   8.370   83.0  0.0636   59.5  0.2383 -135.1
 1.120  0.4861  175.7   8.234   82.6  0.0645   59.5  0.2372 -135.8
 1.140  0.4864  175.0   8.098   82.2  0.0655   59.5  0.2361 -136.4
 1.160  0.4868  174.4   7.963   81.8  0.0664   59.5  0.2351 -137.1
 1.180  0.4872  173.7   7.828   81.3  0.0674   59.5  0.2341 -137.8
 1.200  0.4877  173.1   7.694   80.9  0.0683   59.5  0.2331 -138.5
 1.220  0.4881  172.5   7.578   80.5  0.0692   59.5  0.2324 -139.1
 1.240  0.4885  171.9   7.462   80.1  0.0702   59.5  0.2317 -139.7
 1.260  0.4890  171.3   7.347   79.7  0.0711   59.4  0.2310 -140.3
 1.280  0.4895  170.7   7.232   79.2  0.0721   59.4  0.2303 -140.9
 1.300  0.4901  170.1   7.117   78.8  0.0730   59.4  0.2297 -141.5
 1.320  0.4905  169.6   7.017   78.4  0.0739   59.4  0.2291 -142.1
 1.340  0.4909  169.0   6.918   78.1  0.0749   59.3  0.2284 -142.7
 1.360  0.4914  168.5   6.818   77.7  0.0758   59.3  0.2278 -143.2
 1.380  0.4919  167.9   6.720   77.3  0.0768   59.2  0.2273 -143.8
 1.400  0.4925  167.4   6.621   76.9  0.0777   59.2  0.2267 -144.4
 1.420  0.4930  166.8   6.534   76.5  0.0786   59.1  0.2263 -144.9
 1.440  0.4936  166.3   6.448   76.2  0.0796   59.0  0.2260 -145.4
 1.460  0.4942  165.7   6.362   75.8  0.0805   59.0  0.2256 -145.9
 1.480  0.4948  165.2   6.276   75.4  0.0815   58.9  0.2253 -146.4
 1.500  0.4955  164.6   6.191   75.0  0.0824   58.8  0.2250 -146.9
 1.520  0.4960  164.1   6.115   74.7  0.0833   58.7  0.2247 -147.4
 1.540  0.4965  163.5   6.039   74.3  0.0843   58.6  0.2244 -147.9
 1.560  0.4971  163.0   5.963   73.9  0.0852   58.6  0.2241 -148.3
 1.580  0.4977  162.4   5.888   73.6  0.0862   58.5  0.2238 -148.8
 1.600  0.4984  161.9   5.813   73.2  0.0871   58.4  0.2236 -149.3
 1.620  0.4988  161.4   5.746   72.9  0.0880   58.3  0.2234 -149.8
 1.640  0.4992  161.0   5.680   72.5  0.0890   58.2  0.2233 -150.2
 1.660  0.4996  160.5   5.613   72.1  0.0899   58.1  0.2231 -150.7
 1.680  0.5001  160.1   5.547   71.8  0.0909   58.0  0.2230 -151.1
 1.700  0.5006  159.6   5.481   71.4  0.0918   57.9  0.2229 -151.6
 1.720  0.5010  159.1   5.421   71.1  0.0927   57.8  0.2229 -152.0
 1.740  0.5015  158.6   5.361   70.7  0.0937   57.7  0.2228 -152.4
 1.760  0.5020  158.2   5.301   70.4  0.0946   57.5  0.2228 -152.9
 1.780  0.5025  157.7   5.241   70.1  0.0956   57.4  0.2228 -153.3
 1.800  0.5031  157.2   5.182   69.7  0.0965   57.3  0.2228 -153.7
 1.820  0.5036  156.7   5.129   69.4  0.0974   57.2  0.2228 -154.1
 1.840  0.5041  156.2   5.076   69.0  0.0983   57.1  0.2228 -154.6
 1.860  0.5047  155.8   5.023   68.6  0.0993   57.0  0.2228 -155.0
 1.880  0.5053  155.3   4.970   68.3  0.1002   56.9  0.2228 -155.5
 1.900  0.5059  154.8   4.918   67.9  0.1011   56.8  0.2228 -155.9
 1.920  0.5064  154.3   4.870   67.6  0.1020   56.7  0.2229 -156.3
 1.940  0.5069  153.9   4.822   67.2  0.1029   56.5  0.2230 -156.7
 1.960  0.5074  153.4   4.774   66.8  0.1039   56.4  0.2231 -157.1
 1.980  0.5080  153.0   4.726   66.5  0.1048   56.2  0.2233 -157.5
 2.000  0.5086  152.5   4.679   66.1  0.1057   56.1  0.2234 -157.9
 2.020  0.5093  152.1   4.636   65.8  0.1066   55.9  0.2236 -158.3
 2.040  0.5101  151.6   4.593   65.5  0.1075   55.8  0.2238 -158.7
 2.060  0.5109  151.2   4.551   65.2  0.1085   55.6  0.2241 -159.1
 2.080  0.5118  150.8   4.508   64.9  0.1094   55.5  0.2243 -159.6
 2.100  0.5126  150.3   4.466   64.5  0.1103   55.3  0.2246 -160.0
 2.120  0.5135  149.9   4.423   64.2  0.1112   55.2  0.2248 -160.4
 2.140  0.5145  149.5   4.381   63.9  0.1121   55.0  0.2251 -160.8
 2.160  0.5154  149.0   4.339   63.5  0.1131   54.9  0.2254 -161.2
 2.180  0.5164  148.6   4.298   63.2  0.1140   54.7  0.2257 -161.6
 2.200  0.5174  148.2   4.256   62.8  0.1149   54.6  0.2260 -162.0
 2.220  0.5181  147.8   4.220   62.5  0.1158   54.4  0.2264 -162.4
 2.240  0.5189  147.4   4.185   62.2  0.1167   54.3  0.2268 -162.8
 2.260  0.5197  147.0   4.149   61.9  0.1176   54.1  0.2271 -163.2
 2.280  0.5205  146.5   4.114   61.5  0.1185   54.0  0.2275 -163.6
 2.300  0.5213  146.1   4.078   61.2  0.1193   53.8  0.2280 -164.0
 2.320  0.5222  145.7   4.043   60.9  0.1202   53.7  0.2284 -164.4
 2.340  0.5231  145.3   4.008   60.6  0.1211   53.5  0.2288 -164.8
 2.360  0.5240  144.9   3.973   60.2  0.1220   53.4  0.2293 -165.2
 2.380  0.5249  144.5   3.939   59.9  0.1229   53.2  0.2297 -165.6
 2.400  0.5259  144.1   3.904   59.5  0.1238   53.1  0.2302 -166.0
 2.420  0.5267  143.7   3.873   59.2  0.1247   52.9  0.2308 -166.4
 2.440  0.5275  143.3   3.843   58.9  0.1255   52.8  0.2314 -166.8
 2.460  0.5283  142.9   3.812   58.6  0.1264   52.6  0.2320 -167.2
 2.480  0.5292  142.5   3.782   58.3  0.1273   52.4  0.2326 -167.5
 2.500  0.5300  142.1   3.752   58.0  0.1281   52.3  0.2332 -167.9
 2.520  0.5309  141.7   3.721   57.6  0.1290   52.1  0.2338 -168.3
 2.540  0.5319  141.4   3.691   57.3  0.1299   52.0  0.2344 -168.7
 2.560  0.5328  141.0   3.661   57.0  0.1308   51.8  0.2351 -169.1
 2.580  0.5338  140.6   3.632   56.6  0.1316   51.7  0.2357 -169.4
 2.600  0.5348  140.2   3.602   56.3  0.1325   51.5  0.2364 -169.8
 2.620  0.5355  139.8   3.576   56.0  0.1333   51.3  0.2371 -170.2
 2.640  0.5363  139.5   3.549   55.7  0.1342   51.1  0.2378 -170.5
 2.660  0.5371  139.1   3.523   55.4  0.1350   51.0  0.2385 -170.9
 2.680  0.5379  138.7   3.497   55.1  0.1358   50.8  0.2393 -171.3
 2.700  0.5388  138.3   3.471   54.8  0.1367   50.6  0.2400 -171.6
 2.720  0.5396  138.0   3.445   54.4  0.1375   50.5  0.2408 -172.0
 2.740  0.5405  137.6   3.420   54.1  0.1384   50.3  0.2416 -172.3
 2.760  0.5414  137.2   3.394   53.8  0.1392   50.1  0.2423 -172.7
 2.780  0.5423  136.9   3.368   53.4  0.1401   50.0  0.2431 -173.1
 2.800  0.5433  136.5   3.343   53.1  0.1409   49.8  0.2439 -173.4
 2.820  0.5442  136.2   3.320   52.8  0.1417   49.6  0.2447 -173.7
 2.840  0.5451  135.8   3.297   52.5  0.1425   49.4  0.2454 -174.1
 2.860  0.5460  135.5   3.273   52.2  0.1433   49.2  0.2462 -174.4
 2.880  0.5469  135.1   3.250   52.0  0.1442   49.1  0.2470 -174.8
 2.900  0.5479  134.8   3.227   51.7  0.1450   48.9  0.2478 -175.1
 2.920  0.5489  134.4   3.205   51.4  0.1458   48.7  0.2486 -175.5
 2.940  0.5499  134.1   3.182   51.0  0.1466   48.5  0.2494 -175.8
 2.960  0.5509  133.8   3.159   50.7  0.1474   48.3  0.2502 -176.1
 2.980  0.5519  133.4   3.136   50.4  0.1483   48.2  0.2511 -176.5
 3.000  0.5530  133.1   3.114   50.1  0.1491   48.0  0.2519 -176.8
 3.100  0.5570  131.4   3.019   48.8  0.1529   47.0  0.2560 -178.4
 3.200  0.5614  129.7   2.925   47.5  0.1567   46.1  0.2602 -180.0
 3.300  0.5663  128.0   2.834   46.0  0.1606   45.2  0.2646  178.5
 3.400  0.5717  126.4   2.744   44.5  0.1645   44.4  0.2692  177.1
 3.500  0.5776  124.8   2.656   42.8  0.1685   43.6  0.2740  175.7
 3.600  0.5827  123.3   2.583   41.6  0.1719   42.6  0.2788  174.0
 3.700  0.5882  121.8   2.512   40.3  0.1753   41.7  0.2837  172.5
 3.800  0.5942  120.3   2.442   38.9  0.1787   40.9  0.2889  170.9
 3.900  0.6004  118.9   2.373   37.4  0.1822   40.0  0.2943  169.4
 4.000  0.6071  117.5   2.306   35.9  0.1857   39.2  0.2999  168.0
 4.100  0.6122  116.2   2.249   34.7  0.1887   38.3  0.3057  166.5
 4.200  0.6175  115.0   2.192   33.5  0.1917   37.5  0.3117  165.1
 4.300  0.6232  113.8   2.137   32.3  0.1948   36.7  0.3179  163.8
 4.400  0.6291  112.6   2.082   30.9  0.1979   36.0  0.3242  162.5
 4.500  0.6353  111.4   2.029   29.5  0.2010   35.2  0.3307  161.2
 4.600  0.6391  110.3   1.984   28.4  0.2039   34.5  0.3352  160.1
 4.700  0.6432  109.1   1.941   27.3  0.2068   33.7  0.3397  159.0
 4.800  0.6475  108.0   1.898   26.2  0.2098   33.0  0.3444  158.0
 4.900  0.6521  106.9   1.855   25.0  0.2128   32.4  0.3492  157.0
 5.000  0.6569  105.8   1.814   23.7  0.2158   31.7  0.3541  156.0
 5.100  0.6594  104.8   1.780   22.7  0.2190   30.9  0.3568  155.2
 5.200  0.6621  103.9   1.747   21.7  0.2223   30.2  0.3596  154.3
 5.300  0.6650  103.0   1.714   20.6  0.2255   29.5  0.3625  153.5
 5.400  0.6681  102.0   1.682   19.5  0.2289   28.8  0.3654  152.7
 5.500  0.6713  101.1   1.650   18.3  0.2322   28.1  0.3684  151.9
 5.600  0.6732  100.3   1.623   17.3  0.2351   27.2  0.3716  151.1
 5.700  0.6751   99.6   1.597   16.3  0.2380   26.4  0.3748  150.3
 5.800  0.6772   98.8   1.571   15.2  0.2410   25.6  0.3781  149.6
 5.900  0.6795   98.1   1.546   14.1  0.2440   24.8  0.3815  148.8
 6.000  0.6818   97.3   1.521   13.0  0.2471   24.0  0.3849  148.1
 6.100  0.6821   96.5   1.498   12.0  0.2497   23.2  0.3867  147.6
 6.200  0.6826   95.7   1.476   11.0  0.2523   22.5  0.3886  147.1
 6.300  0.6832   94.9   1.454   10.0  0.2549   21.8  0.3905  146.6
 6.400  0.6839   94.1   1.432    8.9  0.2576   21.1  0.3924  146.1
 6.500  0.6848   93.3   1.411    7.8  0.2603   20.4  0.3943  145.6
 6.600  0.6841   92.4   1.394    6.8  0.2633   19.7  0.3934  145.2
 6.800  0.6831   90.5   1.360    4.9  0.2694   18.3  0.3915  144.3
 7.000  0.6829   88.7   1.328    2.8  0.2756   16.9  0.3898  143.4
 7.200  0.6844   86.5   1.301    0.7  0.2821   15.2  0.3889  141.9
 7.400  0.6870   84.3   1.276   -1.4  0.2888   13.6  0.3883  140.4
 7.600  0.6905   81.9   1.250   -3.7  0.2950   11.8  0.3897  138.5
 7.800  0.6954   79.5   1.225   -6.1  0.3009    9.9  0.3934  136.3
 8.000  0.7015   77.0   1.202   -8.6  0.3072    8.0  0.3977  134.1
 8.200  0.7067   74.4   1.172  -11.0  0.3109    5.8  0.4021  131.3
 8.400  0.7134   71.9   1.144  -13.4  0.3151    3.7  0.4075  128.6
 8.600  0.7222   69.4   1.114  -15.8  0.3174    1.5  0.4145  125.4
 8.800  0.7330   67.1   1.082  -18.1  0.3181   -0.6  0.4239  121.7
 9.000  0.7450   64.9   1.052  -20.5  0.3191   -2.7  0.4350  118.1
 9.200  0.7607   63.1   1.018  -22.3  0.3174   -4.2  0.4521  114.0
 9.400  0.7771   61.3   0.984  -24.3  0.3159   -5.8  0.4713  110.3
 9.600  0.7915   59.7   0.952  -26.0  0.3144   -7.1  0.4905  107.0
 9.800  0.8037   58.2   0.920  -27.3  0.3126   -8.0  0.5094  104.1
10.000  0.8164   56.8   0.888  -28.8  0.3109   -9.0  0.5294  101.4
!
!  f       NFmin   Gammaopt  rn/50
! GHz       dB    MAG  ANG    -
 0.450      1.47  0.19 -172   0.12
 0.900      1.49  0.17 -164   0.13
 1.900      1.61  0.28 -144   0.13
 3.500      1.51  0.49 -120   0.18
!
! (c) 2016  Infineon Technologies AG, Munich
