! Filename:  P:\Prog\Test\Noise\ATS_data\Testdata_Net\06 Compressed Noise after Statistics\BFU550_APG2013_43_D05_03p3V_025mA_NF_CM01_D.sf
! Date/Time: Fri 26/Apr/2013 13:07:20
! BFU550_APG2013_43_D05_03p3V_1to35mA_NF_CM01_Bias7_R.sf
! Noise Parameter Data File
! BFU550_APG2013_43_D05_03p3V_1to35mA_NF_CM01
! Date/time: Thu Apr 25 15:07:57 2013
! VAR V_out= 3.300000
! VAR I_out= 25.005000
! VAR V_in= 0.846300
! VAR I_in= 0.286300
! Device data file deembeded for feedlines and parallel
! Original file: \06 Compressed Noise after Statistics\BFU550_APG2013_43_D05_03p3V_025mA_NF_CM01_R.sf
! Feed-files: PR047V01_250413_Feed1.s2p, PR047V01_250413_Feed2.s2p
! Parallel-file: PR047V01_250413_Par.s2p
# MHz S MA R 50
!  Freq-MHz   S11-mag  S11-arg   S21-mag  S21-arg   S12-mag  S12-arg   S22-mag  S22-arg
        400   0.57302  -156.39    14.543   100.56  0.031607    51.62   0.34087   -67.70
        420   0.57445  -158.15    13.917    99.39  0.032385    51.92   0.32985   -68.60
        433   0.57511  -159.28    13.534    98.66  0.032842    52.08   0.32282   -69.01
        440   0.57604  -159.85     13.34    98.26  0.033092    52.15   0.31935   -69.20
        460   0.57762  -161.44    12.807    97.19  0.033878    52.47   0.31087   -69.91
        480   0.57924  -162.89    12.321    96.17  0.034601    52.75   0.30141   -70.55
        500   0.57983  -164.34    11.861    95.22  0.035321    53.09   0.29375   -71.10
        550   0.58144  -167.68    10.857    92.84  0.037093    54.17   0.27522   -72.13
        600    0.5838  -170.44    10.018    90.80  0.039132    54.86   0.26286   -73.44
        650   0.58628  -173.04    9.2784    88.90  0.041091    55.57   0.25202   -74.63
        700   0.58707  -175.11    8.6464    87.20  0.043118    56.29   0.24277   -75.39
        750   0.58929  -177.50    8.0927    85.48  0.045152    56.84   0.23565   -76.51
        800   0.59012  -179.45    7.6051    83.90  0.047144    57.44   0.22909   -77.56
        850   0.59134   178.67    7.1706    82.40  0.049151    58.03   0.22292   -78.36
        900   0.59138   176.68    6.7796    80.92  0.051304    58.51   0.21962   -79.36
        950   0.59372   175.13    6.4407    79.54  0.053442    58.92   0.21608   -80.27
       1000   0.59291   173.46    6.1261    78.15  0.055589    59.30    0.2133   -81.07
       1050   0.59468   171.67    5.8373    76.79  0.057767    59.55   0.21193   -82.07
       1100   0.59597   170.47    5.5804    75.55  0.060011    59.84   0.20993   -82.79
       1150   0.59578   168.82    5.3384    74.26  0.062148    59.98   0.20838   -83.75
       1200    0.5971   167.29    5.1184    72.98  0.064319    60.11   0.20815   -84.81
       1250   0.59853   166.17    4.9219    71.86  0.066577    60.31   0.20685   -85.41
       1300   0.59806   164.58     4.733    70.63  0.068756    60.37   0.20734   -86.51
       1350   0.59905   163.33    4.5629    69.49  0.071004    60.47   0.20763   -87.42
       1400   0.60064   162.19    4.4073    68.35  0.073307    60.55   0.20692   -88.14
       1450   0.60083   160.53    4.2526    67.11  0.075514    60.47   0.20884   -89.24
       1500   0.60263   159.43    4.1122    65.97  0.077771    60.42   0.20977   -90.25
       1550   0.60101   158.26    3.9809    64.89  0.080015    60.35   0.20977   -91.01
       1600   0.60247   156.79    3.8495    63.73  0.082088    60.26     0.212   -92.01
       1650   0.60375   156.07    3.7403    62.76  0.084499    60.25   0.21269   -92.80
       1700   0.60375   154.85     3.634    61.72   0.08673    60.18   0.21361   -93.73
       1750     0.605   153.36     3.525    60.60  0.088845    59.99    0.2156   -94.99
       1800   0.60766   152.61    3.4392    59.57  0.091337    59.91   0.21636   -95.64
       1850    0.6071   151.08    3.3398    58.39  0.093425    59.63   0.21988   -96.70
       1900   0.60825   150.07    3.2495    57.39  0.095492    59.50   0.22168   -97.93
       1950   0.60866   149.38    3.1728    56.42  0.097818    59.41   0.22213   -98.51
       2000   0.60875   148.07    3.0852    55.37  0.099764    59.26   0.22476   -99.57

!  
! Device Noise Parameters
!  Freq-MHz   Fmin-dB  Gopt-mag  Gopt-arg   Rn-Ohm_normalized
        400    1.1457   0.32988  -176.53    0.0737
        420    1.0850   0.35622  -172.23    0.0670
        433    1.0855   0.35794  -172.23    0.0660
        440    1.0708   0.35720  -172.49    0.0651
        460    1.0687   0.39136  -171.36    0.0576
        480    1.0752   0.36309  -171.44    0.0640
        500    1.1128   0.36694  -171.26    0.0649
        550    1.1080   0.36969  -169.42    0.0653
        600    1.0870   0.36990  -169.88    0.0641
        650    1.1394   0.37671  -168.82    0.0636
        700    1.1264   0.38423  -168.21    0.0622
        750    1.1132   0.38335  -167.25    0.0634
        800    1.1494   0.39326  -165.85    0.0619
        850    1.1484   0.39365  -167.92    0.0614
        900    1.1563   0.39096  -164.63    0.0646
        950    1.1451   0.40695  -163.03    0.0625
       1000    1.1706   0.40309  -163.94    0.0626
       1050    1.1850   0.41560  -162.38    0.0612
       1100    1.1828   0.42380  -161.13    0.0609
       1150    1.2120   0.41857  -160.63    0.0635
       1200    1.2080   0.41633  -159.45    0.0660
       1250    1.2053   0.42225  -158.64    0.0670
       1300    1.2342   0.42779  -157.30    0.0683
       1350    1.2315   0.42958  -157.19    0.0679
       1400    1.2292   0.42431  -157.40    0.0695
       1450    1.2561   0.42705  -153.10    0.0786
       1500    1.2514   0.44251  -155.23    0.0709
       1550    1.2547   0.42822  -152.17    0.0800
       1600    1.2812   0.43979  -152.26    0.0761
       1650    1.2668   0.43943  -151.45    0.0815
       1700    1.2898   0.45705  -150.81    0.0769
       1750    1.2977   0.44724  -149.10    0.0830
       1800    1.2609   0.45046  -149.37    0.0808
       1850    1.3046   0.44748  -148.32    0.0841
       1900    1.3226   0.45429  -144.44    0.0934
       1950    1.3267   0.46154  -143.12    0.0953
       2000    1.3778   0.45188  -146.20    0.0933

