! Filename:  P:\Prog\Test\Noise\ATS_data\Testdata_Net\06 Compressed Noise after Statistics\BFU550_APG2013_43_D05_03p3V_015mA_NF_CM01_D.sf
! Date/Time: Fri 26/Apr/2013 13:07:20
! BFU550_APG2013_43_D05_03p3V_1to35mA_NF_CM01_Bias6_R.sf
! Noise Parameter Data File
! BFU550_APG2013_43_D05_03p3V_1to35mA_NF_CM01
! Date/time: Thu Apr 25 15:07:57 2013
! VAR V_out= 3.300000
! VAR I_out= 14.995000
! VAR V_in= 0.838700
! VAR I_in= 0.169000
! Device data file deembeded for feedlines and parallel
! Original file: \06 Compressed Noise after Statistics\BFU550_APG2013_43_D05_03p3V_015mA_NF_CM01_R.sf
! Feed-files: PR047V01_250413_Feed1.s2p, PR047V01_250413_Feed2.s2p
! Parallel-file: PR047V01_250413_Par.s2p
# MHz S MA R 50
!  Freq-MHz   S11-mag  S11-arg   S21-mag  S21-arg   S12-mag  S12-arg   S22-mag  S22-arg
        400   0.55674  -138.47    14.666   106.77  0.039873    47.31   0.43427   -67.13
        420   0.55656  -140.88    14.082   105.41  0.040639    47.12    0.4201   -68.40
        433   0.55642  -142.43     13.72   104.54   0.04113    47.10   0.41115   -69.07
        440   0.55671  -143.25    13.539   104.06  0.041375    47.07   0.40671   -69.41
        460   0.55719  -145.45    13.033   102.81  0.042138    46.99   0.39536   -70.48
        480    0.5582  -147.46    12.567   101.63  0.042836    46.98   0.38308   -71.45
        500   0.55768  -149.43    12.124   100.51  0.043492    47.03   0.37278   -72.36
        550   0.55755  -154.02    11.147    97.74  0.045019    47.37   0.34733   -74.22
        600   0.55822  -157.80    10.323    95.41  0.046919    47.72   0.32959   -76.14
        650   0.55947  -161.30     9.587    93.24  0.048677    48.09   0.31387   -77.87
        700   0.55976  -164.14    8.9503    91.29  0.050393    48.60   0.30004   -79.15
        750   0.56109  -167.21    8.3945    89.37  0.052203    49.02   0.28896   -80.68
        800   0.56133  -169.74    7.9011    87.61   0.05395    49.47   0.27875   -82.07
        850   0.56188  -172.19    7.4593    85.95  0.055673    49.99   0.26929   -83.21
        900   0.56148  -174.68    7.0598    84.33  0.057528    50.49   0.26302   -84.45
        950   0.56385  -176.68    6.7137    82.83  0.059431    50.92   0.25673   -85.59
       1000   0.56255  -178.69    6.3911    81.32  0.061336    51.36   0.25147   -86.59
       1050   0.56411   179.10    6.0945    79.84  0.063232    51.70   0.24768   -87.73
       1100   0.56518   177.61     5.829    78.53  0.065235    52.07   0.24365   -88.58
       1150   0.56491   175.63      5.58    77.15  0.067131    52.34   0.24014   -89.64
       1200   0.56613   173.77    5.3536    75.79  0.069069    52.54   0.23811   -90.73
       1250   0.56753   172.44    5.1493    74.61  0.071108    52.89   0.23515   -91.42
       1300   0.56668   170.62     4.955    73.32  0.073089    53.04   0.23415   -92.53
       1350    0.5678   169.12    4.7782    72.12  0.075108    53.26   0.23287   -93.44
       1400   0.56924   167.78    4.6163    70.93  0.077224    53.45   0.23082   -94.19
       1450   0.56936   165.92    4.4565    69.65  0.079234    53.50   0.23152   -95.27
       1500     0.571   164.64    4.3103    68.46  0.081302    53.59    0.2313   -96.23
       1550    0.5695   163.32    4.1735    67.34  0.083366    53.65   0.23016   -96.99
       1600   0.57104   161.64    4.0375    66.15  0.085259    53.65   0.23128   -97.94
       1650   0.57227   160.80    3.9232    65.15  0.087455    53.79   0.23097   -98.68
       1700   0.57223   159.44    3.8124    64.08  0.089573    53.81   0.23098   -99.59
       1750   0.57338   157.82    3.6994    62.94    0.0915    53.75   0.23207  -100.77
       1800   0.57606   156.95    3.6092    61.88  0.093807    53.78   0.23198  -101.38
       1850    0.5755   155.30    3.5063    60.68  0.095758    53.61   0.23472  -102.34
       1900    0.5771   154.15    3.4114    59.66  0.097664    53.56   0.23582  -103.49
       1950    0.5773   153.38    3.3309    58.68  0.099831    53.57   0.23542  -104.04
       2000   0.57742   151.96    3.2403    57.61   0.10163    53.51   0.23735  -105.02

!  
! Device Noise Parameters
!  Freq-MHz   Fmin-dB  Gopt-mag  Gopt-arg   Rn-Ohm_normalized
        400    0.9069   0.20770  -178.30    0.0761
        420    0.8591   0.23015  -179.33    0.0698
        433    0.8499   0.22435   179.81    0.0718
        440    0.8525   0.22767  -179.15    0.0679
        460    0.8750   0.23907  -179.02    0.0658
        480    0.8636   0.22738  -177.95    0.0682
        500    0.9017   0.23326  -179.08    0.0681
        550    0.9215   0.22188  -179.96    0.0723
        600    0.8820   0.24634  -178.71    0.0655
        650    0.9025   0.25131  -176.80    0.0658
        700    0.9161   0.26152  -176.08    0.0638
        750    0.8996   0.26651  -174.60    0.0634
        800    0.9275   0.27407  -174.19    0.0622
        850    0.9269   0.27398  -175.23    0.0629
        900    0.9458   0.27796  -175.31    0.0616
        950    0.9353   0.28596  -173.05    0.0610
       1000    0.9648   0.28951  -172.53    0.0607
       1050    0.9583   0.29272  -172.61    0.0611
       1100    0.9649   0.29788  -171.82    0.0606
       1150    0.9873   0.31344  -172.47    0.0576
       1200    0.9932   0.30443  -169.60    0.0612
       1250    0.9904   0.31269  -169.03    0.0617
       1300    1.0247   0.31594  -168.97    0.0610
       1350    1.0135   0.32511  -168.49    0.0599
       1400    1.0245   0.32824  -167.54    0.0555
       1450    1.0711   0.33901  -164.95    0.0606
       1500    1.0335   0.31926  -166.61    0.0685
       1550    1.0486   0.33747  -164.11    0.0629
       1600    1.0616   0.34188  -164.20    0.0623
       1650    1.0605   0.35145  -163.02    0.0614
       1700    1.0619   0.35465  -164.17    0.0623
       1750    1.0947   0.34819  -162.65    0.0648
       1800    1.0789   0.36333  -163.95    0.0595
       1850    1.0317   0.35744  -161.70    0.0671
       1900    1.0986   0.36097  -155.72    0.0703
       1950    1.1265   0.37443  -160.39    0.0644
       2000    1.1177   0.37307  -157.01    0.0704

