! Infineon Technologies  Discrete & RF Semiconductors
! BFP460
! VCE =  2.5 V,  IC =  16 mA
! Common Emitter S-Parameters:                            Jan 2016
# GHz  S  MA  R  50
!  f         S11            S21            S12            S22
! GHz     MAG   ANG      MAG   ANG      MAG   ANG      MAG   ANG
 0.030  0.6636  -12.4  39.643  172.4  0.0053   84.1  0.9598   -8.0
 0.035  0.6624  -14.4  39.482  171.1  0.0061   83.4  0.9571   -9.3
 0.040  0.6620  -16.4  39.342  169.7  0.0070   82.8  0.9549  -10.7
 0.045  0.6588  -18.4  39.091  168.2  0.0079   81.9  0.9515  -12.0
 0.050  0.6564  -20.5  38.867  166.7  0.0088   81.2  0.9485  -13.3
 0.055  0.6548  -22.5  38.693  165.7  0.0096   79.8  0.9442  -14.6
 0.060  0.6540  -24.6  38.531  164.6  0.0104   78.6  0.9404  -15.9
 0.065  0.6521  -26.7  38.422  163.3  0.0111   78.1  0.9357  -17.2
 0.070  0.6512  -28.9  38.332  162.0  0.0119   77.6  0.9314  -18.5
 0.075  0.6497  -30.8  38.067  161.0  0.0127   76.9  0.9258  -19.8
 0.080  0.6490  -32.7  37.813  160.0  0.0135   76.3  0.9207  -21.1
 0.085  0.6459  -34.7  37.546  158.9  0.0143   75.2  0.9143  -22.3
 0.090  0.6437  -36.8  37.294  157.7  0.0151   74.3  0.9084  -23.5
 0.095  0.6414  -38.3  36.929  156.7  0.0158   73.5  0.9021  -24.7
 0.100  0.6395  -39.9  36.577  155.6  0.0165   72.8  0.8961  -25.9
 0.105  0.6376  -41.8  36.337  154.5  0.0172   72.0  0.8891  -27.1
 0.110  0.6365  -43.8  36.111  153.4  0.0179   71.3  0.8825  -28.3
 0.115  0.6320  -45.7  35.810  152.3  0.0185   70.5  0.8754  -29.4
 0.120  0.6283  -47.7  35.523  151.2  0.0192   69.7  0.8686  -30.6
 0.125  0.6251  -49.3  35.206  150.3  0.0198   69.1  0.8611  -31.7
 0.130  0.6223  -50.9  34.898  149.3  0.0205   68.5  0.8539  -32.8
 0.135  0.6187  -52.7  34.603  148.3  0.0211   67.8  0.8464  -33.9
 0.140  0.6157  -54.5  34.319  147.3  0.0217   67.2  0.8392  -35.0
 0.145  0.6124  -56.2  33.947  146.3  0.0223   66.6  0.8315  -36.0
 0.150  0.6097  -57.9  33.586  145.3  0.0229   66.1  0.8241  -37.0
 0.155  0.6052  -59.3  33.241  144.5  0.0234   65.5  0.8156  -37.9
 0.160  0.6011  -60.8  32.902  143.8  0.0239   64.9  0.8073  -38.8
 0.165  0.5974  -62.3  32.569  143.0  0.0244   64.4  0.7993  -39.7
 0.170  0.5940  -63.8  32.243  142.1  0.0249   63.8  0.7914  -40.6
 0.175  0.5911  -65.3  31.924  141.3  0.0254   63.3  0.7837  -41.5
 0.180  0.5886  -66.8  31.611  140.5  0.0259   62.8  0.7762  -42.5
 0.185  0.5866  -68.3  31.305  139.6  0.0264   62.3  0.7690  -43.5
 0.190  0.5849  -69.9  31.007  138.7  0.0269   61.9  0.7620  -44.5
 0.195  0.5837  -71.4  30.716  137.8  0.0274   61.4  0.7552  -45.5
 0.200  0.5829  -73.0  30.433  136.9  0.0279   61.0  0.7487  -46.5
 0.220  0.5699  -78.1  29.163  134.2  0.0295   59.3  0.7188  -49.5
 0.240  0.5617  -83.5  27.962  131.3  0.0311   57.8  0.6909  -52.7
 0.260  0.5536  -88.3  26.832  128.7  0.0325   56.5  0.6646  -55.6
 0.280  0.5444  -92.6  25.744  126.5  0.0338   55.5  0.6389  -58.3
 0.300  0.5383  -97.1  24.701  124.0  0.0351   54.5  0.6146  -61.1
 0.320  0.5303 -100.9  23.734  122.2  0.0362   53.7  0.5922  -63.3
 0.340  0.5247 -104.7  22.794  120.2  0.0373   53.0  0.5706  -65.6
 0.360  0.5192 -108.3  21.922  118.3  0.0383   52.3  0.5506  -67.7
 0.380  0.5134 -111.6  21.107  116.7  0.0392   51.8  0.5320  -69.7
 0.400  0.5092 -114.9  20.311  115.0  0.0402   51.3  0.5140  -71.8
 0.420  0.5043 -117.7  19.602  113.6  0.0410   51.0  0.4978  -73.5
 0.440  0.5007 -120.6  18.906  112.2  0.0419   50.7  0.4821  -75.3
 0.450  0.4994 -122.1  18.562  111.4  0.0423   50.5  0.4744  -76.2
 0.460  0.4972 -123.3  18.260  110.8  0.0427   50.4  0.4675  -76.9
 0.480  0.4934 -125.9  17.661  109.7  0.0435   50.3  0.4539  -78.5
 0.500  0.4906 -128.4  17.071  108.4  0.0443   50.1  0.4407  -80.1
 0.520  0.4872 -130.5  16.576  107.5  0.0451   50.0  0.4295  -81.3
 0.540  0.4845 -132.5  16.086  106.5  0.0458   49.9  0.4186  -82.6
 0.560  0.4824 -134.6  15.601  105.4  0.0466   49.9  0.4078  -84.0
 0.580  0.4810 -136.8  15.121  104.3  0.0473   49.8  0.3973  -85.4
 0.600  0.4802 -138.9  14.648  103.1  0.0481   49.7  0.3871  -86.9
 0.620  0.4780 -140.6  14.271  102.3  0.0488   49.7  0.3788  -88.0
 0.640  0.4762 -142.3  13.898  101.5  0.0496   49.8  0.3706  -89.1
 0.660  0.4748 -144.0  13.527  100.7  0.0503   49.8  0.3626  -90.2
 0.680  0.4738 -145.7  13.159   99.8  0.0511   49.9  0.3547  -91.4
 0.700  0.4733 -147.4  12.795   98.8  0.0518   49.9  0.3470  -92.7
 0.720  0.4720 -148.8  12.500   98.1  0.0525   50.0  0.3407  -93.6
 0.740  0.4711 -150.2  12.207   97.5  0.0533   50.0  0.3345  -94.6
 0.760  0.4704 -151.6  11.916   96.7  0.0540   50.1  0.3284  -95.6
 0.780  0.4700 -153.1  11.627   96.0  0.0548   50.1  0.3224  -96.6
 0.800  0.4699 -154.5  11.340   95.2  0.0555   50.2  0.3165  -97.7
 0.820  0.4691 -155.7  11.107   94.6  0.0562   50.3  0.3117  -98.5
 0.840  0.4685 -156.9  10.875   94.0  0.0570   50.4  0.3069  -99.4
 0.860  0.4681 -158.1  10.645   93.4  0.0577   50.4  0.3022 -100.3
 0.880  0.4679 -159.3  10.416   92.8  0.0585   50.5  0.2975 -101.2
 0.900  0.4679 -160.5  10.188   92.1  0.0592   50.6  0.2930 -102.2
 0.920  0.4672 -161.6   9.996   91.6  0.0599   50.7  0.2892 -103.0
 0.940  0.4667 -162.7   9.805   91.0  0.0607   50.8  0.2854 -103.7
 0.960  0.4664 -163.7   9.616   90.4  0.0614   50.8  0.2817 -104.5
 0.980  0.4662 -164.8   9.427   89.8  0.0622   50.9  0.2780 -105.4
 1.000  0.4662 -165.9   9.239   89.2  0.0629   51.0  0.2744 -106.2
 1.020  0.4659 -166.8   9.079   88.7  0.0637   51.1  0.2714 -106.9
 1.040  0.4657 -167.8   8.919   88.2  0.0645   51.1  0.2684 -107.7
 1.060  0.4656 -168.7   8.760   87.7  0.0652   51.2  0.2655 -108.4
 1.080  0.4657 -169.7   8.602   87.2  0.0660   51.2  0.2626 -109.2
 1.100  0.4659 -170.6   8.444   86.6  0.0668   51.3  0.2598 -110.0
 1.120  0.4658 -171.5   8.309   86.2  0.0676   51.4  0.2573 -110.7
 1.140  0.4657 -172.3   8.175   85.7  0.0684   51.4  0.2549 -111.3
 1.160  0.4658 -173.2   8.041   85.2  0.0691   51.5  0.2526 -112.0
 1.180  0.4660 -174.0   7.908   84.7  0.0699   51.5  0.2502 -112.7
 1.200  0.4663 -174.9   7.776   84.2  0.0707   51.6  0.2479 -113.4
 1.220  0.4664 -175.7   7.660   83.8  0.0715   51.6  0.2460 -114.0
 1.240  0.4665 -176.4   7.545   83.3  0.0723   51.6  0.2442 -114.6
 1.260  0.4667 -177.2   7.430   82.9  0.0730   51.7  0.2424 -115.2
 1.280  0.4670 -177.9   7.316   82.4  0.0738   51.7  0.2406 -115.9
 1.300  0.4674 -178.7   7.202   81.9  0.0746   51.7  0.2388 -116.5
 1.320  0.4675 -179.4   7.102   81.5  0.0754   51.7  0.2371 -117.1
 1.340  0.4677  179.8   7.003   81.1  0.0762   51.7  0.2354 -117.7
 1.360  0.4680  179.1   6.904   80.6  0.0770   51.8  0.2338 -118.3
 1.380  0.4684  178.3   6.806   80.2  0.0778   51.8  0.2322 -119.0
 1.400  0.4688  177.6   6.708   79.7  0.0786   51.8  0.2306 -119.6
 1.420  0.4690  176.9   6.622   79.3  0.0794   51.8  0.2294 -120.1
 1.440  0.4692  176.2   6.536   78.9  0.0802   51.8  0.2281 -120.7
 1.460  0.4695  175.5   6.450   78.5  0.0811   51.8  0.2269 -121.3
 1.480  0.4699  174.8   6.365   78.0  0.0819   51.8  0.2258 -121.8
 1.500  0.4703  174.1   6.280   77.6  0.0827   51.8  0.2246 -122.4
 1.520  0.4707  173.4   6.203   77.2  0.0835   51.8  0.2235 -122.9
 1.540  0.4712  172.8   6.127   76.9  0.0843   51.8  0.2224 -123.5
 1.560  0.4717  172.1   6.051   76.5  0.0850   51.7  0.2214 -124.0
 1.580  0.4723  171.5   5.975   76.1  0.0858   51.7  0.2203 -124.5
 1.600  0.4730  170.8   5.900   75.7  0.0866   51.7  0.2193 -125.1
 1.620  0.4733  170.2   5.833   75.3  0.0874   51.7  0.2184 -125.6
 1.640  0.4737  169.7   5.766   74.9  0.0882   51.7  0.2176 -126.1
 1.660  0.4741  169.1   5.700   74.5  0.0891   51.6  0.2167 -126.6
 1.680  0.4746  168.6   5.634   74.1  0.0899   51.6  0.2159 -127.2
 1.700  0.4751  168.0   5.568   73.7  0.0907   51.6  0.2151 -127.7
 1.720  0.4754  167.4   5.508   73.3  0.0915   51.5  0.2144 -128.2
 1.740  0.4758  166.8   5.447   73.0  0.0924   51.5  0.2137 -128.7
 1.760  0.4762  166.3   5.387   72.6  0.0932   51.4  0.2131 -129.2
 1.780  0.4766  165.7   5.328   72.2  0.0941   51.4  0.2124 -129.7
 1.800  0.4771  165.1   5.268   71.8  0.0949   51.3  0.2118 -130.2
 1.820  0.4776  164.5   5.215   71.4  0.0957   51.2  0.2112 -130.7
 1.840  0.4782  164.0   5.161   71.1  0.0965   51.2  0.2106 -131.2
 1.860  0.4788  163.4   5.108   70.7  0.0973   51.1  0.2101 -131.7
 1.880  0.4795  162.9   5.056   70.3  0.0981   51.1  0.2095 -132.2
 1.900  0.4802  162.3   5.003   69.9  0.0989   51.0  0.2090 -132.7
 1.920  0.4806  161.7   4.954   69.6  0.0997   50.9  0.2085 -133.2
 1.940  0.4811  161.2   4.906   69.2  0.1005   50.9  0.2081 -133.7
 1.960  0.4816  160.6   4.857   68.8  0.1013   50.8  0.2076 -134.2
 1.980  0.4822  160.1   4.809   68.5  0.1021   50.8  0.2072 -134.7
 2.000  0.4828  159.5   4.761   68.1  0.1029   50.7  0.2068 -135.2
 2.020  0.4835  159.0   4.718   67.8  0.1037   50.6  0.2065 -135.7
 2.040  0.4842  158.5   4.674   67.4  0.1045   50.5  0.2062 -136.2
 2.060  0.4849  158.0   4.631   67.1  0.1054   50.4  0.2059 -136.7
 2.080  0.4857  157.4   4.588   66.7  0.1062   50.3  0.2057 -137.1
 2.100  0.4865  156.9   4.546   66.4  0.1070   50.2  0.2054 -137.6
 2.120  0.4874  156.4   4.503   66.0  0.1078   50.1  0.2052 -138.1
 2.140  0.4883  155.9   4.461   65.7  0.1086   50.0  0.2050 -138.6
 2.160  0.4892  155.4   4.419   65.3  0.1095   49.9  0.2048 -139.1
 2.180  0.4902  154.9   4.377   64.9  0.1103   49.8  0.2046 -139.6
 2.200  0.4912  154.4   4.335   64.5  0.1111   49.7  0.2044 -140.1
 2.220  0.4919  153.9   4.299   64.2  0.1119   49.6  0.2043 -140.6
 2.240  0.4927  153.4   4.263   63.8  0.1127   49.5  0.2042 -141.1
 2.260  0.4935  153.0   4.228   63.5  0.1135   49.4  0.2041 -141.6
 2.280  0.4943  152.5   4.192   63.2  0.1143   49.3  0.2040 -142.1
 2.300  0.4952  152.0   4.157   62.8  0.1151   49.2  0.2040 -142.6
 2.320  0.4961  151.6   4.121   62.5  0.1160   49.1  0.2040 -143.2
 2.340  0.4970  151.1   4.086   62.1  0.1168   49.0  0.2040 -143.7
 2.360  0.4980  150.6   4.051   61.7  0.1176   48.9  0.2040 -144.2
 2.380  0.4990  150.2   4.017   61.4  0.1184   48.8  0.2040 -144.7
 2.400  0.5000  149.7   3.982   61.0  0.1192   48.7  0.2040 -145.2
 2.420  0.5008  149.2   3.951   60.7  0.1200   48.6  0.2041 -145.7
 2.440  0.5017  148.8   3.920   60.4  0.1208   48.4  0.2043 -146.2
 2.460  0.5026  148.3   3.889   60.0  0.1215   48.3  0.2045 -146.7
 2.480  0.5035  147.9   3.858   59.7  0.1223   48.2  0.2047 -147.2
 2.500  0.5045  147.4   3.828   59.4  0.1231   48.1  0.2049 -147.7
 2.520  0.5055  147.0   3.797   59.0  0.1239   48.0  0.2051 -148.2
 2.540  0.5065  146.5   3.767   58.7  0.1247   47.8  0.2053 -148.7
 2.560  0.5076  146.1   3.737   58.3  0.1254   47.7  0.2056 -149.2
 2.580  0.5087  145.6   3.707   58.0  0.1262   47.6  0.2058 -149.7
 2.600  0.5098  145.2   3.677   57.6  0.1270   47.5  0.2061 -150.2
 2.620  0.5106  144.8   3.650   57.3  0.1278   47.4  0.2065 -150.7
 2.640  0.5113  144.4   3.623   57.0  0.1285   47.2  0.2068 -151.2
 2.660  0.5122  144.0   3.597   56.7  0.1293   47.1  0.2072 -151.7
 2.680  0.5130  143.5   3.570   56.4  0.1301   47.0  0.2076 -152.1
 2.700  0.5139  143.1   3.544   56.1  0.1308   46.8  0.2080 -152.6
 2.720  0.5148  142.7   3.517   55.7  0.1316   46.7  0.2084 -153.1
 2.740  0.5157  142.3   3.491   55.4  0.1324   46.6  0.2089 -153.6
 2.760  0.5166  141.9   3.465   55.1  0.1332   46.4  0.2093 -154.1
 2.780  0.5176  141.5   3.439   54.7  0.1339   46.3  0.2098 -154.5
 2.800  0.5186  141.1   3.413   54.4  0.1347   46.2  0.2103 -155.0
 2.820  0.5195  140.7   3.389   54.1  0.1355   46.1  0.2108 -155.4
 2.840  0.5205  140.3   3.366   53.8  0.1362   45.9  0.2113 -155.9
 2.860  0.5215  139.9   3.343   53.5  0.1370   45.8  0.2118 -156.3
 2.880  0.5225  139.6   3.319   53.2  0.1377   45.7  0.2123 -156.8
 2.900  0.5236  139.2   3.296   52.9  0.1385   45.5  0.2128 -157.2
 2.920  0.5246  138.8   3.273   52.5  0.1393   45.4  0.2134 -157.7
 2.940  0.5257  138.4   3.250   52.2  0.1400   45.3  0.2139 -158.1
 2.960  0.5268  138.0   3.227   51.9  0.1408   45.1  0.2145 -158.5
 2.980  0.5279  137.7   3.205   51.5  0.1415   45.0  0.2151 -159.0
 3.000  0.5291  137.3   3.182   51.2  0.1423   44.9  0.2157 -159.4
 3.100  0.5332  135.4   3.085   49.8  0.1458   44.1  0.2185 -161.5
 3.200  0.5378  133.6   2.990   48.4  0.1494   43.3  0.2217 -163.5
 3.300  0.5430  131.7   2.897   46.9  0.1530   42.6  0.2251 -165.5
 3.400  0.5487  129.9   2.806   45.2  0.1566   41.9  0.2287 -167.4
 3.500  0.5550  128.2   2.718   43.5  0.1602   41.2  0.2326 -169.2
 3.600  0.5602  126.6   2.644   42.2  0.1634   40.4  0.2363 -171.3
 3.700  0.5659  124.9   2.571   40.9  0.1666   39.6  0.2403 -173.3
 3.800  0.5721  123.4   2.500   39.5  0.1699   38.9  0.2446 -175.2
 3.900  0.5786  121.8   2.430   38.0  0.1732   38.2  0.2492 -177.1
 4.000  0.5856  120.3   2.362   36.4  0.1765   37.5  0.2540 -178.9
 4.100  0.5910  118.9   2.303   35.2  0.1794   36.8  0.2592  179.2
 4.200  0.5967  117.6   2.246   33.9  0.1823   36.0  0.2646  177.4
 4.300  0.6028  116.3   2.190   32.6  0.1852   35.3  0.2703  175.7
 4.400  0.6092  115.0   2.135   31.2  0.1881   34.7  0.2762  174.1
 4.500  0.6158  113.8   2.081   29.7  0.1911   34.0  0.2823  172.5
 4.600  0.6199  112.6   2.035   28.6  0.1939   33.4  0.2867  171.2
 4.700  0.6242  111.4   1.990   27.4  0.1968   32.7  0.2912  169.9
 4.800  0.6288  110.3   1.946   26.2  0.1997   32.1  0.2959  168.7
 4.900  0.6337  109.1   1.902   24.9  0.2026   31.6  0.3007  167.5
 5.000  0.6388  108.0   1.860   23.6  0.2055   31.0  0.3056  166.4
 5.100  0.6416  107.0   1.825   22.6  0.2086   30.3  0.3086  165.4
 5.200  0.6446  106.0   1.790   21.5  0.2117   29.6  0.3116  164.5
 5.300  0.6479  105.0   1.757   20.4  0.2149   29.0  0.3147  163.6
 5.400  0.6513  104.0   1.723   19.2  0.2181   28.3  0.3179  162.7
 5.500  0.6549  103.0   1.691   18.0  0.2213   27.7  0.3212  161.8
 5.600  0.6571  102.2   1.663   17.0  0.2242   26.9  0.3248  160.9
 5.700  0.6594  101.4   1.636   15.9  0.2271   26.2  0.3284  160.1
 5.800  0.6618  100.6   1.609   14.8  0.2300   25.4  0.3321  159.2
 5.900  0.6643   99.8   1.583   13.6  0.2330   24.7  0.3359  158.4
 6.000  0.6670   99.0   1.557   12.4  0.2360   24.0  0.3397  157.6
 6.100  0.6676   98.2   1.533   11.4  0.2385   23.3  0.3422  157.1
 6.200  0.6683   97.4   1.509   10.4  0.2411   22.6  0.3448  156.5
 6.300  0.6691   96.5   1.486    9.3  0.2437   21.9  0.3474  156.0
 6.400  0.6701   95.7   1.464    8.2  0.2463   21.2  0.3500  155.5
 6.500  0.6712   94.9   1.442    7.1  0.2490   20.5  0.3527  155.0
 6.600  0.6707   94.0   1.424    6.1  0.2519   19.9  0.3524  154.6
 6.800  0.6701   92.1   1.388    4.1  0.2579   18.6  0.3520  153.8
 7.000  0.6702   90.3   1.354    2.0  0.2640   17.4  0.3516  153.0
 7.200  0.6719   88.0   1.326   -0.1  0.2704   15.8  0.3513  151.5
 7.400  0.6746   85.8   1.299   -2.3  0.2771   14.2  0.3512  150.0
 7.600  0.6787   83.4   1.273   -4.6  0.2834   12.6  0.3530  148.1
 7.800  0.6843   80.9   1.247   -7.0  0.2894   10.7  0.3568  145.8
 8.000  0.6912   78.4   1.223   -9.6  0.2957    9.0  0.3611  143.6
 8.200  0.6969   75.8   1.191  -12.0  0.2998    6.9  0.3655  140.7
 8.400  0.7041   73.2   1.161  -14.5  0.3044    4.8  0.3707  137.9
 8.600  0.7134   70.7   1.131  -16.9  0.3073    2.8  0.3773  134.4
 8.800  0.7249   68.3   1.099  -19.2  0.3085    0.7  0.3859  130.4
 9.000  0.7375   66.0   1.069  -21.6  0.3102   -1.3  0.3963  126.5
 9.200  0.7535   64.1   1.034  -23.5  0.3091   -2.9  0.4127  121.9
 9.400  0.7703   62.4   1.000  -25.5  0.3083   -4.4  0.4315  117.7
 9.600  0.7850   60.7   0.966  -27.2  0.3074   -5.7  0.4510  114.0
 9.800  0.7976   59.1   0.934  -28.7  0.3061   -6.7  0.4707  110.8
10.000  0.8108   57.6   0.902  -30.3  0.3050   -7.7  0.4918  107.8
!
!  f       NFmin   Gammaopt  rn/50
! GHz       dB    MAG  ANG    -
 0.450      1.15  0.02 -171   0.12
 0.900      1.13  0.05   97   0.15
 1.900      1.29  0.14 -157   0.12
 3.500      1.26  0.38 -127   0.14
!
! (c) 2016  Infineon Technologies AG, Munich
