! Infineon Technologies  Discrete & RF Semiconductors
! BFP460
! VCE =  1.5 V,  IC =  10 mA
! Common Emitter S-Parameters:                            Jan 2016
# GHz  S  MA  R  50
!  f         S11            S21            S12            S22
! GHz     MAG   ANG      MAG   ANG      MAG   ANG      MAG   ANG
 0.030  0.7600   -9.7  28.666  174.2  0.0061   85.1  0.9669   -6.6
 0.035  0.7577  -11.2  28.602  173.1  0.0071   84.2  0.9650   -7.7
 0.040  0.7560  -12.8  28.549  171.9  0.0081   83.5  0.9635   -8.8
 0.045  0.7539  -14.3  28.424  170.6  0.0091   82.6  0.9614   -9.9
 0.050  0.7523  -15.9  28.313  169.3  0.0101   81.9  0.9596  -11.0
 0.055  0.7505  -17.6  28.234  168.4  0.0111   81.2  0.9569  -12.1
 0.060  0.7494  -19.3  28.161  167.5  0.0122   80.7  0.9546  -13.2
 0.065  0.7479  -20.9  28.160  166.4  0.0131   79.9  0.9514  -14.3
 0.070  0.7471  -22.6  28.169  165.3  0.0141   79.2  0.9485  -15.4
 0.075  0.7465  -24.1  28.032  164.6  0.0150   78.6  0.9449  -16.4
 0.080  0.7464  -25.6  27.900  163.8  0.0160   78.1  0.9416  -17.5
 0.085  0.7434  -27.1  27.774  162.8  0.0169   77.2  0.9372  -18.5
 0.090  0.7409  -28.7  27.656  161.8  0.0178   76.3  0.9332  -19.6
 0.095  0.7386  -30.1  27.456  160.9  0.0186   75.8  0.9290  -20.6
 0.100  0.7367  -31.6  27.263  160.0  0.0195   75.3  0.9251  -21.7
 0.105  0.7351  -33.1  27.154  159.1  0.0204   74.4  0.9202  -22.7
 0.110  0.7341  -34.7  27.051  158.2  0.0213   73.6  0.9156  -23.7
 0.115  0.7304  -36.2  26.911  157.3  0.0221   73.0  0.9107  -24.7
 0.120  0.7272  -37.7  26.779  156.3  0.0230   72.4  0.9060  -25.7
 0.125  0.7241  -39.0  26.608  155.5  0.0238   71.6  0.9005  -26.6
 0.130  0.7215  -40.4  26.443  154.6  0.0246   70.9  0.8953  -27.6
 0.135  0.7177  -41.8  26.301  153.7  0.0254   70.3  0.8900  -28.6
 0.140  0.7143  -43.3  26.165  152.8  0.0263   69.7  0.8849  -29.6
 0.145  0.7120  -44.7  25.951  151.9  0.0270   69.0  0.8792  -30.5
 0.150  0.7102  -46.1  25.744  151.0  0.0277   68.3  0.8737  -31.5
 0.155  0.7055  -47.4  25.549  150.3  0.0284   67.6  0.8670  -32.3
 0.160  0.7012  -48.7  25.358  149.5  0.0291   67.0  0.8604  -33.1
 0.165  0.6973  -50.0  25.172  148.8  0.0297   66.4  0.8541  -34.0
 0.170  0.6937  -51.3  24.990  148.0  0.0304   65.8  0.8479  -34.8
 0.175  0.6905  -52.6  24.812  147.2  0.0311   65.3  0.8419  -35.7
 0.180  0.6876  -53.9  24.639  146.5  0.0318   64.8  0.8361  -36.6
 0.185  0.6852  -55.3  24.471  145.7  0.0325   64.3  0.8305  -37.5
 0.190  0.6831  -56.7  24.307  144.8  0.0332   63.8  0.8252  -38.4
 0.195  0.6814  -58.0  24.149  144.0  0.0339   63.3  0.8200  -39.3
 0.200  0.6801  -59.4  23.995  143.2  0.0346   62.9  0.8150  -40.2
 0.220  0.6656  -64.0  23.221  140.6  0.0368   61.0  0.7897  -43.1
 0.240  0.6557  -68.8  22.498  137.8  0.0391   59.3  0.7666  -46.3
 0.260  0.6457  -73.3  21.786  135.3  0.0411   57.7  0.7437  -49.2
 0.280  0.6346  -77.4  21.071  133.0  0.0429   56.2  0.7204  -51.9
 0.300  0.6269  -81.7  20.392  130.5  0.0448   54.9  0.6987  -54.7
 0.320  0.6154  -85.4  19.720  128.5  0.0463   53.7  0.6772  -57.0
 0.340  0.6065  -89.2  19.072  126.4  0.0478   52.6  0.6568  -59.3
 0.360  0.5981  -92.7  18.458  124.5  0.0491   51.6  0.6374  -61.6
 0.380  0.5894  -96.0  17.867  122.7  0.0504   50.7  0.6186  -63.7
 0.400  0.5828  -99.4  17.294  120.9  0.0517   49.8  0.6007  -65.9
 0.420  0.5750 -102.4  16.759  119.4  0.0528   49.1  0.5838  -67.7
 0.440  0.5688 -105.4  16.236  117.8  0.0539   48.4  0.5676  -69.6
 0.450  0.5663 -107.0  15.979  117.0  0.0544   48.1  0.5597  -70.6
 0.460  0.5631 -108.3  15.744  116.4  0.0549   47.8  0.5523  -71.4
 0.480  0.5574 -110.9  15.279  115.0  0.0558   47.3  0.5377  -73.1
 0.500  0.5530 -113.6  14.823  113.6  0.0568   46.8  0.5237  -74.8
 0.520  0.5470 -115.8  14.424  112.5  0.0576   46.4  0.5112  -76.1
 0.540  0.5418 -118.1  14.031  111.4  0.0584   46.0  0.4990  -77.5
 0.560  0.5375 -120.5  13.644  110.2  0.0593   45.7  0.4871  -79.0
 0.580  0.5342 -122.8  13.262  108.9  0.0601   45.3  0.4755  -80.6
 0.600  0.5317 -125.2  12.888  107.6  0.0609   45.0  0.4643  -82.2
 0.620  0.5275 -127.1  12.574  106.7  0.0616   44.8  0.4547  -83.4
 0.640  0.5239 -129.0  12.263  105.8  0.0624   44.5  0.4452  -84.6
 0.660  0.5208 -130.9  11.955  104.9  0.0631   44.3  0.4360  -85.8
 0.680  0.5184 -132.8  11.651  103.9  0.0639   44.1  0.4270  -87.1
 0.700  0.5165 -134.8  11.350  102.8  0.0646   43.9  0.4182  -88.5
 0.720  0.5138 -136.4  11.100  102.1  0.0653   43.8  0.4107  -89.5
 0.740  0.5115 -138.0  10.852  101.3  0.0660   43.7  0.4034  -90.6
 0.760  0.5096 -139.6  10.605  100.5  0.0666   43.6  0.3962  -91.7
 0.780  0.5081 -141.3  10.361   99.6  0.0673   43.5  0.3891  -92.8
 0.800  0.5070 -142.9  10.120   98.7  0.0680   43.4  0.3822  -94.0
 0.820  0.5052 -144.3   9.920   98.1  0.0687   43.4  0.3763  -94.9
 0.840  0.5037 -145.7   9.721   97.4  0.0694   43.4  0.3705  -95.9
 0.860  0.5024 -147.1   9.523   96.7  0.0700   43.3  0.3648  -96.8
 0.880  0.5015 -148.5   9.327   96.0  0.0707   43.3  0.3592  -97.9
 0.900  0.5009 -149.9   9.133   95.2  0.0714   43.3  0.3537  -98.9
 0.920  0.4994 -151.1   8.966   94.6  0.0721   43.3  0.3490  -99.7
 0.940  0.4981 -152.3   8.799   94.0  0.0727   43.3  0.3443 -100.6
 0.960  0.4970 -153.5   8.634   93.4  0.0734   43.3  0.3398 -101.5
 0.980  0.4962 -154.8   8.470   92.7  0.0740   43.3  0.3353 -102.4
 1.000  0.4956 -156.0   8.307   92.0  0.0747   43.3  0.3309 -103.3
 1.020  0.4949 -157.1   8.166   91.5  0.0754   43.3  0.3272 -104.1
 1.040  0.4943 -158.2   8.026   90.9  0.0760   43.3  0.3235 -104.9
 1.060  0.4939 -159.3   7.887   90.3  0.0767   43.3  0.3198 -105.7
 1.080  0.4937 -160.4   7.749   89.7  0.0773   43.3  0.3163 -106.5
 1.100  0.4937 -161.5   7.611   89.1  0.0780   43.3  0.3128 -107.4
 1.120  0.4931 -162.5   7.492   88.6  0.0787   43.3  0.3097 -108.1
 1.140  0.4925 -163.5   7.374   88.1  0.0794   43.3  0.3066 -108.8
 1.160  0.4922 -164.4   7.257   87.5  0.0800   43.4  0.3036 -109.6
 1.180  0.4920 -165.4   7.140   87.0  0.0807   43.4  0.3006 -110.3
 1.200  0.4919 -166.4   7.024   86.4  0.0814   43.4  0.2977 -111.1
 1.220  0.4916 -167.3   6.921   85.9  0.0821   43.4  0.2952 -111.8
 1.240  0.4915 -168.2   6.819   85.4  0.0828   43.4  0.2928 -112.5
 1.260  0.4914 -169.1   6.718   84.9  0.0834   43.5  0.2904 -113.2
 1.280  0.4915 -170.0   6.616   84.4  0.0841   43.5  0.2880 -113.9
 1.300  0.4917 -170.9   6.516   83.8  0.0848   43.5  0.2857 -114.6
 1.320  0.4915 -171.7   6.427   83.4  0.0855   43.5  0.2835 -115.2
 1.340  0.4914 -172.5   6.339   82.9  0.0862   43.5  0.2813 -115.9
 1.360  0.4915 -173.4   6.251   82.5  0.0868   43.6  0.2792 -116.6
 1.380  0.4916 -174.2   6.164   82.0  0.0875   43.6  0.2771 -117.2
 1.400  0.4918 -175.0   6.077   81.5  0.0882   43.6  0.2751 -117.9
 1.420  0.4918 -175.8   6.000   81.1  0.0889   43.6  0.2734 -118.5
 1.440  0.4920 -176.6   5.923   80.6  0.0896   43.6  0.2718 -119.1
 1.460  0.4922 -177.3   5.847   80.2  0.0904   43.7  0.2702 -119.7
 1.480  0.4925 -178.1   5.771   79.7  0.0911   43.7  0.2686 -120.3
 1.500  0.4929 -178.9   5.696   79.2  0.0918   43.7  0.2670 -120.9
 1.520  0.4929 -179.7   5.627   78.8  0.0925   43.7  0.2655 -121.5
 1.540  0.4931  179.6   5.559   78.4  0.0932   43.7  0.2640 -122.1
 1.560  0.4933  178.8   5.491   77.9  0.0939   43.7  0.2625 -122.7
 1.580  0.4936  178.1   5.423   77.5  0.0946   43.7  0.2610 -123.3
 1.600  0.4940  177.3   5.356   77.0  0.0953   43.7  0.2596 -123.9
 1.620  0.4940  176.7   5.296   76.6  0.0960   43.7  0.2584 -124.4
 1.640  0.4941  176.0   5.237   76.2  0.0967   43.7  0.2572 -125.0
 1.660  0.4943  175.4   5.178   75.8  0.0975   43.6  0.2561 -125.5
 1.680  0.4945  174.7   5.119   75.3  0.0982   43.6  0.2549 -126.1
 1.700  0.4948  174.1   5.061   74.9  0.0989   43.6  0.2538 -126.6
 1.720  0.4952  173.4   5.006   74.5  0.0996   43.6  0.2528 -127.1
 1.740  0.4956  172.8   4.952   74.1  0.1003   43.6  0.2518 -127.7
 1.760  0.4962  172.1   4.898   73.7  0.1011   43.5  0.2509 -128.2
 1.780  0.4967  171.5   4.844   73.2  0.1018   43.5  0.2499 -128.8
 1.800  0.4974  170.8   4.790   72.8  0.1025   43.5  0.2490 -129.3
 1.820  0.4978  170.2   4.742   72.4  0.1032   43.5  0.2481 -129.8
 1.840  0.4983  169.5   4.695   72.1  0.1040   43.5  0.2473 -130.4
 1.860  0.4988  168.9   4.647   71.7  0.1047   43.4  0.2464 -130.9
 1.880  0.4994  168.2   4.600   71.3  0.1055   43.4  0.2456 -131.5
 1.900  0.5000  167.6   4.553   70.9  0.1062   43.4  0.2448 -132.0
 1.920  0.5005  167.0   4.509   70.5  0.1069   43.4  0.2441 -132.5
 1.940  0.5010  166.4   4.465   70.1  0.1076   43.3  0.2434 -133.0
 1.960  0.5016  165.8   4.421   69.7  0.1084   43.3  0.2428 -133.6
 1.980  0.5022  165.2   4.378   69.2  0.1091   43.2  0.2421 -134.1
 2.000  0.5029  164.6   4.335   68.8  0.1098   43.2  0.2415 -134.6
 2.020  0.5034  164.0   4.296   68.5  0.1105   43.1  0.2409 -135.1
 2.040  0.5039  163.5   4.257   68.1  0.1113   43.1  0.2404 -135.6
 2.060  0.5045  162.9   4.218   67.7  0.1120   43.0  0.2399 -136.1
 2.080  0.5051  162.4   4.179   67.4  0.1128   43.0  0.2394 -136.7
 2.100  0.5058  161.8   4.140   67.0  0.1135   42.9  0.2389 -137.2
 2.120  0.5065  161.3   4.102   66.6  0.1142   42.8  0.2384 -137.7
 2.140  0.5073  160.7   4.064   66.2  0.1150   42.8  0.2380 -138.2
 2.160  0.5081  160.2   4.026   65.8  0.1157   42.7  0.2376 -138.7
 2.180  0.5090  159.6   3.988   65.4  0.1165   42.7  0.2372 -139.3
 2.200  0.5099  159.1   3.950   65.0  0.1172   42.6  0.2368 -139.8
 2.220  0.5105  158.6   3.918   64.7  0.1179   42.5  0.2365 -140.3
 2.240  0.5112  158.0   3.885   64.3  0.1187   42.5  0.2362 -140.8
 2.260  0.5119  157.5   3.853   64.0  0.1194   42.4  0.2359 -141.3
 2.280  0.5127  157.0   3.821   63.6  0.1201   42.4  0.2356 -141.9
 2.300  0.5135  156.4   3.789   63.2  0.1208   42.3  0.2354 -142.4
 2.320  0.5143  155.9   3.757   62.9  0.1216   42.2  0.2352 -142.9
 2.340  0.5152  155.4   3.726   62.5  0.1223   42.2  0.2350 -143.4
 2.360  0.5161  154.8   3.694   62.1  0.1230   42.1  0.2348 -144.0
 2.380  0.5171  154.3   3.663   61.7  0.1238   42.1  0.2346 -144.5
 2.400  0.5181  153.8   3.632   61.3  0.1245   42.0  0.2345 -145.0
 2.420  0.5188  153.3   3.604   61.0  0.1252   41.9  0.2345 -145.5
 2.440  0.5196  152.8   3.575   60.6  0.1259   41.8  0.2344 -146.0
 2.460  0.5204  152.3   3.547   60.3  0.1267   41.7  0.2344 -146.5
 2.480  0.5213  151.9   3.519   59.9  0.1274   41.6  0.2344 -147.0
 2.500  0.5221  151.4   3.491   59.6  0.1281   41.5  0.2345 -147.6
 2.520  0.5231  150.9   3.464   59.2  0.1288   41.4  0.2345 -148.1
 2.540  0.5240  150.4   3.436   58.8  0.1295   41.3  0.2346 -148.6
 2.560  0.5250  149.9   3.408   58.5  0.1303   41.2  0.2347 -149.1
 2.580  0.5260  149.5   3.381   58.1  0.1310   41.1  0.2348 -149.6
 2.600  0.5271  149.0   3.354   57.7  0.1317   41.0  0.2349 -150.1
 2.620  0.5278  148.5   3.330   57.4  0.1324   40.9  0.2351 -150.6
 2.640  0.5285  148.1   3.306   57.1  0.1331   40.8  0.2353 -151.1
 2.660  0.5293  147.6   3.281   56.7  0.1338   40.7  0.2356 -151.6
 2.680  0.5301  147.1   3.257   56.4  0.1345   40.6  0.2358 -152.0
 2.700  0.5309  146.7   3.234   56.1  0.1351   40.5  0.2361 -152.5
 2.720  0.5318  146.2   3.210   55.7  0.1358   40.4  0.2364 -153.0
 2.740  0.5327  145.8   3.186   55.4  0.1365   40.4  0.2367 -153.5
 2.760  0.5336  145.3   3.163   55.0  0.1372   40.3  0.2370 -153.9
 2.780  0.5346  144.9   3.139   54.7  0.1379   40.2  0.2373 -154.4
 2.800  0.5356  144.4   3.116   54.3  0.1386   40.1  0.2377 -154.9
 2.820  0.5365  144.0   3.095   54.0  0.1393   40.0  0.2380 -155.4
 2.840  0.5374  143.5   3.073   53.7  0.1400   39.9  0.2384 -155.8
 2.860  0.5384  143.1   3.052   53.3  0.1407   39.8  0.2387 -156.3
 2.880  0.5394  142.7   3.031   53.0  0.1414   39.7  0.2391 -156.7
 2.900  0.5404  142.3   3.010   52.7  0.1421   39.6  0.2395 -157.2
 2.920  0.5415  141.9   2.989   52.3  0.1428   39.5  0.2399 -157.6
 2.940  0.5426  141.4   2.969   52.0  0.1435   39.4  0.2403 -158.1
 2.960  0.5437  141.0   2.948   51.6  0.1442   39.3  0.2407 -158.5
 2.980  0.5448  140.6   2.927   51.3  0.1449   39.2  0.2411 -159.0
 3.000  0.5460  140.2   2.907   50.9  0.1456   39.1  0.2416 -159.4
 3.100  0.5498  138.2   2.818   49.5  0.1489   38.4  0.2438 -161.5
 3.200  0.5542  136.2   2.731   48.0  0.1521   37.8  0.2464 -163.5
 3.300  0.5593  134.2   2.646   46.5  0.1555   37.2  0.2492 -165.5
 3.400  0.5651  132.3   2.564   44.8  0.1588   36.6  0.2524 -167.5
 3.500  0.5715  130.4   2.483   43.0  0.1621   36.1  0.2558 -169.4
 3.600  0.5765  128.7   2.415   41.7  0.1651   35.4  0.2589 -171.4
 3.700  0.5820  126.9   2.349   40.3  0.1681   34.8  0.2624 -173.4
 3.800  0.5880  125.3   2.285   38.8  0.1711   34.1  0.2662 -175.4
 3.900  0.5945  123.6   2.221   37.2  0.1741   33.5  0.2702 -177.3
 4.000  0.6015  122.0   2.160   35.6  0.1772   32.9  0.2746 -179.1
 4.100  0.6066  120.6   2.106   34.4  0.1799   32.3  0.2794  179.1
 4.200  0.6121  119.2   2.053   33.0  0.1826   31.6  0.2844  177.4
 4.300  0.6180  117.8   2.002   31.7  0.1853   31.0  0.2897  175.7
 4.400  0.6242  116.4   1.951   30.2  0.1880   30.5  0.2952  174.1
 4.500  0.6308  115.1   1.902   28.7  0.1908   29.9  0.3010  172.5
 4.600  0.6344  113.9   1.860   27.6  0.1934   29.4  0.3051  171.2
 4.700  0.6384  112.7   1.819   26.3  0.1961   28.9  0.3093  170.0
 4.800  0.6426  111.5   1.778   25.1  0.1988   28.4  0.3137  168.7
 4.900  0.6470  110.3   1.739   23.8  0.2015   27.9  0.3182  167.6
 5.000  0.6518  109.1   1.700   22.4  0.2042   27.4  0.3229  166.4
 5.100  0.6545  108.1   1.668   21.4  0.2072   26.8  0.3258  165.4
 5.200  0.6574  107.0   1.636   20.3  0.2102   26.2  0.3287  164.5
 5.300  0.6605  106.0   1.605   19.2  0.2133   25.6  0.3318  163.6
 5.400  0.6639  105.0   1.575   18.0  0.2163   25.0  0.3349  162.7
 5.500  0.6674  104.0   1.545   16.8  0.2194   24.5  0.3381  161.8
 5.600  0.6696  103.1   1.519   15.7  0.2222   23.8  0.3416  160.9
 5.700  0.6719  102.3   1.494   14.6  0.2250   23.1  0.3452  160.1
 5.800  0.6744  101.4   1.470   13.5  0.2279   22.5  0.3488  159.3
 5.900  0.6770  100.5   1.446   12.3  0.2308   21.8  0.3525  158.5
 6.000  0.6798   99.7   1.423   11.1  0.2337   21.2  0.3563  157.7
 6.100  0.6802   98.9   1.401   10.1  0.2362   20.6  0.3588  157.1
 6.200  0.6807   98.1   1.380    9.0  0.2387   19.9  0.3613  156.6
 6.300  0.6814   97.2   1.359    8.0  0.2412   19.3  0.3639  156.0
 6.400  0.6822   96.4   1.339    6.8  0.2438   18.7  0.3665  155.4
 6.500  0.6832   95.6   1.319    5.7  0.2464   18.1  0.3691  154.9
 6.600  0.6827   94.6   1.302    4.7  0.2493   17.5  0.3689  154.5
 6.800  0.6822   92.7   1.270    2.7  0.2551   16.3  0.3686  153.7
 7.000  0.6825   90.8   1.240    0.6  0.2611   15.1  0.3684  152.9
 7.200  0.6842   88.5   1.214   -1.5  0.2675   13.6  0.3682  151.4
 7.400  0.6870   86.3   1.190   -3.8  0.2741   12.2  0.3684  149.9
 7.600  0.6911   83.9   1.166   -6.1  0.2803   10.6  0.3702  147.9
 7.800  0.6967   81.3   1.143   -8.5  0.2864    8.8  0.3740  145.6
 8.000  0.7037   78.8   1.121  -11.0  0.2927    7.1  0.3785  143.3
 8.200  0.7092   76.1   1.092  -13.4  0.2969    5.1  0.3828  140.4
 8.400  0.7163   73.4   1.065  -15.9  0.3014    3.1  0.3880  137.6
 8.600  0.7254   70.9   1.037  -18.3  0.3043    1.1  0.3944  134.1
 8.800  0.7363   68.4   1.008  -20.6  0.3055   -0.9  0.4027  130.1
 9.000  0.7485   66.1   0.980  -23.0  0.3071   -2.9  0.4129  126.3
 9.200  0.7639   64.2   0.948  -24.8  0.3060   -4.4  0.4289  121.8
 9.400  0.7801   62.3   0.916  -26.8  0.3052   -5.9  0.4472  117.7
 9.600  0.7943   60.6   0.886  -28.5  0.3042   -7.2  0.4663  114.1
 9.800  0.8063   59.1   0.856  -29.9  0.3029   -8.1  0.4856  111.0
10.000  0.8188   57.6   0.826  -31.5  0.3018   -9.0  0.5062  108.1
!
!  f       NFmin   Gammaopt  rn/50
! GHz       dB    MAG  ANG    -
 0.450      0.95  0.14   16   0.15
 0.900      1.19  0.09   60   0.13
 1.900      1.15  0.07  152   0.12
 3.500      1.18  0.34 -137   0.11
!
! (c) 2016  Infineon Technologies AG, Munich
