! Infineon Technologies  Discrete & RF Semiconductors
! BFP460
! VCE =  1.5 V,  IC =  40 mA
! Common Emitter S-Parameters:                            Jan 2016
# GHz  S  MA  R  50
!  f         S11            S21            S12            S22
! GHz     MAG   ANG      MAG   ANG      MAG   ANG      MAG   ANG
 0.030  0.3931  -27.6  61.971  168.8  0.0048   83.7  0.8895  -12.6
 0.035  0.3916  -31.6  61.458  166.8  0.0055   81.9  0.8843  -14.9
 0.040  0.3920  -35.6  61.024  164.7  0.0062   80.5  0.8805  -17.2
 0.045  0.3908  -39.5  60.321  162.5  0.0069   78.5  0.8732  -19.4
 0.050  0.3914  -43.5  59.706  160.3  0.0076   76.9  0.8673  -21.7
 0.055  0.3948  -47.3  59.077  158.6  0.0083   76.4  0.8585  -23.8
 0.060  0.3999  -51.1  58.501  156.9  0.0090   76.0  0.8510  -26.0
 0.065  0.4035  -55.3  57.863  155.1  0.0096   74.8  0.8408  -28.0
 0.070  0.4092  -59.5  57.286  153.2  0.0102   73.8  0.8317  -30.1
 0.075  0.4113  -62.6  56.486  151.7  0.0108   72.2  0.8206  -32.1
 0.080  0.4146  -65.7  55.725  150.2  0.0115   70.8  0.8105  -34.1
 0.085  0.4151  -69.0  54.841  148.6  0.0119   70.1  0.7989  -35.9
 0.090  0.4169  -72.2  54.002  146.9  0.0124   69.4  0.7881  -37.8
 0.095  0.4180  -75.0  53.062  145.5  0.0129   68.4  0.7767  -39.5
 0.100  0.4201  -77.7  52.153  144.1  0.0134   67.5  0.7660  -41.3
 0.105  0.4235  -80.3  51.385  142.7  0.0139   66.9  0.7540  -43.0
 0.110  0.4278  -82.9  50.647  141.3  0.0144   66.3  0.7426  -44.7
 0.115  0.4286  -85.8  49.760  140.0  0.0148   65.6  0.7308  -46.3
 0.120  0.4304  -88.6  48.901  138.6  0.0153   65.0  0.7197  -48.0
 0.125  0.4311  -90.9  48.076  137.5  0.0157   64.4  0.7081  -49.5
 0.130  0.4324  -93.1  47.270  136.3  0.0162   63.8  0.6969  -51.0
 0.135  0.4333  -95.5  46.484  135.2  0.0165   63.1  0.6858  -52.4
 0.140  0.4349  -97.8  45.716  134.0  0.0169   62.5  0.6752  -53.8
 0.145  0.4362  -99.8  44.864  132.9  0.0172   62.1  0.6644  -55.2
 0.150  0.4381 -101.7  44.029  131.8  0.0176   61.8  0.6540  -56.6
 0.155  0.4377 -103.4  43.308  131.0  0.0179   61.4  0.6436  -57.6
 0.160  0.4376 -105.1  42.594  130.3  0.0182   61.1  0.6335  -58.6
 0.165  0.4380 -106.8  41.889  129.5  0.0185   60.8  0.6236  -59.7
 0.170  0.4387 -108.4  41.192  128.6  0.0188   60.4  0.6138  -60.8
 0.175  0.4397 -110.1  40.504  127.8  0.0191   60.1  0.6044  -62.0
 0.180  0.4412 -111.8  39.826  126.9  0.0194   59.8  0.5951  -63.1
 0.185  0.4430 -113.4  39.157  126.0  0.0197   59.5  0.5862  -64.3
 0.190  0.4452 -115.1  38.499  125.0  0.0200   59.2  0.5774  -65.6
 0.195  0.4478 -116.7  37.852  124.0  0.0203   59.0  0.5690  -66.9
 0.200  0.4507 -118.3  37.217  123.0  0.0206   58.7  0.5609  -68.2
 0.220  0.4518 -123.2  34.992  120.6  0.0216   58.2  0.5304  -71.6
 0.240  0.4562 -128.0  32.835  118.0  0.0226   57.7  0.5020  -75.4
 0.260  0.4599 -132.2  30.927  115.6  0.0236   57.5  0.4770  -78.9
 0.280  0.4618 -135.7  29.234  113.7  0.0245   57.4  0.4546  -81.8
 0.300  0.4655 -139.2  27.579  111.5  0.0254   57.4  0.4335  -85.1
 0.320  0.4666 -142.0  26.228  110.1  0.0263   57.5  0.4159  -87.5
 0.340  0.4689 -144.7  24.896  108.5  0.0272   57.6  0.3991  -90.1
 0.360  0.4704 -147.2  23.703  107.0  0.0280   57.7  0.3842  -92.6
 0.380  0.4709 -149.5  22.641  105.7  0.0289   57.9  0.3709  -94.8
 0.400  0.4722 -151.7  21.593  104.2  0.0298   58.1  0.3583  -97.2
 0.420  0.4732 -153.6  20.719  103.2  0.0307   58.4  0.3476  -99.1
 0.440  0.4747 -155.5  19.852  102.1  0.0316   58.6  0.3372 -101.1
 0.450  0.4756 -156.5  19.422  101.5  0.0320   58.7  0.3322 -102.1
 0.460  0.4758 -157.3  19.065  101.1  0.0324   58.8  0.3279 -102.9
 0.480  0.4766 -158.8  18.354  100.2  0.0333   59.1  0.3196 -104.6
 0.500  0.4777 -160.4  17.648   99.2  0.0341   59.3  0.3115 -106.4
 0.520  0.4779 -161.7  17.089   98.5  0.0350   59.6  0.3050 -107.8
 0.540  0.4784 -163.1  16.534   97.8  0.0359   59.8  0.2987 -109.3
 0.560  0.4792 -164.4  15.981   97.0  0.0368   60.1  0.2926 -110.8
 0.580  0.4802 -165.7  15.431   96.1  0.0377   60.3  0.2867 -112.4
 0.600  0.4814 -167.0  14.885   95.2  0.0386   60.5  0.2810 -114.0
 0.620  0.4816 -168.0  14.477   94.6  0.0395   60.7  0.2766 -115.2
 0.640  0.4820 -169.0  14.070   94.0  0.0404   60.8  0.2723 -116.5
 0.660  0.4826 -170.1  13.666   93.3  0.0414   61.0  0.2682 -117.8
 0.680  0.4833 -171.1  13.263   92.6  0.0423   61.2  0.2642 -119.1
 0.700  0.4841 -172.1  12.862   91.9  0.0432   61.3  0.2604 -120.5
 0.720  0.4845 -173.0  12.552   91.4  0.0441   61.4  0.2573 -121.5
 0.740  0.4851 -173.9  12.242   90.8  0.0450   61.6  0.2543 -122.5
 0.760  0.4857 -174.8  11.934   90.2  0.0460   61.7  0.2514 -123.6
 0.780  0.4865 -175.7  11.627   89.6  0.0469   61.8  0.2485 -124.7
 0.800  0.4874 -176.6  11.322   89.0  0.0478   61.9  0.2458 -125.8
 0.820  0.4877 -177.4  11.079   88.5  0.0487   62.0  0.2436 -126.7
 0.840  0.4880 -178.1  10.836   88.1  0.0497   62.1  0.2415 -127.6
 0.860  0.4885 -178.9  10.594   87.6  0.0506   62.1  0.2395 -128.6
 0.880  0.4890 -179.6  10.353   87.0  0.0516   62.2  0.2375 -129.5
 0.900  0.4896  179.6  10.113   86.5  0.0525   62.3  0.2356 -130.5
 0.920  0.4899  178.9   9.916   86.1  0.0534   62.3  0.2340 -131.3
 0.940  0.4902  178.2   9.720   85.6  0.0544   62.4  0.2325 -132.1
 0.960  0.4906  177.6   9.524   85.2  0.0553   62.4  0.2310 -132.9
 0.980  0.4911  176.9   9.329   84.7  0.0563   62.5  0.2296 -133.8
 1.000  0.4916  176.2   9.134   84.2  0.0572   62.5  0.2282 -134.6
 1.020  0.4918  175.5   8.971   83.8  0.0582   62.5  0.2271 -135.3
 1.040  0.4922  174.9   8.809   83.4  0.0591   62.5  0.2261 -136.0
 1.060  0.4925  174.2   8.648   82.9  0.0601   62.4  0.2250 -136.7
 1.080  0.4930  173.6   8.487   82.5  0.0610   62.4  0.2241 -137.4
 1.100  0.4935  172.9   8.326   82.0  0.0620   62.4  0.2231 -138.1
 1.120  0.4939  172.3   8.190   81.6  0.0630   62.4  0.2222 -138.8
 1.140  0.4943  171.7   8.054   81.2  0.0639   62.4  0.2214 -139.4
 1.160  0.4948  171.2   7.919   80.8  0.0649   62.3  0.2206 -140.1
 1.180  0.4954  170.6   7.784   80.4  0.0658   62.3  0.2198 -140.7
 1.200  0.4960  170.0   7.650   80.0  0.0668   62.3  0.2191 -141.4
 1.220  0.4963  169.5   7.534   79.6  0.0678   62.2  0.2186 -142.0
 1.240  0.4967  168.9   7.418   79.2  0.0687   62.2  0.2180 -142.5
 1.260  0.4971  168.4   7.303   78.8  0.0697   62.1  0.2175 -143.1
 1.280  0.4976  167.8   7.188   78.3  0.0706   62.1  0.2171 -143.6
 1.300  0.4981  167.3   7.074   77.9  0.0716   62.0  0.2166 -144.2
 1.320  0.4986  166.8   6.975   77.6  0.0726   61.9  0.2161 -144.7
 1.340  0.4992  166.3   6.876   77.2  0.0735   61.9  0.2157 -145.3
 1.360  0.4998  165.7   6.777   76.9  0.0745   61.8  0.2153 -145.8
 1.380  0.5005  165.2   6.679   76.5  0.0754   61.8  0.2149 -146.4
 1.400  0.5012  164.7   6.581   76.1  0.0764   61.7  0.2145 -146.9
 1.420  0.5016  164.2   6.494   75.7  0.0774   61.6  0.2143 -147.4
 1.440  0.5020  163.7   6.408   75.4  0.0783   61.5  0.2140 -147.8
 1.460  0.5025  163.2   6.322   75.0  0.0793   61.4  0.2138 -148.3
 1.480  0.5030  162.7   6.236   74.6  0.0802   61.3  0.2136 -148.7
 1.500  0.5035  162.2   6.150   74.2  0.0812   61.2  0.2134 -149.2
 1.520  0.5040  161.7   6.074   73.9  0.0822   61.1  0.2132 -149.7
 1.540  0.5046  161.2   5.999   73.5  0.0831   61.0  0.2131 -150.1
 1.560  0.5052  160.7   5.923   73.2  0.0841   60.9  0.2129 -150.6
 1.580  0.5058  160.2   5.848   72.9  0.0850   60.8  0.2128 -151.0
 1.600  0.5065  159.7   5.773   72.5  0.0860   60.7  0.2127 -151.5
 1.620  0.5069  159.3   5.707   72.2  0.0869   60.6  0.2126 -151.9
 1.640  0.5074  158.8   5.641   71.8  0.0879   60.5  0.2125 -152.3
 1.660  0.5079  158.4   5.575   71.4  0.0888   60.3  0.2125 -152.8
 1.680  0.5084  157.9   5.509   71.1  0.0898   60.2  0.2124 -153.2
 1.700  0.5089  157.5   5.444   70.7  0.0907   60.1  0.2124 -153.6
 1.720  0.5095  157.1   5.384   70.4  0.0917   60.0  0.2125 -154.0
 1.740  0.5100  156.6   5.323   70.0  0.0926   59.8  0.2125 -154.4
 1.760  0.5107  156.2   5.263   69.7  0.0936   59.7  0.2126 -154.8
 1.780  0.5113  155.7   5.204   69.4  0.0945   59.5  0.2127 -155.2
 1.800  0.5120  155.3   5.144   69.0  0.0955   59.4  0.2128 -155.6
 1.820  0.5125  154.8   5.091   68.7  0.0964   59.3  0.2129 -156.0
 1.840  0.5130  154.3   5.039   68.3  0.0974   59.1  0.2129 -156.4
 1.860  0.5135  153.9   4.987   68.0  0.0983   59.0  0.2130 -156.8
 1.880  0.5141  153.4   4.935   67.7  0.0993   58.8  0.2131 -157.2
 1.900  0.5147  152.9   4.883   67.3  0.1002   58.7  0.2132 -157.6
 1.920  0.5153  152.5   4.835   67.0  0.1011   58.6  0.2134 -158.0
 1.940  0.5159  152.1   4.787   66.6  0.1021   58.4  0.2136 -158.4
 1.960  0.5165  151.6   4.740   66.2  0.1030   58.3  0.2138 -158.8
 1.980  0.5171  151.2   4.692   65.9  0.1040   58.1  0.2140 -159.2
 2.000  0.5178  150.8   4.645   65.5  0.1049   58.0  0.2142 -159.6
 2.020  0.5184  150.4   4.602   65.2  0.1058   57.8  0.2145 -160.0
 2.040  0.5191  150.0   4.560   64.9  0.1068   57.7  0.2148 -160.4
 2.060  0.5198  149.6   4.517   64.6  0.1077   57.5  0.2151 -160.8
 2.080  0.5205  149.1   4.475   64.3  0.1086   57.3  0.2154 -161.1
 2.100  0.5213  148.7   4.433   63.9  0.1095   57.2  0.2157 -161.5
 2.120  0.5220  148.3   4.391   63.6  0.1105   57.0  0.2160 -161.9
 2.140  0.5228  147.9   4.349   63.3  0.1114   56.9  0.2163 -162.3
 2.160  0.5237  147.5   4.308   62.9  0.1123   56.7  0.2167 -162.6
 2.180  0.5245  147.1   4.266   62.6  0.1133   56.5  0.2170 -163.0
 2.200  0.5254  146.7   4.225   62.2  0.1142   56.4  0.2174 -163.4
 2.220  0.5261  146.3   4.190   61.9  0.1151   56.2  0.2178 -163.8
 2.240  0.5268  145.9   4.154   61.6  0.1160   56.0  0.2183 -164.2
 2.260  0.5275  145.5   4.119   61.3  0.1169   55.9  0.2187 -164.6
 2.280  0.5283  145.1   4.084   60.9  0.1178   55.7  0.2192 -165.0
 2.300  0.5291  144.7   4.049   60.6  0.1187   55.5  0.2196 -165.4
 2.320  0.5299  144.3   4.014   60.3  0.1196   55.3  0.2201 -165.8
 2.340  0.5307  144.0   3.979   60.0  0.1205   55.2  0.2206 -166.1
 2.360  0.5316  143.6   3.945   59.6  0.1214   55.0  0.2211 -166.5
 2.380  0.5325  143.2   3.910   59.3  0.1223   54.9  0.2216 -166.9
 2.400  0.5334  142.8   3.876   58.9  0.1232   54.7  0.2221 -167.3
 2.420  0.5342  142.4   3.845   58.6  0.1241   54.5  0.2227 -167.7
 2.440  0.5351  142.0   3.815   58.3  0.1250   54.3  0.2233 -168.1
 2.460  0.5360  141.6   3.784   58.0  0.1258   54.2  0.2240 -168.4
 2.480  0.5369  141.2   3.754   57.7  0.1267   54.0  0.2246 -168.8
 2.500  0.5378  140.8   3.724   57.4  0.1276   53.8  0.2253 -169.2
 2.520  0.5387  140.4   3.693   57.0  0.1285   53.7  0.2259 -169.5
 2.540  0.5397  140.1   3.663   56.7  0.1293   53.5  0.2266 -169.9
 2.560  0.5407  139.7   3.633   56.4  0.1302   53.3  0.2273 -170.3
 2.580  0.5417  139.3   3.604   56.0  0.1311   53.2  0.2280 -170.6
 2.600  0.5428  138.9   3.574   55.7  0.1320   53.0  0.2287 -171.0
 2.620  0.5435  138.5   3.548   55.4  0.1328   52.8  0.2295 -171.4
 2.640  0.5443  138.2   3.522   55.1  0.1337   52.6  0.2303 -171.7
 2.660  0.5451  137.8   3.496   54.8  0.1345   52.4  0.2310 -172.0
 2.680  0.5459  137.5   3.470   54.5  0.1354   52.3  0.2318 -172.4
 2.700  0.5467  137.1   3.444   54.2  0.1362   52.1  0.2326 -172.7
 2.720  0.5475  136.8   3.418   53.9  0.1371   51.9  0.2335 -173.1
 2.740  0.5484  136.4   3.392   53.6  0.1379   51.7  0.2343 -173.4
 2.760  0.5493  136.1   3.367   53.3  0.1388   51.5  0.2351 -173.7
 2.780  0.5502  135.7   3.341   52.9  0.1396   51.4  0.2360 -174.1
 2.800  0.5511  135.4   3.316   52.6  0.1405   51.2  0.2368 -174.4
 2.820  0.5519  135.1   3.293   52.3  0.1413   51.0  0.2376 -174.7
 2.840  0.5528  134.7   3.270   52.0  0.1421   50.8  0.2384 -175.1
 2.860  0.5537  134.4   3.247   51.7  0.1429   50.6  0.2392 -175.4
 2.880  0.5546  134.1   3.225   51.5  0.1438   50.5  0.2400 -175.7
 2.900  0.5555  133.7   3.202   51.2  0.1446   50.3  0.2409 -176.0
 2.920  0.5564  133.4   3.179   50.9  0.1454   50.1  0.2417 -176.3
 2.940  0.5573  133.1   3.157   50.5  0.1462   49.9  0.2425 -176.7
 2.960  0.5583  132.8   3.134   50.2  0.1470   49.7  0.2434 -177.0
 2.980  0.5593  132.4   3.112   49.9  0.1479   49.6  0.2442 -177.3
 3.000  0.5603  132.1   3.090   49.6  0.1487   49.4  0.2451 -177.6
 3.100  0.5644  130.4   2.995   48.3  0.1525   48.4  0.2493 -179.1
 3.200  0.5689  128.8   2.902   47.0  0.1564   47.4  0.2537  179.4
 3.300  0.5739  127.2   2.811   45.5  0.1603   46.5  0.2583  177.9
 3.400  0.5794  125.6   2.721   44.0  0.1643   45.6  0.2630  176.5
 3.500  0.5853  124.0   2.634   42.3  0.1683   44.8  0.2679  175.2
 3.600  0.5901  122.5   2.562   41.1  0.1717   43.8  0.2728  173.6
 3.700  0.5954  121.0   2.491   39.8  0.1751   42.9  0.2779  172.0
 3.800  0.6010  119.6   2.422   38.5  0.1785   41.9  0.2832  170.5
 3.900  0.6070  118.2   2.354   37.0  0.1821   41.0  0.2887  169.0
 4.000  0.6133  116.8   2.287   35.5  0.1856   40.2  0.2944  167.6
 4.100  0.6185  115.6   2.230   34.3  0.1886   39.3  0.3003  166.1
 4.200  0.6240  114.4   2.174   33.1  0.1916   38.5  0.3064  164.8
 4.300  0.6297  113.2   2.119   31.9  0.1947   37.7  0.3127  163.4
 4.400  0.6357  112.0   2.065   30.5  0.1978   36.9  0.3192  162.1
 4.500  0.6420  110.9   2.012   29.1  0.2010   36.2  0.3258  160.9
 4.600  0.6457  109.8   1.968   28.1  0.2040   35.4  0.3303  159.8
 4.700  0.6496  108.7   1.925   27.0  0.2069   34.7  0.3350  158.8
 4.800  0.6537  107.6   1.882   25.8  0.2100   34.0  0.3397  157.8
 4.900  0.6581  106.5   1.840   24.6  0.2130   33.3  0.3446  156.8
 5.000  0.6627  105.4   1.799   23.4  0.2161   32.6  0.3495  155.9
 5.100  0.6654  104.5   1.765   22.4  0.2193   31.8  0.3523  155.1
 5.200  0.6683  103.5   1.732   21.4  0.2225   31.0  0.3552  154.2
 5.300  0.6713  102.6   1.699   20.3  0.2258   30.3  0.3581  153.4
 5.400  0.6745  101.7   1.667   19.2  0.2291   29.5  0.3611  152.6
 5.500  0.6779  100.8   1.636   18.1  0.2324   28.8  0.3642  151.8
 5.600  0.6796  100.0   1.609   17.1  0.2353   28.0  0.3674  151.0
 5.700  0.6815   99.2   1.583   16.0  0.2383   27.1  0.3707  150.3
 5.800  0.6835   98.4   1.558   14.9  0.2414   26.3  0.3740  149.5
 5.900  0.6856   97.7   1.533   13.8  0.2445   25.6  0.3774  148.8
 6.000  0.6879   96.9   1.509   12.6  0.2476   24.8  0.3809  148.1
 6.100  0.6881   96.1   1.486   11.6  0.2501   24.0  0.3828  147.6
 6.200  0.6884   95.3   1.464   10.7  0.2527   23.2  0.3847  147.1
 6.300  0.6888   94.6   1.442    9.6  0.2554   22.5  0.3866  146.6
 6.400  0.6893   93.8   1.421    8.6  0.2581   21.7  0.3886  146.1
 6.500  0.6900   93.0   1.400    7.5  0.2608   21.0  0.3906  145.6
 6.600  0.6893   92.1   1.383    6.6  0.2638   20.3  0.3897  145.2
 6.800  0.6884   90.2   1.350    4.6  0.2699   18.9  0.3881  144.3
 7.000  0.6883   88.4   1.318    2.6  0.2761   17.5  0.3865  143.5
 7.200  0.6896   86.2   1.291    0.5  0.2826   15.8  0.3856  142.0
 7.400  0.6919   84.1   1.266   -1.7  0.2893   14.2  0.3850  140.5
 7.600  0.6954   81.7   1.241   -4.0  0.2956   12.4  0.3864  138.7
 7.800  0.7005   79.3   1.216   -6.4  0.3015   10.4  0.3902  136.4
 8.000  0.7068   76.8   1.193   -8.9  0.3078    8.5  0.3945  134.2
 8.200  0.7117   74.2   1.162  -11.2  0.3115    6.3  0.3990  131.5
 8.400  0.7181   71.7   1.134  -13.7  0.3157    4.2  0.4044  128.8
 8.600  0.7267   69.2   1.104  -16.1  0.3180    2.0  0.4114  125.6
 8.800  0.7373   66.9   1.072  -18.4  0.3187   -0.1  0.4208  121.8
 9.000  0.7491   64.7   1.043  -20.8  0.3197   -2.2  0.4320  118.2
 9.200  0.7646   62.9   1.009  -22.6  0.3180   -3.8  0.4491  114.1
 9.400  0.7807   61.1   0.975  -24.5  0.3165   -5.4  0.4684  110.4
 9.600  0.7950   59.6   0.943  -26.2  0.3150   -6.7  0.4877  107.1
 9.800  0.8071   58.1   0.911  -27.5  0.3133   -7.6  0.5067  104.2
10.000  0.8197   56.7   0.880  -29.0  0.3116   -8.5  0.5268  101.6
!
!  f       NFmin   Gammaopt  rn/50
! GHz       dB    MAG  ANG    -
 0.450      1.67  0.27 -170   0.11
 0.900      1.70  0.24 -162   0.13
 1.900      1.79  0.34 -141   0.14
 3.500      1.63  0.57 -118   0.22
!
! (c) 2016  Infineon Technologies AG, Munich
