! Infineon Technologies  Discrete & RF Semiconductors
! BFP460
! VCE =  4.0 V,  IC =  40 mA
! Common Emitter S-Parameters:                            Jan 2016
# GHz  S  MA  R  50
!  f         S11            S21            S12            S22
! GHz     MAG   ANG      MAG   ANG      MAG   ANG      MAG   ANG
 0.030  0.4352  -21.4  60.556  168.9  0.0045   83.4  0.9186  -10.6
 0.035  0.4343  -24.7  60.073  167.1  0.0051   81.7  0.9143  -12.5
 0.040  0.4349  -28.1  59.653  165.2  0.0057   80.3  0.9110  -14.4
 0.045  0.4319  -31.4  58.989  163.5  0.0064   79.4  0.9047  -16.2
 0.050  0.4303  -34.8  58.380  161.7  0.0071   78.7  0.8992  -18.0
 0.055  0.4325  -37.9  57.847  160.2  0.0077   77.7  0.8918  -19.8
 0.060  0.4359  -40.9  57.356  158.6  0.0083   76.8  0.8852  -21.6
 0.065  0.4346  -44.4  56.848  156.9  0.0088   75.7  0.8764  -23.3
 0.070  0.4349  -48.0  56.390  155.2  0.0094   74.8  0.8684  -25.1
 0.075  0.4357  -51.1  55.710  153.9  0.0100   73.7  0.8586  -26.8
 0.080  0.4377  -54.1  55.060  152.5  0.0106   72.7  0.8495  -28.5
 0.085  0.4374  -57.1  54.324  151.0  0.0112   71.8  0.8389  -30.1
 0.090  0.4382  -60.0  53.626  149.5  0.0118   71.0  0.8289  -31.8
 0.095  0.4374  -62.4  52.799  148.2  0.0122   70.3  0.8184  -33.3
 0.100  0.4374  -64.8  51.999  146.9  0.0127   69.6  0.8085  -34.8
 0.105  0.4379  -67.5  51.347  145.6  0.0131   68.9  0.7975  -36.2
 0.110  0.4394  -70.1  50.721  144.3  0.0136   68.2  0.7870  -37.7
 0.115  0.4389  -72.8  49.962  143.0  0.0140   67.5  0.7760  -39.1
 0.120  0.4394  -75.4  49.228  141.7  0.0145   66.8  0.7655  -40.5
 0.125  0.4384  -77.5  48.500  140.6  0.0149   66.3  0.7544  -41.8
 0.130  0.4379  -79.6  47.790  139.5  0.0153   65.8  0.7436  -43.1
 0.135  0.4374  -81.9  47.102  138.4  0.0157   65.1  0.7330  -44.3
 0.140  0.4376  -84.2  46.432  137.2  0.0161   64.5  0.7227  -45.6
 0.145  0.4369  -86.2  45.660  136.1  0.0164   64.0  0.7121  -46.8
 0.150  0.4367  -88.3  44.904  135.0  0.0168   63.5  0.7018  -48.0
 0.155  0.4350  -90.0  44.233  134.2  0.0171   63.1  0.6915  -48.9
 0.160  0.4336  -91.8  43.569  133.5  0.0174   62.7  0.6813  -49.8
 0.165  0.4327  -93.6  42.914  132.7  0.0178   62.4  0.6713  -50.7
 0.170  0.4322  -95.3  42.268  131.8  0.0181   62.0  0.6614  -51.7
 0.175  0.4321  -97.1  41.630  131.0  0.0184   61.7  0.6518  -52.7
 0.180  0.4324  -98.9  41.003  130.1  0.0187   61.3  0.6424  -53.7
 0.185  0.4331 -100.7  40.385  129.2  0.0190   61.0  0.6332  -54.8
 0.190  0.4342 -102.4  39.777  128.3  0.0194   60.7  0.6242  -55.8
 0.195  0.4358 -104.2  39.181  127.3  0.0197   60.4  0.6154  -57.0
 0.200  0.4377 -105.9  38.596  126.3  0.0200   60.1  0.6069  -58.1
 0.220  0.4354 -111.1  36.445  123.8  0.0210   59.4  0.5746  -61.0
 0.240  0.4366 -116.3  34.371  121.0  0.0221   58.7  0.5439  -64.3
 0.260  0.4379 -120.9  32.509  118.6  0.0230   58.3  0.5164  -67.3
 0.280  0.4381 -124.9  30.822  116.5  0.0239   58.0  0.4914  -69.8
 0.300  0.4404 -128.8  29.177  114.3  0.0248   57.8  0.4674  -72.6
 0.320  0.4398 -132.0  27.806  112.7  0.0256   57.8  0.4473  -74.6
 0.340  0.4405 -135.2  26.457  111.0  0.0265   57.9  0.4278  -76.7
 0.360  0.4409 -138.1  25.239  109.5  0.0273   57.9  0.4103  -78.8
 0.380  0.4405 -140.7  24.144  108.1  0.0282   58.0  0.3945  -80.6
 0.400  0.4410 -143.3  23.063  106.6  0.0290   58.1  0.3792  -82.6
 0.420  0.4412 -145.5  22.155  105.5  0.0298   58.2  0.3662  -84.1
 0.440  0.4420 -147.6  21.256  104.3  0.0306   58.3  0.3535  -85.7
 0.450  0.4426 -148.7  20.810  103.7  0.0310   58.4  0.3473  -86.6
 0.460  0.4423 -149.6  20.435  103.3  0.0314   58.5  0.3420  -87.3
 0.480  0.4422 -151.5  19.690  102.3  0.0323   58.8  0.3315  -88.7
 0.500  0.4425 -153.4  18.950  101.3  0.0331   59.0  0.3212  -90.2
 0.520  0.4423 -154.9  18.360  100.5  0.0339   59.2  0.3130  -91.3
 0.540  0.4424 -156.4  17.774   99.7  0.0348   59.4  0.3049  -92.5
 0.560  0.4428 -158.0  17.191   98.9  0.0356   59.6  0.2970  -93.7
 0.580  0.4436 -159.5  16.612   98.0  0.0365   59.8  0.2892  -95.0
 0.600  0.4446 -161.0  16.038   97.0  0.0373   60.0  0.2816  -96.4
 0.620  0.4446 -162.2  15.603   96.4  0.0381   60.2  0.2758  -97.4
 0.640  0.4447 -163.4  15.169   95.7  0.0390   60.3  0.2700  -98.4
 0.660  0.4451 -164.6  14.738   95.0  0.0398   60.5  0.2644  -99.5
 0.680  0.4456 -165.8  14.309   94.3  0.0407   60.7  0.2588 -100.6
 0.700  0.4464 -167.0  13.882   93.5  0.0415   60.8  0.2534 -101.8
 0.720  0.4467 -168.0  13.550   93.0  0.0424   60.9  0.2492 -102.7
 0.740  0.4472 -169.0  13.219   92.4  0.0432   61.1  0.2450 -103.6
 0.760  0.4478 -170.1  12.889   91.8  0.0441   61.2  0.2408 -104.5
 0.780  0.4486 -171.1  12.561   91.2  0.0449   61.3  0.2368 -105.5
 0.800  0.4495 -172.1  12.234   90.5  0.0458   61.4  0.2328 -106.5
 0.820  0.4496 -172.9  11.974   90.0  0.0467   61.5  0.2296 -107.3
 0.840  0.4499 -173.8  11.714   89.5  0.0476   61.6  0.2265 -108.1
 0.860  0.4502 -174.6  11.455   89.0  0.0484   61.6  0.2235 -109.0
 0.880  0.4507 -175.5  11.198   88.5  0.0493   61.7  0.2205 -109.8
 0.900  0.4512 -176.3  10.941   87.9  0.0502   61.8  0.2175 -110.7
 0.920  0.4514 -177.1  10.729   87.5  0.0511   61.9  0.2151 -111.4
 0.940  0.4517 -177.9  10.518   87.0  0.0520   61.9  0.2127 -112.1
 0.960  0.4521 -178.6  10.308   86.5  0.0528   62.0  0.2104 -112.9
 0.980  0.4526 -179.4  10.098   86.0  0.0537   62.0  0.2081 -113.6
 1.000  0.4532  179.8   9.889   85.5  0.0546   62.1  0.2058 -114.4
 1.020  0.4534  179.1   9.713   85.1  0.0555   62.1  0.2040 -115.1
 1.040  0.4538  178.4   9.538   84.6  0.0564   62.1  0.2023 -115.7
 1.060  0.4541  177.7   9.364   84.2  0.0573   62.1  0.2006 -116.4
 1.080  0.4546  177.0   9.190   83.7  0.0582   62.1  0.1989 -117.1
 1.100  0.4551  176.3   9.017   83.2  0.0591   62.1  0.1972 -117.8
 1.120  0.4554  175.7   8.870   82.8  0.0600   62.1  0.1958 -118.4
 1.140  0.4558  175.0   8.724   82.4  0.0609   62.1  0.1943 -119.1
 1.160  0.4562  174.4   8.579   82.0  0.0618   62.1  0.1929 -119.7
 1.180  0.4567  173.7   8.434   81.5  0.0627   62.1  0.1916 -120.3
 1.200  0.4573  173.1   8.289   81.1  0.0636   62.1  0.1902 -121.0
 1.220  0.4577  172.5   8.164   80.7  0.0645   62.1  0.1892 -121.5
 1.240  0.4582  171.9   8.039   80.3  0.0654   62.0  0.1881 -122.1
 1.260  0.4587  171.3   7.915   79.9  0.0663   62.0  0.1871 -122.7
 1.280  0.4593  170.7   7.791   79.5  0.0672   61.9  0.1862 -123.2
 1.300  0.4599  170.1   7.667   79.1  0.0681   61.9  0.1852 -123.8
 1.320  0.4602  169.5   7.560   78.7  0.0690   61.8  0.1843 -124.3
 1.340  0.4604  169.0   7.453   78.4  0.0699   61.8  0.1834 -124.9
 1.360  0.4608  168.4   7.346   78.0  0.0708   61.7  0.1825 -125.4
 1.380  0.4612  167.9   7.240   77.6  0.0717   61.7  0.1816 -125.9
 1.400  0.4616  167.3   7.134   77.2  0.0726   61.6  0.1808 -126.5
 1.420  0.4622  166.8   7.041   76.8  0.0735   61.5  0.1802 -127.0
 1.440  0.4628  166.2   6.948   76.5  0.0744   61.4  0.1796 -127.5
 1.460  0.4635  165.7   6.855   76.1  0.0753   61.4  0.1791 -128.0
 1.480  0.4642  165.1   6.763   75.7  0.0762   61.3  0.1785 -128.5
 1.500  0.4650  164.6   6.671   75.3  0.0771   61.2  0.1780 -129.0
 1.520  0.4655  164.1   6.588   75.0  0.0780   61.1  0.1775 -129.5
 1.540  0.4660  163.5   6.506   74.6  0.0789   61.0  0.1770 -130.0
 1.560  0.4666  163.0   6.424   74.2  0.0797   60.9  0.1765 -130.5
 1.580  0.4672  162.4   6.342   73.9  0.0806   60.8  0.1761 -131.0
 1.600  0.4678  161.9   6.261   73.5  0.0815   60.7  0.1756 -131.5
 1.620  0.4682  161.4   6.189   73.2  0.0824   60.6  0.1752 -132.0
 1.640  0.4687  161.0   6.118   72.8  0.0833   60.5  0.1749 -132.4
 1.660  0.4692  160.5   6.047   72.5  0.0843   60.4  0.1745 -132.9
 1.680  0.4697  160.1   5.976   72.2  0.0852   60.3  0.1742 -133.3
 1.700  0.4703  159.6   5.905   71.8  0.0861   60.2  0.1739 -133.8
 1.720  0.4707  159.1   5.840   71.5  0.0870   60.1  0.1737 -134.3
 1.740  0.4711  158.7   5.775   71.1  0.0879   60.0  0.1735 -134.7
 1.760  0.4716  158.2   5.710   70.7  0.0888   59.9  0.1733 -135.2
 1.780  0.4721  157.8   5.645   70.4  0.0897   59.8  0.1731 -135.6
 1.800  0.4726  157.3   5.581   70.0  0.0906   59.7  0.1729 -136.1
 1.820  0.4734  156.8   5.524   69.7  0.0915   59.6  0.1727 -136.5
 1.840  0.4742  156.3   5.467   69.4  0.0924   59.5  0.1725 -137.0
 1.860  0.4751  155.8   5.411   69.1  0.0932   59.3  0.1724 -137.4
 1.880  0.4760  155.3   5.354   68.7  0.0941   59.2  0.1722 -137.9
 1.900  0.4769  154.8   5.298   68.4  0.0950   59.1  0.1721 -138.3
 1.920  0.4775  154.4   5.246   68.1  0.0959   59.0  0.1721 -138.7
 1.940  0.4782  153.9   5.194   67.7  0.0968   58.8  0.1720 -139.2
 1.960  0.4789  153.5   5.142   67.3  0.0977   58.7  0.1720 -139.6
 1.980  0.4796  153.0   5.090   67.0  0.0986   58.5  0.1720 -140.1
 2.000  0.4803  152.6   5.039   66.6  0.0995   58.4  0.1720 -140.5
 2.020  0.4809  152.2   4.993   66.3  0.1004   58.2  0.1720 -141.0
 2.040  0.4816  151.7   4.947   66.0  0.1012   58.1  0.1721 -141.4
 2.060  0.4823  151.3   4.901   65.7  0.1021   57.9  0.1722 -141.9
 2.080  0.4831  150.9   4.856   65.4  0.1030   57.8  0.1722 -142.3
 2.100  0.4838  150.4   4.810   65.0  0.1038   57.6  0.1723 -142.8
 2.120  0.4846  150.0   4.765   64.7  0.1047   57.5  0.1724 -143.3
 2.140  0.4854  149.6   4.719   64.4  0.1056   57.3  0.1725 -143.7
 2.160  0.4862  149.1   4.674   64.0  0.1065   57.2  0.1726 -144.2
 2.180  0.4871  148.7   4.630   63.7  0.1073   57.0  0.1728 -144.6
 2.200  0.4880  148.3   4.585   63.3  0.1082   56.9  0.1729 -145.1
 2.220  0.4887  147.9   4.547   63.0  0.1091   56.7  0.1731 -145.6
 2.240  0.4894  147.5   4.508   62.7  0.1099   56.6  0.1733 -146.1
 2.260  0.4902  147.1   4.470   62.4  0.1108   56.4  0.1736 -146.5
 2.280  0.4910  146.6   4.432   62.0  0.1116   56.3  0.1738 -147.0
 2.300  0.4918  146.2   4.394   61.7  0.1125   56.1  0.1741 -147.5
 2.320  0.4926  145.8   4.356   61.4  0.1134   56.0  0.1743 -147.9
 2.340  0.4935  145.4   4.319   61.1  0.1142   55.8  0.1746 -148.4
 2.360  0.4944  145.0   4.281   60.7  0.1151   55.7  0.1749 -148.9
 2.380  0.4953  144.6   4.244   60.4  0.1159   55.5  0.1752 -149.3
 2.400  0.4962  144.2   4.207   60.0  0.1168   55.4  0.1755 -149.8
 2.420  0.4971  143.8   4.174   59.7  0.1176   55.2  0.1759 -150.3
 2.440  0.4980  143.4   4.141   59.4  0.1185   55.1  0.1764 -150.8
 2.460  0.4989  143.0   4.108   59.1  0.1193   54.9  0.1768 -151.2
 2.480  0.4998  142.6   4.075   58.8  0.1202   54.7  0.1773 -151.7
 2.500  0.5008  142.2   4.042   58.5  0.1210   54.6  0.1778 -152.2
 2.520  0.5017  141.8   4.010   58.1  0.1219   54.4  0.1782 -152.7
 2.540  0.5027  141.5   3.977   57.8  0.1227   54.3  0.1787 -153.1
 2.560  0.5038  141.1   3.945   57.5  0.1236   54.1  0.1792 -153.6
 2.580  0.5048  140.7   3.913   57.1  0.1244   54.0  0.1798 -154.0
 2.600  0.5059  140.3   3.881   56.8  0.1253   53.8  0.1803 -154.5
 2.620  0.5067  139.9   3.853   56.5  0.1261   53.6  0.1809 -155.0
 2.640  0.5076  139.6   3.825   56.2  0.1269   53.4  0.1815 -155.4
 2.660  0.5085  139.2   3.796   55.9  0.1277   53.3  0.1821 -155.9
 2.680  0.5094  138.8   3.768   55.6  0.1285   53.1  0.1827 -156.3
 2.700  0.5103  138.5   3.741   55.3  0.1293   52.9  0.1834 -156.7
 2.720  0.5112  138.1   3.713   55.0  0.1301   52.8  0.1840 -157.2
 2.740  0.5122  137.8   3.685   54.7  0.1310   52.6  0.1847 -157.6
 2.760  0.5132  137.4   3.658   54.4  0.1318   52.4  0.1853 -158.0
 2.780  0.5142  137.1   3.630   54.0  0.1326   52.3  0.1860 -158.5
 2.800  0.5152  136.7   3.603   53.7  0.1334   52.1  0.1867 -158.9
 2.820  0.5161  136.4   3.578   53.4  0.1342   51.9  0.1874 -159.3
 2.840  0.5170  136.0   3.553   53.1  0.1350   51.7  0.1881 -159.7
 2.860  0.5179  135.7   3.529   52.8  0.1358   51.6  0.1888 -160.1
 2.880  0.5188  135.3   3.504   52.6  0.1366   51.4  0.1895 -160.5
 2.900  0.5197  135.0   3.479   52.3  0.1374   51.2  0.1903 -160.9
 2.920  0.5207  134.6   3.455   52.0  0.1382   51.1  0.1910 -161.3
 2.940  0.5217  134.3   3.430   51.6  0.1390   50.9  0.1918 -161.7
 2.960  0.5227  134.0   3.406   51.3  0.1398   50.7  0.1925 -162.1
 2.980  0.5237  133.6   3.382   51.0  0.1406   50.6  0.1933 -162.5
 3.000  0.5247  133.3   3.358   50.7  0.1414   50.4  0.1941 -162.9
 3.100  0.5290  131.6   3.256   49.4  0.1451   49.5  0.1979 -164.9
 3.200  0.5338  129.9   3.155   48.1  0.1489   48.5  0.2019 -166.8
 3.300  0.5390  128.3   3.057   46.7  0.1527   47.7  0.2061 -168.6
 3.400  0.5446  126.7   2.960   45.1  0.1565   46.9  0.2105 -170.3
 3.500  0.5507  125.1   2.866   43.5  0.1604   46.1  0.2151 -172.0
 3.600  0.5563  123.6   2.788   42.3  0.1637   45.1  0.2196 -174.0
 3.700  0.5622  122.1   2.711   41.0  0.1671   44.2  0.2243 -175.9
 3.800  0.5685  120.7   2.636   39.6  0.1705   43.4  0.2293 -177.8
 3.900  0.5751  119.3   2.563   38.1  0.1739   42.5  0.2345 -179.5
 4.000  0.5821  117.9   2.491   36.6  0.1774   41.7  0.2399  178.8
 4.100  0.5875  116.7   2.429   35.4  0.1804   40.8  0.2457  177.0
 4.200  0.5932  115.4   2.368   34.2  0.1835   40.0  0.2517  175.2
 4.300  0.5991  114.2   2.309   33.0  0.1865   39.2  0.2579  173.6
 4.400  0.6053  113.1   2.250   31.6  0.1896   38.4  0.2643  172.0
 4.500  0.6118  111.9   2.193   30.2  0.1928   37.7  0.2709  170.5
 4.600  0.6160  110.8   2.145   29.1  0.1958   37.0  0.2756  169.3
 4.700  0.6204  109.7   2.098   28.0  0.1988   36.3  0.2805  168.1
 4.800  0.6250  108.6   2.052   26.8  0.2018   35.6  0.2855  166.9
 4.900  0.6299  107.5   2.006   25.6  0.2048   34.9  0.2906  165.8
 5.000  0.6350  106.4   1.962   24.3  0.2079   34.3  0.2958  164.7
 5.100  0.6379  105.5   1.925   23.3  0.2111   33.5  0.2989  163.8
 5.200  0.6409  104.5   1.888   22.3  0.2143   32.8  0.3021  162.8
 5.300  0.6442  103.6   1.853   21.2  0.2175   32.0  0.3054  161.9
 5.400  0.6476  102.7   1.817   20.1  0.2208   31.3  0.3088  161.1
 5.500  0.6511  101.8   1.783   18.9  0.2241   30.6  0.3122  160.2
 5.600  0.6532  101.0   1.754   17.9  0.2270   29.8  0.3159  159.4
 5.700  0.6554  100.2   1.725   16.8  0.2300   28.9  0.3196  158.5
 5.800  0.6577   99.4   1.696   15.7  0.2331   28.1  0.3234  157.7
 5.900  0.6601   98.7   1.669   14.5  0.2362   27.4  0.3273  157.0
 6.000  0.6627   97.9   1.642   13.3  0.2393   26.6  0.3312  156.2
 6.100  0.6633   97.1   1.617   12.3  0.2419   25.8  0.3337  155.7
 6.200  0.6640   96.3   1.592   11.3  0.2445   25.1  0.3362  155.2
 6.300  0.6648   95.6   1.568   10.3  0.2471   24.3  0.3388  154.7
 6.400  0.6657   94.8   1.544    9.2  0.2498   23.6  0.3414  154.2
 6.500  0.6668   94.0   1.521    8.1  0.2525   22.9  0.3440  153.7
 6.600  0.6663   93.1   1.501    7.1  0.2554   22.2  0.3436  153.3
 6.800  0.6659   91.2   1.464    5.1  0.2614   20.8  0.3430  152.6
 7.000  0.6661   89.4   1.428    3.0  0.2676   19.4  0.3424  151.8
 7.200  0.6678   87.2   1.398    0.9  0.2740   17.7  0.3420  150.4
 7.400  0.6704   85.1   1.369   -1.3  0.2807   16.2  0.3418  148.9
 7.600  0.6743   82.7   1.341   -3.6  0.2870   14.4  0.3435  147.1
 7.800  0.6797   80.2   1.313   -6.0  0.2930   12.5  0.3473  144.8
 8.000  0.6864   77.8   1.288   -8.5  0.2994   10.7  0.3516  142.6
 8.200  0.6919   75.2   1.255  -10.9  0.3035    8.5  0.3561  139.7
 8.400  0.6988   72.7   1.224  -13.4  0.3080    6.4  0.3615  137.0
 8.600  0.7080   70.2   1.191  -15.8  0.3108    4.4  0.3683  133.5
 8.800  0.7196   67.9   1.158  -18.0  0.3120    2.3  0.3773  129.4
 9.000  0.7323   65.7   1.126  -20.4  0.3135    0.2  0.3881  125.6
 9.200  0.7486   63.9   1.089  -22.3  0.3124   -1.4  0.4051  121.0
 9.400  0.7656   62.1   1.053  -24.3  0.3115   -3.0  0.4244  116.8
 9.600  0.7807   60.5   1.019  -26.0  0.3105   -4.3  0.4443  113.2
 9.800  0.7939   59.0   0.984  -27.5  0.3092   -5.3  0.4643  110.0
10.000  0.8077   57.6   0.951  -29.1  0.3081   -6.3  0.4855  107.1
!
!  f       NFmin   Gammaopt  rn/50
! GHz       dB    MAG  ANG    -
 0.450      1.67  0.27 -170   0.11
 0.900      1.70  0.24 -162   0.13
 1.900      1.79  0.34 -141   0.14
 3.500      1.63  0.57 -118   0.22
!
! (c) 2016  Infineon Technologies AG, Munich
