! Infineon Technologies  Discrete & RF Semiconductors
! BFP460
! VCE =  2.5 V,  IC =  40 mA
! Common Emitter S-Parameters:                            Jan 2016
# GHz  S  MA  R  50
!  f         S11            S21            S12            S22
! GHz     MAG   ANG      MAG   ANG      MAG   ANG      MAG   ANG
 0.030  0.4141  -24.0  61.973  169.0  0.0045   85.9  0.9129  -11.4
 0.035  0.4117  -27.8  61.488  167.1  0.0052   83.1  0.9083  -13.4
 0.040  0.4112  -31.7  61.074  165.1  0.0059   81.0  0.9049  -15.5
 0.045  0.4112  -35.2  60.406  163.1  0.0065   80.3  0.8979  -17.5
 0.050  0.4128  -38.7  59.812  161.1  0.0072   79.8  0.8919  -19.5
 0.055  0.4132  -42.2  59.228  159.5  0.0078   77.6  0.8836  -21.4
 0.060  0.4151  -45.6  58.690  157.9  0.0085   75.8  0.8764  -23.4
 0.065  0.4138  -49.4  58.105  156.1  0.0091   74.9  0.8669  -25.3
 0.070  0.4144  -53.3  57.578  154.3  0.0097   74.1  0.8584  -27.2
 0.075  0.4181  -56.5  56.836  152.9  0.0103   73.4  0.8481  -29.0
 0.080  0.4231  -59.7  56.131  151.4  0.0109   72.7  0.8387  -30.8
 0.085  0.4221  -62.7  55.314  149.9  0.0113   71.5  0.8272  -32.5
 0.090  0.4223  -65.8  54.538  148.3  0.0118   70.3  0.8164  -34.2
 0.095  0.4220  -68.4  53.653  147.0  0.0123   69.6  0.8053  -35.8
 0.100  0.4226  -70.9  52.798  145.6  0.0129   68.9  0.7949  -37.5
 0.105  0.4249  -73.6  52.074  144.3  0.0134   68.2  0.7831  -39.0
 0.110  0.4282  -76.2  51.379  142.9  0.0139   67.6  0.7719  -40.6
 0.115  0.4284  -79.0  50.555  141.6  0.0143   66.9  0.7605  -42.1
 0.120  0.4295  -81.7  49.757  140.3  0.0147   66.2  0.7496  -43.6
 0.125  0.4285  -83.9  48.966  139.2  0.0150   65.6  0.7381  -44.9
 0.130  0.4282  -86.2  48.194  138.0  0.0154   65.0  0.7270  -46.3
 0.135  0.4286  -88.5  47.449  136.9  0.0158   64.4  0.7159  -47.6
 0.140  0.4296  -90.8  46.723  135.7  0.0163   63.9  0.7052  -49.0
 0.145  0.4310  -92.9  45.902  134.6  0.0166   63.4  0.6943  -50.2
 0.150  0.4330  -95.0  45.098  133.5  0.0170   62.9  0.6837  -51.5
 0.155  0.4318  -96.7  44.390  132.7  0.0173   62.5  0.6732  -52.4
 0.160  0.4311  -98.4  43.691  132.0  0.0176   62.2  0.6629  -53.4
 0.165  0.4307 -100.1  43.000  131.1  0.0179   61.9  0.6527  -54.4
 0.170  0.4306 -101.8  42.318  130.3  0.0182   61.5  0.6428  -55.4
 0.175  0.4310 -103.6  41.645  129.5  0.0185   61.2  0.6330  -56.4
 0.180  0.4318 -105.3  40.981  128.6  0.0189   60.9  0.6235  -57.5
 0.185  0.4329 -107.0  40.328  127.6  0.0192   60.6  0.6143  -58.6
 0.190  0.4344 -108.7  39.686  126.7  0.0195   60.3  0.6052  -59.8
 0.195  0.4363 -110.3  39.055  125.7  0.0198   60.1  0.5964  -61.0
 0.200  0.4386 -112.0  38.436  124.7  0.0201   59.8  0.5879  -62.2
 0.220  0.4382 -117.0  36.218  122.3  0.0211   59.2  0.5559  -65.3
 0.240  0.4412 -122.0  34.073  119.6  0.0220   58.6  0.5257  -68.7
 0.260  0.4436 -126.4  32.161  117.2  0.0230   58.2  0.4989  -71.8
 0.280  0.4444 -130.2  30.449  115.2  0.0239   58.1  0.4746  -74.5
 0.300  0.4471 -134.0  28.777  113.0  0.0248   58.0  0.4514  -77.5
 0.320  0.4474 -137.0  27.395  111.5  0.0256   58.0  0.4321  -79.6
 0.340  0.4489 -139.9  26.034  109.8  0.0265   58.0  0.4135  -82.0
 0.360  0.4499 -142.6  24.810  108.3  0.0273   58.1  0.3968  -84.1
 0.380  0.4501 -145.1  23.714  107.0  0.0282   58.2  0.3819  -86.1
 0.400  0.4511 -147.6  22.632  105.5  0.0290   58.3  0.3675  -88.2
 0.420  0.4517 -149.6  21.730  104.4  0.0298   58.6  0.3554  -89.9
 0.440  0.4528 -151.6  20.837  103.3  0.0307   58.8  0.3436  -91.7
 0.450  0.4536 -152.6  20.393  102.7  0.0311   58.9  0.3378  -92.6
 0.460  0.4536 -153.4  20.022  102.3  0.0315   59.0  0.3328  -93.3
 0.480  0.4540 -155.1  19.283  101.3  0.0324   59.3  0.3231  -94.9
 0.500  0.4548 -156.8  18.550  100.3  0.0332   59.5  0.3136  -96.5
 0.520  0.4549 -158.2  17.968   99.6  0.0341   59.7  0.3060  -97.7
 0.540  0.4552 -159.7  17.390   98.8  0.0349   59.9  0.2986  -99.0
 0.560  0.4559 -161.1  16.814   98.0  0.0358   60.1  0.2914 -100.4
 0.580  0.4568 -162.6  16.243   97.1  0.0366   60.3  0.2843 -101.8
 0.600  0.4580 -164.0  15.676   96.1  0.0375   60.5  0.2774 -103.3
 0.620  0.4582 -165.1  15.248   95.5  0.0384   60.7  0.2721 -104.4
 0.640  0.4586 -166.2  14.822   94.9  0.0393   60.9  0.2669 -105.5
 0.660  0.4592 -167.4  14.397   94.2  0.0401   61.1  0.2619 -106.7
 0.680  0.4600 -168.5  13.975   93.5  0.0410   61.2  0.2569 -107.9
 0.700  0.4609 -169.6  13.555   92.7  0.0419   61.4  0.2521 -109.2
 0.720  0.4610 -170.5  13.229   92.2  0.0428   61.5  0.2483 -110.1
 0.740  0.4612 -171.5  12.904   91.6  0.0437   61.6  0.2446 -111.1
 0.760  0.4616 -172.4  12.580   91.0  0.0446   61.7  0.2410 -112.1
 0.780  0.4621 -173.4  12.257   90.4  0.0455   61.8  0.2374 -113.1
 0.800  0.4627 -174.3  11.936   89.8  0.0464   61.9  0.2339 -114.2
 0.820  0.4632 -175.1  11.681   89.3  0.0473   62.0  0.2311 -115.1
 0.840  0.4638 -175.9  11.426   88.8  0.0482   62.1  0.2284 -115.9
 0.860  0.4645 -176.8  11.172   88.3  0.0491   62.2  0.2258 -116.8
 0.880  0.4652 -177.6  10.920   87.8  0.0500   62.3  0.2231 -117.8
 0.900  0.4661 -178.4  10.668   87.2  0.0509   62.4  0.2206 -118.7
 0.920  0.4663 -179.1  10.461   86.8  0.0518   62.4  0.2185 -119.5
 0.940  0.4666 -179.8  10.255   86.3  0.0527   62.5  0.2165 -120.3
 0.960  0.4670  179.4  10.049   85.9  0.0537   62.5  0.2145 -121.1
 0.980  0.4674  178.7   9.844   85.4  0.0546   62.6  0.2125 -121.9
 1.000  0.4679  178.0   9.640   84.9  0.0555   62.6  0.2106 -122.7
 1.020  0.4681  177.3   9.469   84.5  0.0564   62.6  0.2091 -123.4
 1.040  0.4685  176.6   9.298   84.1  0.0573   62.6  0.2076 -124.1
 1.060  0.4688  176.0   9.128   83.6  0.0582   62.6  0.2062 -124.8
 1.080  0.4693  175.3   8.958   83.2  0.0591   62.6  0.2048 -125.5
 1.100  0.4698  174.6   8.789   82.7  0.0600   62.6  0.2034 -126.2
 1.120  0.4701  174.0   8.646   82.3  0.0609   62.6  0.2022 -126.8
 1.140  0.4705  173.4   8.502   81.9  0.0618   62.6  0.2010 -127.5
 1.160  0.4710  172.8   8.360   81.5  0.0628   62.5  0.1999 -128.1
 1.180  0.4715  172.2   8.218   81.0  0.0637   62.5  0.1988 -128.7
 1.200  0.4720  171.6   8.076   80.6  0.0646   62.5  0.1977 -129.4
 1.220  0.4724  171.0   7.954   80.2  0.0655   62.4  0.1969 -130.0
 1.240  0.4728  170.4   7.832   79.8  0.0665   62.4  0.1961 -130.6
 1.260  0.4733  169.9   7.710   79.4  0.0674   62.3  0.1953 -131.2
 1.280  0.4738  169.3   7.589   79.0  0.0684   62.3  0.1945 -131.8
 1.300  0.4744  168.7   7.468   78.6  0.0693   62.2  0.1938 -132.4
 1.320  0.4747  168.2   7.363   78.2  0.0702   62.1  0.1931 -132.9
 1.340  0.4751  167.7   7.259   77.9  0.0711   62.1  0.1923 -133.5
 1.360  0.4755  167.1   7.154   77.5  0.0721   62.0  0.1916 -134.0
 1.380  0.4759  166.6   7.051   77.1  0.0730   62.0  0.1910 -134.6
 1.400  0.4764  166.1   6.947   76.7  0.0739   61.9  0.1903 -135.1
 1.420  0.4769  165.6   6.856   76.4  0.0748   61.8  0.1899 -135.6
 1.440  0.4774  165.0   6.766   76.0  0.0758   61.7  0.1895 -136.1
 1.460  0.4780  164.5   6.676   75.6  0.0767   61.6  0.1891 -136.6
 1.480  0.4786  163.9   6.586   75.3  0.0777   61.5  0.1887 -137.1
 1.500  0.4793  163.4   6.496   74.9  0.0786   61.4  0.1883 -137.6
 1.520  0.4799  162.9   6.416   74.6  0.0795   61.3  0.1879 -138.1
 1.540  0.4805  162.4   6.336   74.2  0.0804   61.2  0.1876 -138.6
 1.560  0.4812  161.8   6.256   73.8  0.0813   61.2  0.1872 -139.1
 1.580  0.4819  161.3   6.176   73.5  0.0822   61.1  0.1869 -139.6
 1.600  0.4827  160.8   6.097   73.1  0.0831   61.0  0.1866 -140.1
 1.620  0.4830  160.4   6.027   72.8  0.0840   60.9  0.1864 -140.5
 1.640  0.4834  159.9   5.958   72.4  0.0850   60.8  0.1862 -141.0
 1.660  0.4838  159.5   5.889   72.0  0.0859   60.6  0.1860 -141.4
 1.680  0.4842  159.0   5.820   71.7  0.0869   60.5  0.1858 -141.9
 1.700  0.4847  158.6   5.751   71.3  0.0878   60.4  0.1856 -142.3
 1.720  0.4852  158.1   5.687   71.0  0.0887   60.3  0.1855 -142.7
 1.740  0.4857  157.7   5.624   70.6  0.0896   60.2  0.1854 -143.2
 1.760  0.4862  157.2   5.560   70.3  0.0906   60.0  0.1853 -143.6
 1.780  0.4868  156.8   5.497   70.0  0.0915   59.9  0.1853 -144.1
 1.800  0.4874  156.3   5.434   69.6  0.0924   59.8  0.1852 -144.5
 1.820  0.4880  155.8   5.378   69.3  0.0933   59.7  0.1851 -144.9
 1.840  0.4887  155.3   5.323   68.9  0.0942   59.5  0.1851 -145.3
 1.860  0.4894  154.9   5.268   68.6  0.0951   59.4  0.1851 -145.8
 1.880  0.4901  154.4   5.213   68.3  0.0960   59.2  0.1850 -146.2
 1.900  0.4909  153.9   5.158   67.9  0.0969   59.1  0.1850 -146.6
 1.920  0.4915  153.5   5.107   67.6  0.0978   59.0  0.1851 -147.0
 1.940  0.4922  153.0   5.056   67.2  0.0987   58.9  0.1851 -147.4
 1.960  0.4929  152.6   5.006   66.9  0.0997   58.7  0.1852 -147.9
 1.980  0.4936  152.1   4.955   66.6  0.1006   58.6  0.1853 -148.3
 2.000  0.4944  151.7   4.905   66.2  0.1015   58.5  0.1854 -148.7
 2.020  0.4951  151.3   4.860   65.9  0.1024   58.3  0.1856 -149.1
 2.040  0.4957  150.8   4.815   65.6  0.1033   58.2  0.1857 -149.6
 2.060  0.4965  150.4   4.771   65.2  0.1042   58.0  0.1859 -150.0
 2.080  0.4972  150.0   4.726   64.9  0.1051   57.8  0.1861 -150.4
 2.100  0.4980  149.6   4.682   64.6  0.1059   57.7  0.1863 -150.9
 2.120  0.4988  149.2   4.638   64.2  0.1068   57.5  0.1865 -151.3
 2.140  0.4996  148.7   4.594   63.9  0.1077   57.4  0.1867 -151.7
 2.160  0.5004  148.3   4.550   63.5  0.1086   57.2  0.1869 -152.1
 2.180  0.5013  147.9   4.506   63.2  0.1095   57.0  0.1872 -152.6
 2.200  0.5022  147.5   4.463   62.8  0.1104   56.9  0.1874 -153.0
 2.220  0.5029  147.1   4.426   62.5  0.1113   56.7  0.1877 -153.4
 2.240  0.5037  146.7   4.388   62.2  0.1122   56.6  0.1880 -153.9
 2.260  0.5044  146.3   4.351   61.9  0.1130   56.4  0.1884 -154.3
 2.280  0.5052  145.9   4.314   61.6  0.1139   56.2  0.1887 -154.8
 2.300  0.5060  145.5   4.277   61.3  0.1148   56.1  0.1891 -155.2
 2.320  0.5069  145.1   4.241   60.9  0.1157   55.9  0.1894 -155.7
 2.340  0.5078  144.7   4.204   60.6  0.1166   55.8  0.1898 -156.1
 2.360  0.5086  144.3   4.168   60.3  0.1174   55.6  0.1902 -156.5
 2.380  0.5096  143.9   4.131   59.9  0.1183   55.4  0.1906 -157.0
 2.400  0.5105  143.5   4.095   59.6  0.1192   55.3  0.1910 -157.4
 2.420  0.5114  143.1   4.063   59.3  0.1201   55.1  0.1915 -157.8
 2.440  0.5123  142.7   4.030   59.0  0.1209   54.9  0.1921 -158.3
 2.460  0.5132  142.3   3.998   58.7  0.1218   54.8  0.1926 -158.7
 2.480  0.5141  142.0   3.966   58.4  0.1226   54.6  0.1932 -159.1
 2.500  0.5151  141.6   3.934   58.1  0.1235   54.4  0.1937 -159.5
 2.520  0.5161  141.2   3.903   57.7  0.1243   54.3  0.1943 -159.9
 2.540  0.5171  140.8   3.871   57.4  0.1252   54.1  0.1949 -160.4
 2.560  0.5182  140.4   3.840   57.1  0.1261   53.9  0.1955 -160.8
 2.580  0.5192  140.1   3.808   56.7  0.1269   53.8  0.1961 -161.2
 2.600  0.5203  139.7   3.777   56.4  0.1278   53.6  0.1967 -161.6
 2.620  0.5210  139.3   3.749   56.1  0.1286   53.4  0.1974 -162.0
 2.640  0.5218  139.0   3.722   55.8  0.1295   53.2  0.1981 -162.4
 2.660  0.5225  138.6   3.694   55.5  0.1303   53.1  0.1988 -162.8
 2.680  0.5233  138.2   3.667   55.2  0.1311   52.9  0.1995 -163.2
 2.700  0.5241  137.8   3.640   54.9  0.1319   52.7  0.2002 -163.6
 2.720  0.5250  137.5   3.613   54.6  0.1328   52.6  0.2010 -164.0
 2.740  0.5258  137.1   3.585   54.3  0.1336   52.4  0.2017 -164.4
 2.760  0.5267  136.7   3.559   54.0  0.1344   52.2  0.2025 -164.8
 2.780  0.5276  136.4   3.532   53.6  0.1353   52.1  0.2032 -165.2
 2.800  0.5285  136.0   3.505   53.3  0.1361   51.9  0.2040 -165.6
 2.820  0.5294  135.7   3.481   53.0  0.1369   51.7  0.2048 -166.0
 2.840  0.5304  135.3   3.457   52.7  0.1377   51.5  0.2055 -166.3
 2.860  0.5314  135.0   3.433   52.4  0.1385   51.3  0.2063 -166.7
 2.880  0.5324  134.6   3.409   52.2  0.1393   51.2  0.2071 -167.1
 2.900  0.5334  134.3   3.385   51.9  0.1401   51.0  0.2079 -167.4
 2.920  0.5344  133.9   3.361   51.6  0.1409   50.8  0.2087 -167.8
 2.940  0.5354  133.6   3.337   51.2  0.1418   50.6  0.2095 -168.1
 2.960  0.5365  133.3   3.314   50.9  0.1426   50.4  0.2103 -168.5
 2.980  0.5376  132.9   3.290   50.6  0.1434   50.3  0.2112 -168.9
 3.000  0.5387  132.6   3.267   50.3  0.1442   50.1  0.2120 -169.2
 3.100  0.5429  130.9   3.167   49.0  0.1480   49.1  0.2160 -171.0
 3.200  0.5475  129.3   3.069   47.7  0.1518   48.2  0.2203 -172.7
 3.300  0.5525  127.7   2.972   46.2  0.1556   47.3  0.2247 -174.3
 3.400  0.5580  126.1   2.878   44.7  0.1595   46.4  0.2293 -175.9
 3.500  0.5639  124.6   2.786   43.0  0.1634   45.6  0.2341 -177.4
 3.600  0.5692  123.1   2.710   41.8  0.1668   44.6  0.2388 -179.2
 3.700  0.5750  121.6   2.636   40.5  0.1702   43.7  0.2437  179.0
 3.800  0.5810  120.2   2.563   39.2  0.1736   42.9  0.2489  177.3
 3.900  0.5875  118.8   2.492   37.7  0.1771   42.0  0.2542  175.7
 4.000  0.5943  117.4   2.422   36.2  0.1806   41.2  0.2598  174.1
 4.100  0.5996  116.2   2.362   35.0  0.1836   40.3  0.2657  172.4
 4.200  0.6051  115.0   2.303   33.8  0.1867   39.5  0.2719  170.8
 4.300  0.6109  113.8   2.245   32.6  0.1898   38.7  0.2782  169.3
 4.400  0.6169  112.6   2.188   31.2  0.1929   37.9  0.2847  167.9
 4.500  0.6232  111.5   2.132   29.8  0.1961   37.2  0.2914  166.5
 4.600  0.6272  110.4   2.085   28.7  0.1990   36.5  0.2961  165.3
 4.700  0.6315  109.3   2.039   27.6  0.2020   35.7  0.3009  164.2
 4.800  0.6359  108.2   1.994   26.4  0.2050   35.0  0.3059  163.1
 4.900  0.6407  107.1   1.949   25.2  0.2080   34.4  0.3109  162.0
 5.000  0.6456  106.0   1.906   23.9  0.2111   33.7  0.3161  161.0
 5.100  0.6484  105.1   1.870   22.9  0.2143   32.9  0.3191  160.1
 5.200  0.6514  104.1   1.835   21.9  0.2175   32.1  0.3222  159.2
 5.300  0.6546  103.2   1.800   20.8  0.2208   31.4  0.3254  158.4
 5.400  0.6579  102.3   1.766   19.7  0.2241   30.6  0.3286  157.5
 5.500  0.6614  101.4   1.733   18.5  0.2275   29.9  0.3319  156.7
 5.600  0.6634  100.6   1.704   17.5  0.2304   29.1  0.3354  155.9
 5.700  0.6655   99.8   1.676   16.4  0.2334   28.2  0.3389  155.1
 5.800  0.6677   99.0   1.649   15.3  0.2365   27.4  0.3425  154.4
 5.900  0.6700   98.3   1.622   14.2  0.2396   26.7  0.3462  153.6
 6.000  0.6725   97.5   1.596   13.0  0.2427   25.9  0.3499  152.9
 6.100  0.6729   96.7   1.572   12.0  0.2453   25.1  0.3522  152.4
 6.200  0.6735   95.9   1.548   11.1  0.2478   24.3  0.3546  151.9
 6.300  0.6742   95.2   1.524   10.0  0.2505   23.6  0.3570  151.4
 6.400  0.6751   94.4   1.501    9.0  0.2532   22.8  0.3594  150.9
 6.500  0.6760   93.6   1.479    7.9  0.2559   22.1  0.3618  150.4
 6.600  0.6754   92.7   1.460    6.9  0.2589   21.4  0.3612  150.0
 6.800  0.6747   90.8   1.424    4.9  0.2650   20.0  0.3602  149.2
 7.000  0.6748   88.9   1.390    2.8  0.2712   18.7  0.3592  148.4
 7.200  0.6763   86.7   1.361    0.7  0.2777   17.0  0.3586  146.9
 7.400  0.6787   84.6   1.334   -1.4  0.2844   15.4  0.3582  145.4
 7.600  0.6825   82.2   1.307   -3.7  0.2907   13.6  0.3598  143.6
 7.800  0.6879   79.7   1.280   -6.1  0.2967   11.7  0.3636  141.3
 8.000  0.6946   77.3   1.255   -8.7  0.3030    9.8  0.3680  139.1
 8.200  0.6999   74.7   1.223  -11.0  0.3070    7.6  0.3726  136.3
 8.400  0.7065   72.2   1.192  -13.5  0.3113    5.4  0.3780  133.6
 8.600  0.7156   69.7   1.161  -15.9  0.3140    3.4  0.3849  130.3
 8.800  0.7267   67.5   1.128  -18.2  0.3149    1.3  0.3942  126.3
 9.000  0.7390   65.3   1.097  -20.6  0.3163   -0.8  0.4052  122.6
 9.200  0.7550   63.4   1.061  -22.4  0.3150   -2.4  0.4223  118.2
 9.400  0.7717   61.7   1.026  -24.4  0.3139   -4.0  0.4417  114.2
 9.600  0.7866   60.0   0.992  -26.1  0.3127   -5.3  0.4614  110.7
 9.800  0.7995   58.5   0.959  -27.6  0.3112   -6.3  0.4810  107.6
10.000  0.8129   57.1   0.926  -29.2  0.3098   -7.3  0.5019  104.8
!
!  f       NFmin   Gammaopt  rn/50
! GHz       dB    MAG  ANG    -
 0.450      1.67  0.27 -170   0.11
 0.900      1.70  0.24 -162   0.13
 1.900      1.79  0.34 -141   0.14
 3.500      1.63  0.57 -118   0.22
!
! (c) 2016  Infineon Technologies AG, Munich
