! Infineon Technologies  Discrete & RF Semiconductors
! BFP460
! VCE =  4.0 V,  IC =  5.0 mA
! Common Emitter S-Parameters:                            Jan 2016
# GHz  S  MA  R  50
!  f         S11            S21            S12            S22
! GHz     MAG   ANG      MAG   ANG      MAG   ANG      MAG   ANG
 0.030  0.8777   -5.5  16.281  175.9  0.0057   83.2  0.9866   -3.9
 0.035  0.8767   -6.4  16.264  175.2  0.0066   83.3  0.9858   -4.4
 0.040  0.8759   -7.3  16.249  174.4  0.0076   83.4  0.9850   -5.0
 0.045  0.8749   -8.1  16.192  173.6  0.0084   83.5  0.9840   -5.4
 0.050  0.8741   -9.0  16.139  172.8  0.0093   83.6  0.9830   -5.9
 0.055  0.8750  -10.2  16.121  172.4  0.0103   82.9  0.9821   -6.5
 0.060  0.8763  -11.3  16.103  171.9  0.0114   82.3  0.9814   -7.1
 0.065  0.8728  -12.1  16.148  171.1  0.0124   81.7  0.9803   -7.7
 0.070  0.8694  -13.0  16.195  170.4  0.0134   81.2  0.9794   -8.3
 0.075  0.8722  -13.9  16.150  170.0  0.0142   80.9  0.9781   -8.9
 0.080  0.8752  -14.8  16.105  169.6  0.0151   80.7  0.9769   -9.5
 0.085  0.8714  -15.6  16.080  168.9  0.0160   80.4  0.9752  -10.0
 0.090  0.8677  -16.5  16.058  168.2  0.0170   80.2  0.9735  -10.6
 0.095  0.8668  -17.4  15.985  167.6  0.0179   79.7  0.9717  -11.2
 0.100  0.8661  -18.4  15.913  167.0  0.0188   79.2  0.9700  -11.8
 0.105  0.8658  -19.2  15.902  166.5  0.0197   78.6  0.9680  -12.4
 0.110  0.8657  -20.1  15.893  165.9  0.0206   78.1  0.9661  -13.0
 0.115  0.8634  -21.1  15.870  165.3  0.0214   77.7  0.9640  -13.5
 0.120  0.8614  -22.1  15.850  164.6  0.0223   77.3  0.9620  -14.1
 0.125  0.8594  -22.9  15.805  164.1  0.0232   76.9  0.9598  -14.6
 0.130  0.8576  -23.7  15.762  163.5  0.0241   76.5  0.9576  -15.2
 0.135  0.8561  -24.6  15.740  162.9  0.0249   75.9  0.9555  -15.7
 0.140  0.8549  -25.6  15.720  162.2  0.0258   75.4  0.9534  -16.3
 0.145  0.8524  -26.5  15.654  161.6  0.0266   74.9  0.9509  -16.9
 0.150  0.8501  -27.4  15.591  160.9  0.0275   74.5  0.9485  -17.5
 0.155  0.8474  -28.2  15.541  160.3  0.0283   74.0  0.9454  -18.0
 0.160  0.8449  -29.1  15.492  159.8  0.0291   73.5  0.9424  -18.5
 0.165  0.8425  -29.9  15.444  159.2  0.0299   73.0  0.9395  -19.1
 0.170  0.8404  -30.8  15.398  158.7  0.0308   72.6  0.9366  -19.6
 0.175  0.8384  -31.6  15.354  158.1  0.0316   72.2  0.9339  -20.1
 0.180  0.8366  -32.5  15.311  157.5  0.0324   71.8  0.9312  -20.6
 0.185  0.8350  -33.3  15.270  156.9  0.0332   71.4  0.9285  -21.2
 0.190  0.8336  -34.2  15.230  156.4  0.0340   71.1  0.9260  -21.7
 0.195  0.8323  -35.0  15.192  155.8  0.0349   70.7  0.9236  -22.3
 0.200  0.8313  -35.9  15.155  155.2  0.0357   70.4  0.9212  -22.8
 0.220  0.8202  -39.2  14.923  153.0  0.0386   68.5  0.9079  -24.8
 0.240  0.8119  -42.6  14.712  150.8  0.0416   66.9  0.8956  -26.8
 0.260  0.8030  -45.8  14.488  148.7  0.0444   65.4  0.8824  -28.7
 0.280  0.7931  -48.9  14.246  146.7  0.0470   63.9  0.8681  -30.6
 0.300  0.7856  -52.0  14.022  144.7  0.0496   62.5  0.8547  -32.5
 0.320  0.7743  -54.9  13.765  142.8  0.0519   61.0  0.8398  -34.2
 0.340  0.7651  -58.0  13.524  140.9  0.0543   59.7  0.8257  -35.9
 0.360  0.7555  -60.8  13.279  139.1  0.0565   58.5  0.8114  -37.6
 0.380  0.7453  -63.6  13.029  137.3  0.0585   57.2  0.7969  -39.1
 0.400  0.7368  -66.4  12.791  135.5  0.0606   56.1  0.7830  -40.7
 0.420  0.7259  -69.0  12.541  133.9  0.0624   54.9  0.7688  -42.1
 0.440  0.7166  -71.7  12.302  132.2  0.0643   53.8  0.7551  -43.6
 0.450  0.7126  -73.1  12.187  131.3  0.0652   53.3  0.7484  -44.4
 0.460  0.7076  -74.3  12.065  130.6  0.0660   52.8  0.7414  -45.0
 0.480  0.6984  -76.7  11.827  129.2  0.0676   51.8  0.7278  -46.3
 0.500  0.6905  -79.2  11.597  127.7  0.0692   50.9  0.7145  -47.6
 0.520  0.6803  -81.4  11.370  126.4  0.0705   50.0  0.7016  -48.7
 0.540  0.6711  -83.7  11.149  125.1  0.0718   49.2  0.6890  -49.8
 0.560  0.6631  -86.0  10.934  123.7  0.0731   48.4  0.6767  -51.0
 0.580  0.6561  -88.4  10.725  122.3  0.0744   47.6  0.6646  -52.2
 0.600  0.6503  -90.8  10.524  120.8  0.0757   46.8  0.6529  -53.5
 0.620  0.6421  -92.8  10.323  119.7  0.0767   46.1  0.6416  -54.4
 0.640  0.6347  -94.7  10.127  118.6  0.0778   45.5  0.6305  -55.4
 0.660  0.6280  -96.8   9.934  117.4  0.0788   44.8  0.6196  -56.4
 0.680  0.6222  -98.9   9.746  116.2  0.0798   44.2  0.6089  -57.4
 0.700  0.6172 -101.0   9.562  114.9  0.0809   43.6  0.5984  -58.5
 0.720  0.6106 -102.8   9.389  114.0  0.0817   43.1  0.5888  -59.3
 0.740  0.6047 -104.5   9.219  113.0  0.0826   42.5  0.5794  -60.1
 0.760  0.5993 -106.4   9.051  112.0  0.0834   42.0  0.5700  -60.9
 0.780  0.5945 -108.2   8.886  110.9  0.0842   41.5  0.5608  -61.8
 0.800  0.5904 -110.1   8.725  109.8  0.0851   41.0  0.5517  -62.7
 0.820  0.5851 -111.7   8.580  109.0  0.0858   40.6  0.5435  -63.4
 0.840  0.5803 -113.3   8.436  108.1  0.0865   40.2  0.5354  -64.1
 0.860  0.5759 -115.0   8.294  107.2  0.0872   39.8  0.5274  -64.8
 0.880  0.5721 -116.7   8.155  106.3  0.0880   39.5  0.5194  -65.5
 0.900  0.5687 -118.4   8.017  105.4  0.0887   39.1  0.5116  -66.3
 0.920  0.5643 -119.9   7.889  104.6  0.0893   38.8  0.5046  -66.9
 0.940  0.5602 -121.3   7.762  103.8  0.0899   38.4  0.4976  -67.6
 0.960  0.5566 -122.8   7.637  103.0  0.0905   38.1  0.4908  -68.2
 0.980  0.5533 -124.4   7.514  102.2  0.0911   37.8  0.4839  -68.9
 1.000  0.5504 -125.9   7.392  101.3  0.0917   37.5  0.4772  -69.6
 1.020  0.5471 -127.3   7.280  100.6  0.0922   37.3  0.4713  -70.2
 1.040  0.5441 -128.6   7.170   99.9  0.0928   37.0  0.4654  -70.7
 1.060  0.5414 -130.0   7.061   99.1  0.0933   36.8  0.4595  -71.3
 1.080  0.5390 -131.4   6.953   98.4  0.0939   36.5  0.4537  -71.9
 1.100  0.5369 -132.8   6.846   97.6  0.0944   36.3  0.4480  -72.5
 1.120  0.5341 -134.0   6.749   97.0  0.0949   36.1  0.4428  -73.0
 1.140  0.5315 -135.3   6.653   96.3  0.0954   35.9  0.4377  -73.5
 1.160  0.5292 -136.5   6.558   95.7  0.0959   35.7  0.4326  -74.1
 1.180  0.5271 -137.8   6.464   95.0  0.0964   35.5  0.4276  -74.6
 1.200  0.5253 -139.1   6.371   94.3  0.0969   35.3  0.4226  -75.2
 1.220  0.5233 -140.3   6.286   93.7  0.0974   35.1  0.4182  -75.7
 1.240  0.5216 -141.4   6.202   93.1  0.0978   35.0  0.4139  -76.1
 1.260  0.5201 -142.6   6.119   92.4  0.0983   34.8  0.4096  -76.6
 1.280  0.5188 -143.8   6.037   91.8  0.0987   34.7  0.4053  -77.1
 1.300  0.5177 -145.0   5.955   91.1  0.0992   34.5  0.4010  -77.6
 1.320  0.5160 -146.0   5.880   90.5  0.0996   34.4  0.3970  -78.0
 1.340  0.5145 -147.1   5.806   90.0  0.1001   34.3  0.3930  -78.5
 1.360  0.5131 -148.2   5.733   89.4  0.1005   34.1  0.3891  -79.0
 1.380  0.5119 -149.2   5.660   88.8  0.1010   34.0  0.3852  -79.4
 1.400  0.5109 -150.3   5.588   88.2  0.1014   33.9  0.3813  -79.9
 1.420  0.5095 -151.4   5.522   87.6  0.1018   33.8  0.3780  -80.3
 1.440  0.5083 -152.4   5.456   87.1  0.1023   33.7  0.3746  -80.7
 1.460  0.5073 -153.5   5.391   86.5  0.1027   33.6  0.3713  -81.1
 1.480  0.5064 -154.5   5.326   85.9  0.1032   33.5  0.3681  -81.6
 1.500  0.5057 -155.6   5.262   85.3  0.1036   33.4  0.3648  -82.0
 1.520  0.5047 -156.6   5.202   84.8  0.1040   33.3  0.3617  -82.4
 1.540  0.5039 -157.5   5.142   84.3  0.1044   33.2  0.3587  -82.8
 1.560  0.5032 -158.5   5.083   83.8  0.1048   33.2  0.3556  -83.2
 1.580  0.5027 -159.4   5.024   83.2  0.1052   33.1  0.3526  -83.7
 1.600  0.5023 -160.4   4.965   82.7  0.1056   33.0  0.3496  -84.1
 1.620  0.5017 -161.3   4.913   82.2  0.1060   32.9  0.3470  -84.5
 1.640  0.5013 -162.2   4.862   81.7  0.1065   32.8  0.3444  -84.8
 1.660  0.5010 -163.1   4.810   81.2  0.1069   32.8  0.3418  -85.2
 1.680  0.5008 -164.0   4.759   80.7  0.1074   32.7  0.3392  -85.6
 1.700  0.5007 -164.9   4.709   80.2  0.1078   32.6  0.3367  -86.0
 1.720  0.5001 -165.8   4.661   79.7  0.1082   32.5  0.3344  -86.4
 1.740  0.4996 -166.6   4.613   79.2  0.1086   32.5  0.3321  -86.8
 1.760  0.4992 -167.5   4.565   78.7  0.1090   32.4  0.3298  -87.2
 1.780  0.4990 -168.3   4.518   78.2  0.1094   32.4  0.3275  -87.6
 1.800  0.4988 -169.2   4.471   77.7  0.1098   32.3  0.3252  -88.0
 1.820  0.4986 -170.0   4.428   77.3  0.1102   32.3  0.3230  -88.4
 1.840  0.4984 -170.8   4.386   76.8  0.1106   32.2  0.3209  -88.7
 1.860  0.4984 -171.6   4.344   76.3  0.1111   32.2  0.3187  -89.1
 1.880  0.4984 -172.4   4.302   75.9  0.1115   32.1  0.3166  -89.5
 1.900  0.4986 -173.2   4.261   75.4  0.1119   32.1  0.3145  -89.9
 1.920  0.4986 -174.0   4.221   75.0  0.1123   32.1  0.3126  -90.3
 1.940  0.4987 -174.8   4.182   74.5  0.1127   32.0  0.3107  -90.6
 1.960  0.4989 -175.5   4.143   74.0  0.1132   32.0  0.3089  -91.0
 1.980  0.4992 -176.3   4.104   73.6  0.1136   31.9  0.3070  -91.4
 2.000  0.4996 -177.1   4.065   73.1  0.1140   31.9  0.3052  -91.8
 2.020  0.4995 -177.8   4.030   72.7  0.1144   31.8  0.3035  -92.2
 2.040  0.4995 -178.6   3.995   72.3  0.1148   31.8  0.3018  -92.5
 2.060  0.4996 -179.3   3.960   71.8  0.1153   31.7  0.3001  -92.9
 2.080  0.4998  179.9   3.925   71.4  0.1157   31.7  0.2984  -93.3
 2.100  0.5001  179.2   3.891   70.9  0.1161   31.6  0.2968  -93.7
 2.120  0.5004  178.4   3.857   70.5  0.1165   31.6  0.2951  -94.1
 2.140  0.5008  177.7   3.823   70.0  0.1169   31.5  0.2935  -94.5
 2.160  0.5013  177.0   3.789   69.6  0.1174   31.5  0.2919  -94.9
 2.180  0.5019  176.2   3.756   69.1  0.1178   31.4  0.2903  -95.3
 2.200  0.5026  175.5   3.723   68.6  0.1182   31.4  0.2887  -95.7
 2.220  0.5028  174.8   3.693   68.2  0.1186   31.4  0.2872  -96.1
 2.240  0.5030  174.2   3.664   67.8  0.1190   31.3  0.2858  -96.5
 2.260  0.5033  173.5   3.634   67.4  0.1195   31.3  0.2844  -96.9
 2.280  0.5037  172.8   3.605   67.0  0.1199   31.3  0.2829  -97.3
 2.300  0.5042  172.2   3.576   66.6  0.1203   31.2  0.2815  -97.7
 2.320  0.5047  171.5   3.547   66.2  0.1207   31.2  0.2801  -98.1
 2.340  0.5053  170.9   3.518   65.7  0.1211   31.2  0.2787  -98.5
 2.360  0.5059  170.2   3.489   65.3  0.1216   31.2  0.2774  -98.9
 2.380  0.5066  169.6   3.461   64.9  0.1220   31.1  0.2760  -99.4
 2.400  0.5074  168.9   3.433   64.4  0.1224   31.1  0.2747  -99.8
 2.420  0.5079  168.3   3.407   64.0  0.1228   31.1  0.2735 -100.2
 2.440  0.5085  167.6   3.381   63.6  0.1233   31.0  0.2724 -100.7
 2.460  0.5091  167.0   3.355   63.2  0.1237   31.0  0.2712 -101.1
 2.480  0.5098  166.4   3.330   62.8  0.1241   30.9  0.2701 -101.6
 2.500  0.5105  165.7   3.304   62.4  0.1245   30.9  0.2690 -102.0
 2.520  0.5113  165.1   3.279   62.0  0.1250   30.9  0.2679 -102.5
 2.540  0.5122  164.5   3.254   61.6  0.1254   30.8  0.2668 -102.9
 2.560  0.5131  163.8   3.229   61.2  0.1258   30.8  0.2658 -103.4
 2.580  0.5141  163.2   3.205   60.7  0.1263   30.7  0.2647 -103.8
 2.600  0.5152  162.6   3.180   60.3  0.1267   30.7  0.2637 -104.3
 2.620  0.5157  162.0   3.158   59.9  0.1271   30.7  0.2628 -104.7
 2.640  0.5163  161.4   3.135   59.6  0.1275   30.6  0.2619 -105.2
 2.660  0.5170  160.8   3.113   59.2  0.1280   30.6  0.2611 -105.6
 2.680  0.5177  160.2   3.091   58.8  0.1284   30.5  0.2602 -106.1
 2.700  0.5184  159.6   3.069   58.4  0.1288   30.5  0.2594 -106.6
 2.720  0.5192  159.0   3.047   58.0  0.1292   30.5  0.2586 -107.0
 2.740  0.5201  158.5   3.026   57.6  0.1296   30.4  0.2578 -107.5
 2.760  0.5210  157.9   3.004   57.2  0.1301   30.4  0.2570 -108.0
 2.780  0.5220  157.3   2.983   56.8  0.1305   30.3  0.2562 -108.4
 2.800  0.5230  156.7   2.962   56.4  0.1309   30.3  0.2555 -108.9
 2.820  0.5238  156.2   2.942   56.1  0.1313   30.3  0.2548 -109.4
 2.840  0.5246  155.6   2.922   55.7  0.1318   30.2  0.2542 -109.8
 2.860  0.5254  155.1   2.903   55.3  0.1322   30.2  0.2536 -110.3
 2.880  0.5263  154.6   2.883   55.0  0.1326   30.1  0.2529 -110.8
 2.900  0.5272  154.1   2.864   54.6  0.1330   30.1  0.2523 -111.2
 2.920  0.5282  153.6   2.845   54.2  0.1335   30.1  0.2518 -111.7
 2.940  0.5292  153.0   2.826   53.9  0.1339   30.0  0.2512 -112.2
 2.960  0.5303  152.5   2.807   53.5  0.1343   30.0  0.2506 -112.6
 2.980  0.5314  152.0   2.788   53.1  0.1348   29.9  0.2501 -113.1
 3.000  0.5325  151.5   2.769   52.7  0.1352   29.9  0.2496 -113.6
 3.100  0.5357  149.0   2.685   51.1  0.1373   29.6  0.2475 -115.8
 3.200  0.5398  146.6   2.604   49.4  0.1395   29.4  0.2457 -118.0
 3.300  0.5449  144.2   2.525   47.6  0.1416   29.2  0.2443 -120.3
 3.400  0.5509  141.9   2.449   45.7  0.1438   28.9  0.2433 -122.6
 3.500  0.5578  139.6   2.375   43.7  0.1459   28.7  0.2427 -124.9
 3.600  0.5625  137.5   2.311   42.2  0.1480   28.4  0.2417 -127.3
 3.700  0.5679  135.4   2.248   40.7  0.1501   28.2  0.2411 -129.8
 3.800  0.5740  133.4   2.186   39.1  0.1522   27.9  0.2410 -132.2
 3.900  0.5809  131.4   2.127   37.3  0.1543   27.6  0.2413 -134.7
 4.000  0.5884  129.5   2.070   35.5  0.1564   27.4  0.2421 -137.1
 4.100  0.5934  127.8   2.019   34.1  0.1585   27.1  0.2436 -139.6
 4.200  0.5990  126.1   1.969   32.7  0.1605   26.8  0.2455 -142.0
 4.300  0.6050  124.5   1.920   31.2  0.1626   26.5  0.2479 -144.4
 4.400  0.6116  122.9   1.873   29.6  0.1646   26.3  0.2507 -146.8
 4.500  0.6186  121.3   1.827   27.9  0.1667   26.0  0.2539 -149.1
 4.600  0.6226  119.9   1.786   26.6  0.1689   25.8  0.2571 -151.0
 4.700  0.6269  118.5   1.746   25.3  0.1711   25.6  0.2605 -152.8
 4.800  0.6316  117.1   1.707   23.9  0.1734   25.4  0.2642 -154.6
 4.900  0.6367  115.7   1.670   22.4  0.1756   25.2  0.2681 -156.3
 5.000  0.6421  114.4   1.633   20.9  0.1778   25.0  0.2723 -158.0
 5.100  0.6453  113.3   1.601   19.7  0.1805   24.7  0.2757 -159.4
 5.200  0.6487  112.1   1.570   18.5  0.1831   24.4  0.2792 -160.7
 5.300  0.6523  111.0   1.539   17.3  0.1858   24.1  0.2828 -162.0
 5.400  0.6562  109.9   1.509   16.0  0.1884   23.9  0.2867 -163.3
 5.500  0.6604  108.8   1.480   14.6  0.1911   23.6  0.2906 -164.5
 5.600  0.6630  107.8   1.455   13.4  0.1938   23.2  0.2949 -165.9
 5.700  0.6658  106.9   1.430   12.2  0.1964   22.7  0.2993 -167.2
 5.800  0.6687  106.0   1.405   11.0  0.1991   22.3  0.3040 -168.5
 5.900  0.6719  105.0   1.382    9.7  0.2018   21.9  0.3087 -169.7
 6.000  0.6752  104.1   1.359    8.4  0.2045   21.5  0.3136 -170.9
 6.100  0.6760  103.2   1.337    7.3  0.2070   21.0  0.3179 -171.9
 6.200  0.6770  102.3   1.315    6.2  0.2094   20.6  0.3223 -172.9
 6.300  0.6781  101.4   1.294    5.1  0.2119   20.1  0.3268 -173.8
 6.400  0.6794  100.5   1.274    3.9  0.2144   19.7  0.3313 -174.7
 6.500  0.6809   99.6   1.254    2.7  0.2169   19.3  0.3360 -175.6
 6.600  0.6807   98.6   1.237    1.7  0.2197   18.9  0.3381 -176.2
 6.800  0.6811   96.5   1.203   -0.5  0.2254   18.1  0.3425 -177.4
 7.000  0.6823   94.5   1.171   -2.7  0.2312   17.3  0.3471 -178.6
 7.200  0.6850   92.1   1.144   -4.9  0.2378   16.2  0.3495  179.7
 7.400  0.6889   89.8   1.119   -7.1  0.2445   15.1  0.3522  177.9
 7.600  0.6939   87.2   1.094   -9.5  0.2512   13.8  0.3555  175.7
 7.800  0.7003   84.5   1.070  -12.0  0.2579   12.4  0.3597  173.1
 8.000  0.7082   81.8   1.048  -14.6  0.2647   11.0  0.3646  170.5
 8.200  0.7140   78.9   1.020  -17.0  0.2702    9.2  0.3683  167.3
 8.400  0.7216   76.0   0.993  -19.5  0.2759    7.4  0.3731  164.1
 8.600  0.7311   73.3   0.966  -21.9  0.2802    5.6  0.3774  160.3
 8.800  0.7423   70.7   0.938  -24.1  0.2832    3.7  0.3823  155.8
 9.000  0.7549   68.2   0.912  -26.5  0.2864    1.9  0.3895  151.4
 9.200  0.7702   66.1   0.882  -28.4  0.2871    0.4  0.4011  145.8
 9.400  0.7865   64.2   0.852  -30.4  0.2881   -1.1  0.4162  140.6
 9.600  0.8006   62.4   0.823  -32.2  0.2887   -2.4  0.4338  135.9
 9.800  0.8122   60.7   0.794  -33.8  0.2890   -3.3  0.4534  131.7
10.000  0.8245   59.1   0.765  -35.5  0.2893   -4.3  0.4752  127.8
!
!  f       NFmin   Gammaopt  rn/50
! GHz       dB    MAG  ANG    -
 0.450      0.78  0.33   16   0.17
 0.900      0.80  0.34   31   0.17
 1.900      1.06  0.17   97   0.13
 3.500      1.24  0.33 -153   0.10
!
! (c) 2016  Infineon Technologies AG, Munich
