! Infineon Technologies  Discrete & RF Semiconductors
! BFP460
! VCE =  2.0 V,  IC =  10 mA
! Common Emitter S-Parameters:                            Jan 2016
# GHz  S  MA  R  50
!  f         S11            S21            S12            S22
! GHz     MAG   ANG      MAG   ANG      MAG   ANG      MAG   ANG
 0.030  0.7643   -9.4  28.653  174.3  0.0059   85.3  0.9714   -6.2
 0.035  0.7625  -10.9  28.587  173.2  0.0068   84.4  0.9695   -7.2
 0.040  0.7613  -12.4  28.531  172.1  0.0077   83.7  0.9680   -8.3
 0.045  0.7595  -13.9  28.409  170.8  0.0086   82.9  0.9659   -9.3
 0.050  0.7583  -15.5  28.302  169.5  0.0096   82.2  0.9642  -10.4
 0.055  0.7559  -17.1  28.229  168.7  0.0106   81.4  0.9616  -11.4
 0.060  0.7542  -18.8  28.163  167.8  0.0117   80.8  0.9594  -12.5
 0.065  0.7516  -20.2  28.156  166.7  0.0125   80.5  0.9565  -13.5
 0.070  0.7494  -21.6  28.160  165.6  0.0134   80.2  0.9539  -14.5
 0.075  0.7503  -23.1  28.032  164.9  0.0143   79.1  0.9501  -15.5
 0.080  0.7517  -24.5  27.908  164.2  0.0152   78.1  0.9467  -16.6
 0.085  0.7490  -26.1  27.793  163.2  0.0160   77.4  0.9427  -17.6
 0.090  0.7469  -27.7  27.686  162.2  0.0169   76.7  0.9390  -18.6
 0.095  0.7441  -29.1  27.481  161.4  0.0177   76.0  0.9350  -19.5
 0.100  0.7418  -30.6  27.282  160.5  0.0186   75.3  0.9312  -20.5
 0.105  0.7399  -32.0  27.183  159.6  0.0195   74.8  0.9266  -21.5
 0.110  0.7384  -33.4  27.091  158.7  0.0204   74.3  0.9222  -22.5
 0.115  0.7347  -34.8  26.955  157.8  0.0212   73.5  0.9174  -23.4
 0.120  0.7314  -36.3  26.826  156.8  0.0220   72.8  0.9128  -24.4
 0.125  0.7276  -37.6  26.669  156.0  0.0228   72.1  0.9073  -25.3
 0.130  0.7242  -39.0  26.517  155.2  0.0236   71.4  0.9021  -26.2
 0.135  0.7223  -40.4  26.374  154.3  0.0243   70.9  0.8971  -27.1
 0.140  0.7208  -41.9  26.238  153.4  0.0251   70.5  0.8923  -28.0
 0.145  0.7173  -43.2  26.035  152.5  0.0258   69.8  0.8868  -28.9
 0.150  0.7142  -44.5  25.838  151.6  0.0266   69.2  0.8815  -29.8
 0.155  0.7097  -45.7  25.651  150.9  0.0272   68.5  0.8750  -30.6
 0.160  0.7056  -47.0  25.467  150.2  0.0279   67.9  0.8687  -31.4
 0.165  0.7018  -48.2  25.288  149.4  0.0286   67.3  0.8625  -32.2
 0.170  0.6984  -49.5  25.113  148.7  0.0292   66.7  0.8566  -33.0
 0.175  0.6953  -50.8  24.942  147.9  0.0299   66.2  0.8508  -33.9
 0.180  0.6926  -52.1  24.776  147.2  0.0305   65.7  0.8451  -34.7
 0.185  0.6902  -53.4  24.614  146.4  0.0312   65.2  0.8397  -35.6
 0.190  0.6882  -54.7  24.457  145.6  0.0319   64.7  0.8345  -36.4
 0.195  0.6866  -56.1  24.304  144.8  0.0325   64.2  0.8294  -37.3
 0.200  0.6853  -57.4  24.156  144.0  0.0332   63.8  0.8246  -38.2
 0.220  0.6699  -61.9  23.402  141.4  0.0354   61.8  0.7998  -41.0
 0.240  0.6589  -66.6  22.699  138.6  0.0376   60.1  0.7770  -44.0
 0.260  0.6483  -71.0  22.006  136.1  0.0396   58.5  0.7543  -46.7
 0.280  0.6371  -75.1  21.308  133.8  0.0414   57.0  0.7311  -49.3
 0.300  0.6293  -79.3  20.646  131.4  0.0432   55.7  0.7095  -52.0
 0.320  0.6176  -82.9  19.981  129.4  0.0447   54.5  0.6880  -54.1
 0.340  0.6085  -86.7  19.342  127.3  0.0462   53.4  0.6675  -56.4
 0.360  0.5997  -90.2  18.734  125.4  0.0476   52.4  0.6479  -58.5
 0.380  0.5906  -93.5  18.150  123.6  0.0489   51.5  0.6290  -60.5
 0.400  0.5836  -96.9  17.584  121.7  0.0501   50.6  0.6108  -62.6
 0.420  0.5751  -99.8  17.051  120.2  0.0512   49.9  0.5938  -64.3
 0.440  0.5682 -102.9  16.530  118.6  0.0523   49.1  0.5773  -66.1
 0.450  0.5653 -104.4  16.274  117.8  0.0528   48.8  0.5693  -67.1
 0.460  0.5619 -105.7  16.038  117.2  0.0533   48.5  0.5617  -67.8
 0.480  0.5559 -108.4  15.571  115.8  0.0543   48.0  0.5469  -69.4
 0.500  0.5511 -111.1  15.114  114.4  0.0553   47.5  0.5324  -71.0
 0.520  0.5447 -113.3  14.712  113.3  0.0561   47.1  0.5196  -72.3
 0.540  0.5391 -115.6  14.316  112.2  0.0569   46.7  0.5071  -73.6
 0.560  0.5345 -117.9  13.925  111.0  0.0578   46.3  0.4948  -75.0
 0.580  0.5307 -120.3  13.541  109.7  0.0586   46.0  0.4829  -76.5
 0.600  0.5278 -122.7  13.164  108.4  0.0594   45.6  0.4713  -78.0
 0.620  0.5234 -124.6  12.847  107.5  0.0601   45.4  0.4613  -79.1
 0.640  0.5197 -126.5  12.534  106.6  0.0608   45.2  0.4515  -80.2
 0.660  0.5165 -128.5  12.224  105.6  0.0616   45.0  0.4419  -81.4
 0.680  0.5139 -130.5  11.917  104.6  0.0623   44.8  0.4325  -82.6
 0.700  0.5120 -132.5  11.615  103.5  0.0630   44.6  0.4233  -83.9
 0.720  0.5090 -134.1  11.361  102.8  0.0637   44.5  0.4155  -84.8
 0.740  0.5065 -135.7  11.109  102.0  0.0644   44.4  0.4079  -85.8
 0.760  0.5043 -137.4  10.859  101.2  0.0650   44.2  0.4004  -86.8
 0.780  0.5026 -139.0  10.611  100.3  0.0657   44.1  0.3930  -87.9
 0.800  0.5013 -140.7  10.366   99.4  0.0664   44.0  0.3857  -89.0
 0.820  0.4992 -142.1  10.162   98.7  0.0671   44.0  0.3795  -89.8
 0.840  0.4974 -143.5   9.959   98.0  0.0677   43.9  0.3733  -90.7
 0.860  0.4959 -144.9   9.757   97.3  0.0684   43.9  0.3673  -91.6
 0.880  0.4947 -146.4   9.557   96.6  0.0690   43.8  0.3614  -92.5
 0.900  0.4938 -147.8   9.359   95.8  0.0697   43.8  0.3555  -93.5
 0.920  0.4922 -149.1   9.188   95.2  0.0704   43.8  0.3505  -94.3
 0.940  0.4909 -150.3   9.019   94.6  0.0710   43.8  0.3456  -95.1
 0.960  0.4898 -151.6   8.850   93.9  0.0717   43.8  0.3407  -95.9
 0.980  0.4889 -152.9   8.683   93.2  0.0723   43.8  0.3359  -96.7
 1.000  0.4883 -154.2   8.517   92.5  0.0730   43.8  0.3312  -97.6
 1.020  0.4872 -155.3   8.374   92.0  0.0736   43.8  0.3272  -98.3
 1.040  0.4864 -156.4   8.231   91.4  0.0743   43.8  0.3232  -99.1
 1.060  0.4857 -157.5   8.090   90.8  0.0749   43.8  0.3193  -99.8
 1.080  0.4851 -158.6   7.949   90.2  0.0756   43.8  0.3155 -100.6
 1.100  0.4848 -159.7   7.809   89.6  0.0762   43.8  0.3117 -101.4
 1.120  0.4842 -160.7   7.687   89.1  0.0769   43.8  0.3084 -102.1
 1.140  0.4837 -161.7   7.566   88.5  0.0776   43.8  0.3050 -102.8
 1.160  0.4834 -162.8   7.446   88.0  0.0782   43.9  0.3018 -103.5
 1.180  0.4832 -163.8   7.326   87.4  0.0789   43.9  0.2986 -104.2
 1.200  0.4832 -164.8   7.207   86.8  0.0796   43.9  0.2954 -104.9
 1.220  0.4829 -165.7   7.103   86.3  0.0803   43.9  0.2927 -105.5
 1.240  0.4827 -166.6   6.999   85.8  0.0809   43.9  0.2901 -106.1
 1.260  0.4826 -167.5   6.896   85.3  0.0816   44.0  0.2874 -106.8
 1.280  0.4826 -168.4   6.793   84.8  0.0822   44.0  0.2848 -107.4
 1.300  0.4828 -169.3   6.691   84.3  0.0829   44.0  0.2823 -108.1
 1.320  0.4825 -170.1   6.600   83.8  0.0836   44.0  0.2799 -108.7
 1.340  0.4823 -171.0   6.509   83.4  0.0842   44.0  0.2775 -109.3
 1.360  0.4822 -171.8   6.419   82.9  0.0849   44.1  0.2752 -109.9
 1.380  0.4823 -172.7   6.329   82.4  0.0855   44.1  0.2729 -110.6
 1.400  0.4824 -173.5   6.240   81.9  0.0862   44.1  0.2706 -111.2
 1.420  0.4823 -174.3   6.161   81.5  0.0869   44.1  0.2687 -111.8
 1.440  0.4822 -175.1   6.082   81.0  0.0876   44.1  0.2669 -112.3
 1.460  0.4822 -175.9   6.004   80.6  0.0883   44.1  0.2651 -112.9
 1.480  0.4824 -176.7   5.926   80.1  0.0890   44.1  0.2633 -113.5
 1.500  0.4826 -177.5   5.849   79.6  0.0897   44.1  0.2615 -114.1
 1.520  0.4827 -178.3   5.779   79.2  0.0904   44.1  0.2598 -114.6
 1.540  0.4828 -179.1   5.708   78.8  0.0911   44.1  0.2582 -115.2
 1.560  0.4831 -179.8   5.639   78.4  0.0917   44.2  0.2566 -115.8
 1.580  0.4834  179.4   5.569   77.9  0.0924   44.2  0.2550 -116.3
 1.600  0.4838  178.6   5.500   77.5  0.0931   44.2  0.2534 -116.9
 1.620  0.4840  177.9   5.439   77.1  0.0938   44.2  0.2520 -117.4
 1.640  0.4842  177.3   5.378   76.6  0.0945   44.2  0.2507 -117.9
 1.660  0.4846  176.6   5.317   76.2  0.0953   44.1  0.2493 -118.4
 1.680  0.4850  176.0   5.257   75.8  0.0960   44.1  0.2480 -119.0
 1.700  0.4854  175.3   5.197   75.3  0.0967   44.1  0.2467 -119.5
 1.720  0.4856  174.6   5.141   74.9  0.0974   44.1  0.2456 -120.0
 1.740  0.4859  173.9   5.085   74.5  0.0981   44.1  0.2444 -120.6
 1.760  0.4863  173.3   5.029   74.1  0.0988   44.0  0.2433 -121.1
 1.780  0.4867  172.6   4.974   73.7  0.0995   44.0  0.2423 -121.7
 1.800  0.4872  171.9   4.919   73.3  0.1002   44.0  0.2412 -122.2
 1.820  0.4876  171.3   4.870   72.9  0.1009   44.0  0.2402 -122.7
 1.840  0.4880  170.7   4.821   72.5  0.1016   44.0  0.2391 -123.2
 1.860  0.4885  170.0   4.772   72.1  0.1024   43.9  0.2381 -123.7
 1.880  0.4891  169.4   4.724   71.7  0.1031   43.9  0.2372 -124.3
 1.900  0.4897  168.8   4.676   71.3  0.1038   43.9  0.2362 -124.8
 1.920  0.4902  168.2   4.631   70.9  0.1045   43.9  0.2354 -125.3
 1.940  0.4908  167.6   4.586   70.5  0.1052   43.8  0.2345 -125.8
 1.960  0.4914  166.9   4.541   70.1  0.1059   43.8  0.2337 -126.3
 1.980  0.4921  166.3   4.497   69.6  0.1066   43.7  0.2330 -126.8
 2.000  0.4929  165.7   4.453   69.2  0.1073   43.7  0.2322 -127.3
 2.020  0.4934  165.1   4.413   68.9  0.1080   43.6  0.2315 -127.8
 2.040  0.4939  164.5   4.373   68.5  0.1087   43.6  0.2309 -128.3
 2.060  0.4944  164.0   4.333   68.1  0.1095   43.5  0.2302 -128.8
 2.080  0.4950  163.4   4.293   67.8  0.1102   43.5  0.2296 -129.3
 2.100  0.4957  162.8   4.254   67.4  0.1109   43.4  0.2290 -129.9
 2.120  0.4964  162.3   4.214   67.0  0.1116   43.4  0.2284 -130.4
 2.140  0.4971  161.7   4.175   66.6  0.1123   43.3  0.2278 -130.9
 2.160  0.4979  161.1   4.136   66.2  0.1131   43.3  0.2272 -131.4
 2.180  0.4988  160.6   4.098   65.8  0.1138   43.2  0.2267 -132.0
 2.200  0.4997  160.0   4.059   65.4  0.1145   43.2  0.2262 -132.5
 2.220  0.5003  159.5   4.026   65.1  0.1152   43.1  0.2257 -133.0
 2.240  0.5010  158.9   3.992   64.7  0.1159   43.1  0.2253 -133.5
 2.260  0.5018  158.4   3.959   64.4  0.1167   43.0  0.2249 -134.0
 2.280  0.5025  157.9   3.926   64.0  0.1174   42.9  0.2245 -134.6
 2.300  0.5034  157.3   3.893   63.6  0.1181   42.8  0.2241 -135.1
 2.320  0.5042  156.8   3.861   63.3  0.1188   42.8  0.2237 -135.6
 2.340  0.5051  156.3   3.828   62.9  0.1195   42.7  0.2233 -136.1
 2.360  0.5061  155.7   3.796   62.5  0.1203   42.6  0.2230 -136.6
 2.380  0.5071  155.2   3.764   62.1  0.1210   42.6  0.2227 -137.2
 2.400  0.5081  154.7   3.732   61.7  0.1217   42.5  0.2224 -137.7
 2.420  0.5088  154.2   3.703   61.4  0.1224   42.4  0.2222 -138.2
 2.440  0.5096  153.7   3.674   61.0  0.1231   42.3  0.2221 -138.8
 2.460  0.5104  153.2   3.645   60.7  0.1238   42.3  0.2220 -139.3
 2.480  0.5113  152.7   3.617   60.3  0.1245   42.2  0.2219 -139.8
 2.500  0.5122  152.2   3.588   60.0  0.1252   42.1  0.2218 -140.3
 2.520  0.5131  151.7   3.560   59.6  0.1259   42.0  0.2217 -140.9
 2.540  0.5141  151.2   3.532   59.2  0.1266   41.9  0.2216 -141.4
 2.560  0.5151  150.7   3.504   58.9  0.1273   41.9  0.2216 -141.9
 2.580  0.5161  150.2   3.476   58.5  0.1280   41.8  0.2216 -142.5
 2.600  0.5172  149.7   3.448   58.1  0.1287   41.7  0.2216 -143.0
 2.620  0.5179  149.2   3.423   57.8  0.1294   41.6  0.2217 -143.5
 2.640  0.5186  148.8   3.398   57.5  0.1301   41.5  0.2218 -144.0
 2.660  0.5194  148.3   3.373   57.1  0.1308   41.4  0.2219 -144.5
 2.680  0.5202  147.8   3.349   56.8  0.1315   41.3  0.2220 -145.0
 2.700  0.5211  147.4   3.324   56.5  0.1321   41.2  0.2221 -145.5
 2.720  0.5220  146.9   3.300   56.1  0.1328   41.1  0.2223 -146.0
 2.740  0.5229  146.5   3.275   55.8  0.1335   41.0  0.2225 -146.5
 2.760  0.5238  146.0   3.251   55.4  0.1342   40.9  0.2227 -147.0
 2.780  0.5248  145.6   3.227   55.1  0.1349   40.8  0.2229 -147.5
 2.800  0.5258  145.1   3.203   54.7  0.1356   40.7  0.2231 -148.0
 2.820  0.5267  144.7   3.181   54.4  0.1363   40.6  0.2233 -148.5
 2.840  0.5277  144.2   3.159   54.1  0.1370   40.5  0.2236 -149.0
 2.860  0.5286  143.8   3.137   53.7  0.1377   40.4  0.2239 -149.5
 2.880  0.5297  143.4   3.115   53.4  0.1384   40.3  0.2242 -149.9
 2.900  0.5307  143.0   3.094   53.1  0.1390   40.2  0.2245 -150.4
 2.920  0.5318  142.6   3.072   52.7  0.1397   40.1  0.2248 -150.9
 2.940  0.5329  142.1   3.051   52.4  0.1404   40.0  0.2251 -151.4
 2.960  0.5340  141.7   3.029   52.0  0.1411   39.9  0.2255 -151.9
 2.980  0.5351  141.3   3.008   51.7  0.1418   39.8  0.2258 -152.3
 3.000  0.5363  140.9   2.987   51.3  0.1425   39.7  0.2262 -152.8
 3.100  0.5401  138.9   2.896   49.9  0.1457   39.1  0.2280 -155.0
 3.200  0.5446  136.9   2.808   48.4  0.1490   38.5  0.2302 -157.2
 3.300  0.5497  134.9   2.721   46.9  0.1522   37.9  0.2327 -159.3
 3.400  0.5554  133.0   2.636   45.2  0.1555   37.3  0.2355 -161.4
 3.500  0.5618  131.1   2.554   43.4  0.1588   36.8  0.2386 -163.4
 3.600  0.5669  129.3   2.484   42.1  0.1618   36.1  0.2414 -165.6
 3.700  0.5725  127.6   2.416   40.6  0.1648   35.5  0.2446 -167.7
 3.800  0.5786  125.9   2.349   39.2  0.1678   34.9  0.2481 -169.8
 3.900  0.5853  124.2   2.284   37.6  0.1708   34.3  0.2520 -171.8
 4.000  0.5924  122.6   2.221   35.9  0.1739   33.7  0.2561 -173.8
 4.100  0.5976  121.1   2.166   34.7  0.1766   33.1  0.2606 -175.8
 4.200  0.6032  119.7   2.111   33.3  0.1793   32.5  0.2654 -177.6
 4.300  0.6091  118.3   2.058   32.0  0.1820   31.9  0.2705 -179.5
 4.400  0.6154  116.9   2.006   30.5  0.1847   31.3  0.2759  178.8
 4.500  0.6221  115.6   1.956   29.0  0.1875   30.8  0.2815  177.1
 4.600  0.6260  114.3   1.913   27.9  0.1902   30.3  0.2856  175.7
 4.700  0.6301  113.1   1.871   26.6  0.1929   29.7  0.2899  174.4
 4.800  0.6346  111.9   1.829   25.4  0.1956   29.2  0.2944  173.1
 4.900  0.6393  110.7   1.789   24.1  0.1983   28.7  0.2990  171.9
 5.000  0.6443  109.5   1.749   22.7  0.2010   28.2  0.3037  170.7
 5.100  0.6472  108.5   1.716   21.6  0.2040   27.6  0.3067  169.7
 5.200  0.6503  107.4   1.683   20.6  0.2070   27.0  0.3098  168.7
 5.300  0.6536  106.4   1.651   19.4  0.2101   26.5  0.3129  167.8
 5.400  0.6572  105.4   1.620   18.2  0.2131   25.9  0.3162  166.8
 5.500  0.6609  104.4   1.589   17.0  0.2162   25.4  0.3195  165.9
 5.600  0.6631  103.5   1.563   15.9  0.2190   24.7  0.3232  165.0
 5.700  0.6655  102.7   1.537   14.8  0.2218   24.0  0.3269  164.1
 5.800  0.6680  101.9   1.512   13.6  0.2247   23.4  0.3307  163.3
 5.900  0.6707  101.0   1.487   12.4  0.2276   22.7  0.3346  162.4
 6.000  0.6735  100.2   1.463   11.2  0.2305   22.1  0.3386  161.6
 6.100  0.6740   99.3   1.440   10.2  0.2330   21.5  0.3414  161.0
 6.200  0.6746   98.5   1.418    9.1  0.2355   20.8  0.3442  160.4
 6.300  0.6754   97.6   1.397    8.1  0.2381   20.2  0.3471  159.8
 6.400  0.6763   96.8   1.376    6.9  0.2407   19.6  0.3500  159.3
 6.500  0.6774   95.9   1.355    5.8  0.2433   19.0  0.3529  158.7
 6.600  0.6769   95.0   1.337    4.8  0.2462   18.4  0.3530  158.3
 6.800  0.6765   93.1   1.303    2.8  0.2520   17.2  0.3531  157.5
 7.000  0.6768   91.2   1.271    0.6  0.2579   16.1  0.3534  156.7
 7.200  0.6788   88.9   1.244   -1.5  0.2643   14.6  0.3535  155.2
 7.400  0.6818   86.7   1.220   -3.7  0.2709   13.2  0.3539  153.7
 7.600  0.6861   84.3   1.195   -6.0  0.2773   11.6  0.3559  151.7
 7.800  0.6919   81.7   1.170   -8.4  0.2834    9.9  0.3598  149.4
 8.000  0.6991   79.1   1.148  -11.0  0.2897    8.2  0.3642  147.1
 8.200  0.7047   76.4   1.118  -13.4  0.2941    6.2  0.3685  144.2
 8.400  0.7119   73.7   1.090  -15.9  0.2988    4.2  0.3737  141.3
 8.600  0.7212   71.2   1.061  -18.3  0.3019    2.2  0.3798  137.8
 8.800  0.7323   68.7   1.031  -20.6  0.3032    0.2  0.3879  133.6
 9.000  0.7447   66.4   1.003  -23.0  0.3050   -1.8  0.3978  129.7
 9.200  0.7604   64.5   0.970  -24.9  0.3042   -3.3  0.4135  125.0
 9.400  0.7770   62.6   0.938  -26.9  0.3036   -4.8  0.4317  120.7
 9.600  0.7915   60.9   0.907  -28.7  0.3029   -6.1  0.4509  116.9
 9.800  0.8038   59.3   0.876  -30.2  0.3018   -7.0  0.4706  113.6
10.000  0.8166   57.8   0.846  -31.8  0.3009   -8.0  0.4917  110.6
!
!  f       NFmin   Gammaopt  rn/50
! GHz       dB    MAG  ANG    -
 0.450      0.95  0.14   16   0.15
 0.900      1.19  0.12   58   0.14
 1.900      1.15  0.07  152   0.12
 3.500      1.18  0.34 -137   0.11
!
! (c) 2016  Infineon Technologies AG, Munich
