! Infineon Technologies  Discrete & RF Semiconductors
! BFP460
! VCE =  3.0 V,  IC =  5.0 mA
! Common Emitter S-Parameters:                            Jan 2016
# GHz  S  MA  R  50
!  f         S11            S21            S12            S22
! GHz     MAG   ANG      MAG   ANG      MAG   ANG      MAG   ANG
 0.030  0.8737   -5.7  16.326  176.0  0.0058   86.4  0.9886   -4.0
 0.035  0.8728   -6.5  16.310  175.2  0.0068   85.7  0.9877   -4.6
 0.040  0.8721   -7.4  16.298  174.4  0.0078   85.2  0.9869   -5.2
 0.045  0.8716   -8.3  16.238  173.6  0.0088   84.6  0.9859   -5.6
 0.050  0.8713   -9.3  16.181  172.8  0.0099   84.1  0.9850   -6.1
 0.055  0.8685  -10.3  16.169  172.3  0.0107   84.2  0.9840   -6.7
 0.060  0.8660  -11.4  16.159  171.8  0.0115   84.2  0.9831   -7.3
 0.065  0.8656  -12.4  16.202  171.0  0.0126   83.7  0.9819   -7.9
 0.070  0.8654  -13.5  16.248  170.3  0.0137   83.2  0.9809   -8.6
 0.075  0.8665  -14.3  16.197  169.9  0.0147   82.4  0.9795   -9.2
 0.080  0.8677  -15.0  16.146  169.5  0.0157   81.7  0.9783   -9.8
 0.085  0.8658  -16.0  16.130  168.8  0.0165   81.1  0.9763  -10.4
 0.090  0.8641  -17.0  16.116  168.1  0.0174   80.6  0.9745  -11.0
 0.095  0.8635  -17.8  16.042  167.5  0.0183   80.0  0.9727  -11.6
 0.100  0.8630  -18.7  15.969  166.9  0.0193   79.5  0.9711  -12.2
 0.105  0.8620  -19.6  15.951  166.4  0.0202   79.0  0.9690  -12.8
 0.110  0.8612  -20.6  15.935  165.8  0.0211   78.5  0.9671  -13.4
 0.115  0.8587  -21.5  15.916  165.1  0.0220   78.1  0.9650  -14.0
 0.120  0.8565  -22.5  15.899  164.4  0.0229   77.7  0.9630  -14.6
 0.125  0.8544  -23.4  15.858  163.9  0.0238   77.2  0.9607  -15.1
 0.130  0.8526  -24.3  15.819  163.3  0.0248   76.7  0.9584  -15.7
 0.135  0.8511  -25.2  15.787  162.7  0.0257   76.2  0.9561  -16.3
 0.140  0.8498  -26.2  15.758  162.0  0.0266   75.8  0.9540  -16.9
 0.145  0.8475  -27.0  15.698  161.4  0.0274   75.2  0.9515  -17.4
 0.150  0.8454  -27.9  15.640  160.7  0.0283   74.7  0.9490  -18.0
 0.155  0.8426  -28.8  15.588  160.1  0.0291   74.1  0.9458  -18.5
 0.160  0.8399  -29.6  15.537  159.6  0.0299   73.6  0.9426  -19.1
 0.165  0.8375  -30.5  15.487  159.0  0.0308   73.1  0.9395  -19.6
 0.170  0.8352  -31.4  15.440  158.4  0.0316   72.7  0.9366  -20.2
 0.175  0.8332  -32.2  15.393  157.8  0.0324   72.2  0.9337  -20.8
 0.180  0.8313  -33.1  15.349  157.3  0.0333   71.8  0.9309  -21.3
 0.185  0.8297  -34.0  15.306  156.7  0.0341   71.4  0.9282  -21.9
 0.190  0.8282  -34.9  15.264  156.1  0.0349   71.0  0.9256  -22.5
 0.195  0.8270  -35.8  15.224  155.5  0.0358   70.6  0.9230  -23.0
 0.200  0.8259  -36.7  15.186  154.9  0.0366   70.3  0.9206  -23.6
 0.220  0.8150  -40.0  14.945  152.7  0.0396   68.5  0.9069  -25.6
 0.240  0.8068  -43.4  14.727  150.5  0.0426   66.9  0.8943  -27.7
 0.260  0.7978  -46.6  14.497  148.3  0.0454   65.3  0.8808  -29.6
 0.280  0.7877  -49.8  14.250  146.3  0.0482   63.8  0.8661  -31.6
 0.300  0.7800  -53.0  14.021  144.2  0.0509   62.4  0.8524  -33.6
 0.320  0.7686  -56.0  13.758  142.3  0.0533   60.9  0.8372  -35.3
 0.340  0.7594  -59.0  13.509  140.4  0.0557   59.5  0.8228  -37.1
 0.360  0.7498  -62.0  13.259  138.6  0.0579   58.2  0.8082  -38.8
 0.380  0.7396  -64.7  13.004  136.8  0.0599   57.0  0.7933  -40.4
 0.400  0.7312  -67.6  12.762  135.0  0.0620   55.8  0.7791  -42.1
 0.420  0.7207  -70.2  12.507  133.4  0.0639   54.6  0.7647  -43.5
 0.440  0.7117  -72.9  12.262  131.7  0.0657   53.5  0.7508  -45.0
 0.450  0.7078  -74.3  12.144  130.8  0.0667   53.0  0.7441  -45.8
 0.460  0.7026  -75.5  12.022  130.1  0.0675   52.5  0.7370  -46.5
 0.480  0.6932  -78.0  11.784  128.7  0.0690   51.5  0.7231  -47.8
 0.500  0.6852  -80.6  11.553  127.2  0.0706   50.6  0.7096  -49.2
 0.520  0.6754  -82.8  11.322  125.9  0.0719   49.7  0.6966  -50.3
 0.540  0.6666  -85.1  11.098  124.6  0.0732   48.9  0.6840  -51.5
 0.560  0.6589  -87.4  10.879  123.2  0.0746   48.1  0.6716  -52.7
 0.580  0.6523  -89.8  10.667  121.8  0.0759   47.3  0.6595  -53.9
 0.600  0.6469  -92.2  10.462  120.3  0.0773   46.5  0.6477  -55.2
 0.620  0.6386  -94.2  10.260  119.2  0.0783   45.8  0.6363  -56.2
 0.640  0.6312  -96.2  10.063  118.1  0.0793   45.1  0.6251  -57.2
 0.660  0.6245  -98.3   9.869  116.9  0.0804   44.5  0.6141  -58.2
 0.680  0.6186 -100.4   9.680  115.7  0.0814   43.8  0.6034  -59.3
 0.700  0.6136 -102.5   9.495  114.4  0.0825   43.2  0.5928  -60.4
 0.720  0.6073 -104.3   9.321  113.5  0.0833   42.7  0.5831  -61.2
 0.740  0.6016 -106.0   9.150  112.5  0.0841   42.2  0.5736  -62.1
 0.760  0.5965 -107.9   8.981  111.5  0.0849   41.7  0.5641  -63.0
 0.780  0.5921 -109.7   8.816  110.5  0.0858   41.2  0.5548  -63.9
 0.800  0.5882 -111.6   8.653  109.4  0.0866   40.7  0.5457  -64.8
 0.820  0.5831 -113.2   8.508  108.6  0.0873   40.3  0.5375  -65.5
 0.840  0.5786 -114.8   8.364  107.7  0.0880   39.9  0.5295  -66.3
 0.860  0.5744 -116.5   8.223  106.9  0.0887   39.5  0.5215  -67.0
 0.880  0.5708 -118.2   8.083  105.9  0.0895   39.2  0.5136  -67.8
 0.900  0.5677 -119.9   7.946  105.0  0.0902   38.8  0.5058  -68.6
 0.920  0.5634 -121.4   7.818  104.2  0.0908   38.5  0.4988  -69.2
 0.940  0.5594 -122.8   7.692  103.4  0.0914   38.1  0.4919  -69.9
 0.960  0.5558 -124.3   7.567  102.6  0.0920   37.8  0.4850  -70.6
 0.980  0.5526 -125.9   7.444  101.8  0.0926   37.5  0.4782  -71.3
 1.000  0.5498 -127.4   7.323  100.9  0.0932   37.2  0.4715  -72.0
 1.020  0.5466 -128.7   7.212  100.2  0.0938   37.0  0.4656  -72.6
 1.040  0.5436 -130.1   7.102   99.5  0.0943   36.7  0.4597  -73.2
 1.060  0.5410 -131.4   6.993   98.7  0.0949   36.5  0.4539  -73.8
 1.080  0.5387 -132.8   6.885   98.0  0.0954   36.2  0.4482  -74.4
 1.100  0.5367 -134.2   6.779   97.2  0.0960   36.0  0.4425  -75.1
 1.120  0.5341 -135.4   6.683   96.6  0.0965   35.8  0.4373  -75.6
 1.140  0.5317 -136.7   6.588   95.9  0.0970   35.6  0.4321  -76.2
 1.160  0.5296 -138.0   6.494   95.3  0.0975   35.4  0.4270  -76.7
 1.180  0.5277 -139.2   6.400   94.6  0.0980   35.2  0.4219  -77.3
 1.200  0.5261 -140.5   6.308   93.9  0.0985   35.0  0.4169  -77.9
 1.220  0.5243 -141.6   6.223   93.3  0.0990   34.8  0.4126  -78.4
 1.240  0.5228 -142.8   6.139   92.7  0.0994   34.7  0.4082  -78.9
 1.260  0.5214 -144.0   6.056   92.1  0.0999   34.5  0.4040  -79.4
 1.280  0.5203 -145.1   5.974   91.5  0.1003   34.4  0.3997  -79.9
 1.300  0.5194 -146.3   5.892   90.8  0.1008   34.2  0.3955  -80.4
 1.320  0.5177 -147.4   5.818   90.2  0.1013   34.1  0.3916  -80.9
 1.340  0.5163 -148.4   5.744   89.6  0.1017   34.0  0.3877  -81.3
 1.360  0.5149 -149.5   5.671   89.0  0.1022   33.8  0.3838  -81.8
 1.380  0.5138 -150.6   5.599   88.4  0.1026   33.7  0.3800  -82.3
 1.400  0.5129 -151.7   5.527   87.8  0.1031   33.6  0.3762  -82.8
 1.420  0.5117 -152.7   5.461   87.3  0.1035   33.5  0.3729  -83.2
 1.440  0.5107 -153.7   5.396   86.7  0.1039   33.4  0.3696  -83.7
 1.460  0.5098 -154.7   5.331   86.2  0.1044   33.3  0.3663  -84.2
 1.480  0.5091 -155.8   5.267   85.6  0.1048   33.2  0.3630  -84.6
 1.500  0.5085 -156.8   5.203   85.0  0.1052   33.1  0.3598  -85.1
 1.520  0.5076 -157.8   5.144   84.5  0.1056   33.0  0.3567  -85.5
 1.540  0.5068 -158.7   5.085   84.0  0.1060   32.9  0.3537  -86.0
 1.560  0.5061 -159.7   5.027   83.5  0.1065   32.9  0.3507  -86.4
 1.580  0.5056 -160.6   4.969   82.9  0.1069   32.8  0.3477  -86.8
 1.600  0.5052 -161.6   4.911   82.4  0.1073   32.7  0.3447  -87.3
 1.620  0.5045 -162.5   4.859   81.9  0.1077   32.6  0.3421  -87.7
 1.640  0.5039 -163.4   4.807   81.4  0.1082   32.5  0.3396  -88.1
 1.660  0.5034 -164.2   4.756   80.9  0.1086   32.5  0.3371  -88.5
 1.680  0.5030 -165.1   4.705   80.3  0.1091   32.4  0.3346  -89.0
 1.700  0.5028 -166.0   4.655   79.8  0.1095   32.3  0.3321  -89.4
 1.720  0.5027 -166.8   4.607   79.4  0.1099   32.2  0.3298  -89.8
 1.740  0.5026 -167.7   4.560   78.9  0.1103   32.2  0.3275  -90.2
 1.760  0.5027 -168.5   4.513   78.4  0.1108   32.1  0.3253  -90.6
 1.780  0.5029 -169.4   4.466   78.0  0.1112   32.1  0.3230  -91.1
 1.800  0.5032 -170.2   4.420   77.5  0.1116   32.0  0.3208  -91.5
 1.820  0.5027 -171.0   4.378   77.0  0.1120   32.0  0.3187  -91.9
 1.840  0.5023 -171.8   4.336   76.6  0.1124   31.9  0.3166  -92.3
 1.860  0.5019 -172.6   4.294   76.1  0.1129   31.9  0.3145  -92.7
 1.880  0.5017 -173.4   4.253   75.6  0.1133   31.8  0.3124  -93.1
 1.900  0.5016 -174.2   4.212   75.1  0.1137   31.8  0.3103  -93.5
 1.920  0.5016 -175.0   4.173   74.6  0.1141   31.8  0.3084  -93.9
 1.940  0.5017 -175.8   4.134   74.2  0.1145   31.7  0.3065  -94.3
 1.960  0.5019 -176.5   4.095   73.7  0.1150   31.7  0.3047  -94.7
 1.980  0.5021 -177.3   4.057   73.2  0.1154   31.6  0.3028  -95.1
 2.000  0.5025 -178.1   4.019   72.7  0.1158   31.6  0.3010  -95.5
 2.020  0.5025 -178.8   3.984   72.3  0.1162   31.5  0.2993  -95.9
 2.040  0.5026 -179.6   3.949   71.9  0.1167   31.5  0.2977  -96.3
 2.060  0.5028  179.7   3.914   71.5  0.1171   31.4  0.2960  -96.7
 2.080  0.5031  179.0   3.880   71.0  0.1175   31.4  0.2944  -97.1
 2.100  0.5034  178.2   3.846   70.6  0.1179   31.3  0.2928  -97.5
 2.120  0.5039  177.5   3.812   70.2  0.1184   31.3  0.2912  -98.0
 2.140  0.5044  176.8   3.778   69.7  0.1188   31.2  0.2896  -98.4
 2.160  0.5050  176.0   3.744   69.2  0.1192   31.2  0.2880  -98.8
 2.180  0.5056  175.3   3.711   68.8  0.1197   31.1  0.2864  -99.3
 2.200  0.5064  174.6   3.678   68.3  0.1201   31.1  0.2849  -99.7
 2.220  0.5067  173.9   3.648   67.9  0.1205   31.1  0.2835 -100.1
 2.240  0.5070  173.3   3.619   67.5  0.1210   31.0  0.2821 -100.5
 2.260  0.5074  172.6   3.590   67.1  0.1214   31.0  0.2807 -100.9
 2.280  0.5079  171.9   3.561   66.7  0.1218   31.0  0.2793 -101.4
 2.300  0.5085  171.3   3.532   66.3  0.1222   30.9  0.2780 -101.8
 2.320  0.5091  170.6   3.504   65.9  0.1227   30.9  0.2766 -102.2
 2.340  0.5098  170.0   3.475   65.4  0.1231   30.9  0.2753 -102.7
 2.360  0.5105  169.3   3.447   65.0  0.1235   30.9  0.2740 -103.1
 2.380  0.5113  168.7   3.419   64.6  0.1240   30.8  0.2727 -103.6
 2.400  0.5122  168.0   3.391   64.1  0.1244   30.8  0.2714 -104.0
 2.420  0.5127  167.4   3.365   63.7  0.1248   30.7  0.2703 -104.5
 2.440  0.5133  166.7   3.340   63.3  0.1253   30.7  0.2692 -104.9
 2.460  0.5139  166.1   3.315   62.9  0.1257   30.6  0.2681 -105.4
 2.480  0.5146  165.5   3.289   62.5  0.1261   30.6  0.2670 -105.8
 2.500  0.5153  164.9   3.264   62.1  0.1265   30.5  0.2660 -106.3
 2.520  0.5161  164.3   3.240   61.7  0.1270   30.5  0.2649 -106.8
 2.540  0.5170  163.6   3.215   61.3  0.1274   30.4  0.2639 -107.3
 2.560  0.5179  163.0   3.190   60.9  0.1278   30.4  0.2629 -107.7
 2.580  0.5189  162.4   3.166   60.4  0.1283   30.3  0.2620 -108.2
 2.600  0.5199  161.8   3.142   60.0  0.1287   30.3  0.2610 -108.7
 2.620  0.5204  161.2   3.120   59.6  0.1291   30.3  0.2602 -109.2
 2.640  0.5210  160.6   3.098   59.3  0.1296   30.2  0.2594 -109.6
 2.660  0.5217  160.0   3.076   58.9  0.1300   30.2  0.2586 -110.1
 2.680  0.5224  159.5   3.054   58.5  0.1304   30.1  0.2578 -110.5
 2.700  0.5231  158.9   3.032   58.1  0.1308   30.1  0.2570 -111.0
 2.720  0.5239  158.3   3.011   57.7  0.1313   30.1  0.2563 -111.5
 2.740  0.5248  157.7   2.989   57.3  0.1317   30.0  0.2556 -112.0
 2.760  0.5257  157.1   2.968   56.9  0.1321   30.0  0.2549 -112.4
 2.780  0.5267  156.6   2.947   56.5  0.1326   29.9  0.2542 -112.9
 2.800  0.5277  156.0   2.926   56.1  0.1330   29.9  0.2535 -113.4
 2.820  0.5284  155.5   2.906   55.8  0.1334   29.9  0.2529 -113.9
 2.840  0.5292  155.0   2.887   55.4  0.1339   29.8  0.2523 -114.3
 2.860  0.5300  154.5   2.867   55.0  0.1343   29.8  0.2517 -114.8
 2.880  0.5308  153.9   2.848   54.7  0.1347   29.7  0.2512 -115.3
 2.900  0.5317  153.4   2.829   54.3  0.1351   29.7  0.2506 -115.8
 2.920  0.5326  152.9   2.809   53.9  0.1356   29.7  0.2501 -116.3
 2.940  0.5336  152.4   2.790   53.6  0.1360   29.6  0.2496 -116.7
 2.960  0.5346  151.9   2.771   53.2  0.1364   29.6  0.2491 -117.2
 2.980  0.5356  151.4   2.753   52.8  0.1369   29.5  0.2487 -117.7
 3.000  0.5367  150.9   2.734   52.4  0.1373   29.5  0.2482 -118.2
 3.100  0.5398  148.5   2.651   50.8  0.1395   29.2  0.2464 -120.5
 3.200  0.5439  146.1   2.571   49.2  0.1416   29.0  0.2449 -122.8
 3.300  0.5490  143.7   2.493   47.4  0.1438   28.7  0.2439 -125.1
 3.400  0.5549  141.4   2.417   45.5  0.1459   28.4  0.2432 -127.4
 3.500  0.5618  139.1   2.344   43.5  0.1481   28.2  0.2430 -129.8
 3.600  0.5666  137.0   2.281   42.0  0.1502   27.9  0.2424 -132.2
 3.700  0.5721  134.9   2.219   40.5  0.1523   27.6  0.2423 -134.7
 3.800  0.5784  132.9   2.159   38.9  0.1544   27.3  0.2425 -137.1
 3.900  0.5854  130.9   2.101   37.1  0.1566   27.1  0.2433 -139.5
 4.000  0.5930  129.0   2.045   35.3  0.1587   26.8  0.2444 -141.9
 4.100  0.5979  127.3   1.994   33.9  0.1608   26.5  0.2463 -144.3
 4.200  0.6034  125.7   1.944   32.5  0.1628   26.3  0.2485 -146.7
 4.300  0.6093  124.0   1.896   31.0  0.1649   26.0  0.2513 -149.1
 4.400  0.6157  122.5   1.849   29.4  0.1669   25.7  0.2544 -151.4
 4.500  0.6226  120.9   1.803   27.7  0.1690   25.5  0.2579 -153.6
 4.600  0.6265  119.5   1.763   26.4  0.1712   25.3  0.2613 -155.4
 4.700  0.6308  118.1   1.723   25.1  0.1734   25.0  0.2649 -157.1
 4.800  0.6355  116.8   1.685   23.7  0.1756   24.8  0.2688 -158.8
 4.900  0.6405  115.4   1.647   22.2  0.1778   24.6  0.2729 -160.5
 5.000  0.6458  114.1   1.611   20.7  0.1800   24.4  0.2772 -162.1
 5.100  0.6488  113.0   1.580   19.6  0.1826   24.1  0.2806 -163.4
 5.200  0.6521  111.8   1.549   18.4  0.1853   23.8  0.2841 -164.7
 5.300  0.6557  110.7   1.519   17.1  0.1880   23.5  0.2878 -166.0
 5.400  0.6595  109.6   1.490   15.8  0.1906   23.2  0.2916 -167.2
 5.500  0.6635  108.5   1.461   14.5  0.1933   22.9  0.2955 -168.4
 5.600  0.6661  107.5   1.436   13.4  0.1960   22.4  0.2998 -169.7
 5.700  0.6689  106.6   1.412   12.2  0.1986   22.0  0.3042 -170.9
 5.800  0.6718  105.7   1.388   11.0  0.2013   21.5  0.3088 -172.2
 5.900  0.6750  104.7   1.364    9.7  0.2040   21.1  0.3135 -173.4
 6.000  0.6783  103.8   1.342    8.4  0.2067   20.7  0.3183 -174.5
 6.100  0.6790  102.9   1.320    7.3  0.2091   20.3  0.3225 -175.4
 6.200  0.6800  102.0   1.299    6.2  0.2116   19.8  0.3268 -176.4
 6.300  0.6811  101.0   1.279    5.0  0.2140   19.4  0.3311 -177.3
 6.400  0.6823  100.1   1.259    3.8  0.2165   19.0  0.3356 -178.1
 6.500  0.6838   99.2   1.239    2.6  0.2190   18.6  0.3401 -179.0
 6.600  0.6836   98.2   1.222    1.6  0.2218   18.2  0.3421 -179.6
 6.800  0.6839   96.2   1.189   -0.5  0.2275   17.4  0.3462  179.3
 7.000  0.6850   94.2   1.158   -2.7  0.2333   16.6  0.3505  178.2
 7.200  0.6875   91.8   1.131   -4.9  0.2399   15.4  0.3527  176.5
 7.400  0.6911   89.5   1.107   -7.2  0.2465   14.3  0.3551  174.8
 7.600  0.6961   86.9   1.082   -9.6  0.2532   13.0  0.3583  172.7
 7.800  0.7026   84.2   1.059  -12.0  0.2599   11.6  0.3626  170.1
 8.000  0.7106   81.6   1.037  -14.6  0.2667   10.2  0.3676  167.5
 8.200  0.7163   78.7   1.009  -16.9  0.2720    8.3  0.3714  164.3
 8.400  0.7238   75.8   0.982  -19.4  0.2776    6.6  0.3764  161.1
 8.600  0.7332   73.1   0.956  -21.8  0.2818    4.7  0.3811  157.3
 8.800  0.7442   70.5   0.928  -24.1  0.2846    2.9  0.3864  152.9
 9.000  0.7567   68.0   0.902  -26.5  0.2877    1.0  0.3940  148.6
 9.200  0.7719   65.9   0.872  -28.4  0.2882   -0.5  0.4062  143.2
 9.400  0.7882   64.0   0.844  -30.4  0.2890   -2.0  0.4217  138.1
 9.600  0.8021   62.2   0.815  -32.1  0.2894   -3.2  0.4396  133.5
 9.800  0.8136   60.5   0.786  -33.7  0.2896   -4.2  0.4592  129.3
10.000  0.8258   58.9   0.758  -35.4  0.2898   -5.2  0.4811  125.5
!
!  f       NFmin   Gammaopt  rn/50
! GHz       dB    MAG  ANG    -
 0.450      0.78  0.33   16   0.17
 0.900      0.80  0.34   31   0.17
 1.900      1.06  0.17   97   0.13
 3.500      1.24  0.33 -153   0.10
!
! (c) 2016  Infineon Technologies AG, Munich
