! Infineon Technologies  Discrete & RF Semiconductors
! BFP460
! VCE =  1.5 V,  IC =  25 mA
! Common Emitter S-Parameters:                            Jan 2016
# GHz  S  MA  R  50
!  f         S11            S21            S12            S22
! GHz     MAG   ANG      MAG   ANG      MAG   ANG      MAG   ANG
 0.030  0.5344  -18.7  51.229  170.6  0.0052   83.8  0.9241  -10.8
 0.035  0.5315  -21.6  50.919  168.8  0.0060   82.1  0.9201  -12.7
 0.040  0.5301  -24.6  50.660  167.0  0.0069   80.8  0.9171  -14.6
 0.045  0.5275  -27.1  50.218  165.2  0.0078   79.1  0.9118  -16.4
 0.050  0.5259  -29.7  49.828  163.3  0.0087   77.7  0.9075  -18.3
 0.055  0.5256  -33.1  49.460  161.9  0.0094   77.2  0.9007  -20.1
 0.060  0.5271  -36.5  49.122  160.5  0.0102   76.8  0.8948  -21.9
 0.065  0.5242  -39.3  48.780  158.9  0.0108   75.9  0.8871  -23.6
 0.070  0.5226  -42.2  48.479  157.2  0.0115   75.1  0.8802  -25.4
 0.075  0.5229  -44.8  47.981  156.0  0.0122   73.7  0.8717  -27.1
 0.080  0.5242  -47.3  47.506  154.7  0.0130   72.5  0.8639  -28.8
 0.085  0.5223  -50.0  46.951  153.3  0.0136   71.6  0.8546  -30.4
 0.090  0.5217  -52.8  46.427  151.8  0.0143   70.8  0.8461  -32.1
 0.095  0.5199  -55.1  45.791  150.6  0.0149   69.9  0.8369  -33.6
 0.100  0.5190  -57.5  45.177  149.3  0.0156   69.0  0.8284  -35.2
 0.105  0.5188  -60.0  44.686  148.0  0.0162   68.3  0.8184  -36.7
 0.110  0.5196  -62.4  44.218  146.7  0.0169   67.7  0.8090  -38.3
 0.115  0.5170  -64.9  43.636  145.4  0.0174   67.0  0.7993  -39.8
 0.120  0.5154  -67.4  43.076  144.1  0.0179   66.3  0.7902  -41.3
 0.125  0.5130  -69.4  42.504  143.1  0.0184   65.7  0.7801  -42.6
 0.130  0.5113  -71.5  41.947  142.0  0.0190   65.1  0.7704  -44.0
 0.135  0.5097  -73.6  41.401  140.9  0.0195   64.4  0.7607  -45.3
 0.140  0.5088  -75.8  40.872  139.7  0.0200   63.7  0.7515  -46.7
 0.145  0.5072  -77.8  40.254  138.7  0.0204   63.1  0.7417  -48.0
 0.150  0.5063  -79.8  39.650  137.6  0.0209   62.5  0.7323  -49.3
 0.155  0.5033  -81.5  39.097  136.8  0.0213   62.0  0.7223  -50.3
 0.160  0.5008  -83.2  38.552  136.0  0.0217   61.5  0.7126  -51.3
 0.165  0.4987  -84.9  38.014  135.2  0.0221   61.0  0.7030  -52.4
 0.170  0.4971  -86.6  37.485  134.3  0.0225   60.6  0.6938  -53.4
 0.175  0.4959  -88.4  36.964  133.5  0.0229   60.2  0.6847  -54.5
 0.180  0.4952  -90.1  36.452  132.6  0.0233   59.7  0.6760  -55.7
 0.185  0.4949  -91.9  35.950  131.6  0.0237   59.3  0.6675  -56.8
 0.190  0.4951  -93.6  35.457  130.7  0.0241   58.9  0.6592  -58.0
 0.195  0.4958  -95.4  34.974  129.7  0.0245   58.6  0.6513  -59.2
 0.200  0.4969  -97.1  34.501  128.7  0.0249   58.2  0.6437  -60.5
 0.220  0.4910 -102.5  32.680  126.2  0.0261   57.1  0.6123  -63.9
 0.240  0.4895 -108.0  30.931  123.3  0.0273   56.2  0.5832  -67.6
 0.260  0.4882 -112.8  29.346  120.8  0.0284   55.4  0.5568  -71.0
 0.280  0.4859 -117.0  27.890  118.7  0.0294   54.8  0.5322  -74.0
 0.300  0.4861 -121.2  26.476  116.4  0.0304   54.3  0.5093  -77.3
 0.320  0.4836 -124.6  25.269  114.8  0.0313   54.0  0.4892  -79.7
 0.340  0.4829 -128.1  24.085  113.0  0.0322   53.7  0.4701  -82.4
 0.360  0.4820 -131.2  23.012  111.3  0.0331   53.5  0.4528  -84.9
 0.380  0.4805 -134.1  22.042  109.9  0.0340   53.4  0.4372  -87.1
 0.400  0.4802 -136.9  21.087  108.3  0.0348   53.4  0.4223  -89.5
 0.420  0.4793 -139.3  20.272  107.1  0.0356   53.4  0.4094  -91.4
 0.440  0.4793 -141.7  19.466  105.9  0.0365   53.5  0.3969  -93.4
 0.450  0.4796 -142.9  19.067  105.2  0.0369   53.5  0.3909  -94.4
 0.460  0.4789 -143.9  18.729  104.7  0.0373   53.6  0.3856  -95.3
 0.480  0.4779 -146.0  18.059  103.7  0.0382   53.7  0.3753  -97.0
 0.500  0.4776 -148.0  17.394  102.6  0.0390   53.8  0.3653  -98.9
 0.520  0.4768 -149.7  16.858  101.8  0.0398   54.0  0.3571 -100.3
 0.540  0.4764 -151.3  16.326  101.0  0.0406   54.1  0.3491 -101.8
 0.560  0.4763 -153.0  15.798  100.1  0.0415   54.3  0.3414 -103.4
 0.580  0.4767 -154.6  15.274   99.1  0.0423   54.5  0.3339 -105.0
 0.600  0.4775 -156.3  14.754   98.1  0.0431   54.6  0.3267 -106.7
 0.620  0.4771 -157.6  14.357   97.4  0.0439   54.8  0.3210 -107.9
 0.640  0.4770 -158.9  13.961   96.7  0.0448   54.9  0.3154 -109.2
 0.660  0.4772 -160.3  13.568   96.0  0.0456   55.1  0.3099 -110.5
 0.680  0.4776 -161.6  13.177   95.2  0.0465   55.3  0.3047 -111.9
 0.700  0.4782 -162.9  12.789   94.4  0.0473   55.4  0.2996 -113.3
 0.720  0.4780 -164.0  12.485   93.8  0.0482   55.5  0.2955 -114.4
 0.740  0.4780 -165.1  12.182   93.3  0.0490   55.7  0.2914 -115.5
 0.760  0.4782 -166.2  11.881   92.6  0.0499   55.8  0.2875 -116.6
 0.780  0.4786 -167.3  11.581   92.0  0.0507   56.0  0.2837 -117.8
 0.800  0.4791 -168.4  11.283   91.3  0.0516   56.1  0.2800 -119.0
 0.820  0.4792 -169.3  11.044   90.8  0.0525   56.2  0.2770 -119.9
 0.840  0.4794 -170.3  10.806   90.3  0.0534   56.4  0.2741 -120.9
 0.860  0.4797 -171.2  10.569   89.7  0.0542   56.5  0.2712 -121.9
 0.880  0.4801 -172.2  10.333   89.1  0.0551   56.6  0.2685 -122.9
 0.900  0.4807 -173.1  10.098   88.5  0.0560   56.7  0.2658 -123.9
 0.920  0.4807 -173.9   9.903   88.0  0.0569   56.8  0.2635 -124.8
 0.940  0.4808 -174.8   9.708   87.6  0.0578   56.9  0.2613 -125.7
 0.960  0.4810 -175.6   9.514   87.1  0.0586   56.9  0.2592 -126.6
 0.980  0.4814 -176.5   9.321   86.5  0.0595   57.0  0.2571 -127.5
 1.000  0.4818 -177.3   9.129   86.0  0.0604   57.1  0.2551 -128.4
 1.020  0.4820 -178.1   8.968   85.6  0.0613   57.1  0.2535 -129.1
 1.040  0.4823 -178.8   8.807   85.1  0.0622   57.2  0.2518 -129.9
 1.060  0.4827 -179.6   8.647   84.7  0.0631   57.2  0.2503 -130.7
 1.080  0.4832  179.7   8.488   84.2  0.0640   57.3  0.2488 -131.4
 1.100  0.4838  178.9   8.329   83.7  0.0649   57.3  0.2473 -132.2
 1.120  0.4840  178.2   8.194   83.3  0.0658   57.3  0.2460 -132.9
 1.140  0.4843  177.5   8.059   82.9  0.0667   57.3  0.2447 -133.6
 1.160  0.4846  176.9   7.924   82.4  0.0676   57.4  0.2435 -134.3
 1.180  0.4850  176.2   7.790   82.0  0.0685   57.4  0.2423 -135.1
 1.200  0.4855  175.5   7.657   81.5  0.0694   57.4  0.2412 -135.8
 1.220  0.4858  174.9   7.542   81.1  0.0703   57.4  0.2403 -136.4
 1.240  0.4861  174.2   7.428   80.7  0.0712   57.4  0.2394 -137.0
 1.260  0.4865  173.6   7.313   80.3  0.0722   57.4  0.2385 -137.6
 1.280  0.4870  172.9   7.199   79.9  0.0731   57.4  0.2377 -138.3
 1.300  0.4875  172.3   7.086   79.5  0.0740   57.4  0.2369 -138.9
 1.320  0.4878  171.7   6.987   79.1  0.0749   57.4  0.2361 -139.5
 1.340  0.4882  171.1   6.888   78.7  0.0758   57.3  0.2353 -140.1
 1.360  0.4887  170.5   6.790   78.3  0.0768   57.3  0.2346 -140.7
 1.380  0.4892  169.9   6.692   77.9  0.0777   57.2  0.2339 -141.3
 1.400  0.4897  169.3   6.594   77.5  0.0786   57.2  0.2332 -141.9
 1.420  0.4901  168.7   6.508   77.1  0.0795   57.2  0.2327 -142.4
 1.440  0.4905  168.1   6.422   76.7  0.0804   57.1  0.2323 -142.9
 1.460  0.4910  167.6   6.337   76.3  0.0814   57.1  0.2318 -143.5
 1.480  0.4916  167.0   6.252   75.9  0.0823   57.0  0.2314 -144.0
 1.500  0.4922  166.4   6.167   75.5  0.0832   57.0  0.2310 -144.5
 1.520  0.4926  165.9   6.091   75.2  0.0841   56.9  0.2306 -145.0
 1.540  0.4929  165.3   6.015   74.8  0.0850   56.8  0.2302 -145.5
 1.560  0.4934  164.8   5.940   74.4  0.0860   56.8  0.2298 -146.1
 1.580  0.4939  164.2   5.865   74.1  0.0869   56.7  0.2294 -146.6
 1.600  0.4944  163.7   5.790   73.7  0.0878   56.6  0.2291 -147.1
 1.620  0.4949  163.2   5.724   73.3  0.0887   56.5  0.2288 -147.6
 1.640  0.4954  162.7   5.658   73.0  0.0896   56.4  0.2286 -148.0
 1.660  0.4960  162.3   5.592   72.6  0.0906   56.4  0.2283 -148.5
 1.680  0.4966  161.8   5.527   72.2  0.0915   56.3  0.2281 -148.9
 1.700  0.4972  161.3   5.462   71.8  0.0924   56.2  0.2279 -149.4
 1.720  0.4976  160.8   5.402   71.5  0.0933   56.1  0.2278 -149.9
 1.740  0.4980  160.3   5.341   71.1  0.0943   56.0  0.2276 -150.3
 1.760  0.4985  159.8   5.281   70.8  0.0952   56.0  0.2275 -150.8
 1.780  0.4990  159.3   5.222   70.5  0.0962   55.9  0.2274 -151.2
 1.800  0.4996  158.8   5.162   70.1  0.0971   55.8  0.2273 -151.7
 1.820  0.5003  158.3   5.110   69.8  0.0980   55.7  0.2272 -152.1
 1.840  0.5010  157.8   5.057   69.4  0.0989   55.6  0.2271 -152.6
 1.860  0.5018  157.2   5.005   69.0  0.0998   55.4  0.2271 -153.0
 1.880  0.5026  156.7   4.954   68.7  0.1007   55.3  0.2270 -153.5
 1.900  0.5034  156.2   4.902   68.3  0.1016   55.2  0.2270 -153.9
 1.920  0.5039  155.7   4.854   68.0  0.1025   55.1  0.2270 -154.3
 1.940  0.5044  155.3   4.805   67.6  0.1034   55.0  0.2271 -154.7
 1.960  0.5050  154.8   4.757   67.2  0.1044   54.8  0.2271 -155.2
 1.980  0.5056  154.4   4.710   66.9  0.1053   54.7  0.2272 -155.6
 2.000  0.5062  153.9   4.662   66.5  0.1062   54.6  0.2273 -156.0
 2.020  0.5068  153.4   4.619   66.2  0.1071   54.5  0.2274 -156.4
 2.040  0.5075  153.0   4.577   65.9  0.1080   54.3  0.2276 -156.9
 2.060  0.5082  152.5   4.534   65.5  0.1089   54.2  0.2278 -157.3
 2.080  0.5090  152.1   4.492   65.2  0.1098   54.1  0.2279 -157.7
 2.100  0.5098  151.6   4.450   64.9  0.1107   53.9  0.2281 -158.2
 2.120  0.5106  151.2   4.408   64.5  0.1116   53.8  0.2283 -158.6
 2.140  0.5114  150.7   4.366   64.2  0.1125   53.7  0.2286 -159.0
 2.160  0.5123  150.3   4.325   63.8  0.1134   53.5  0.2288 -159.4
 2.180  0.5132  149.8   4.283   63.5  0.1143   53.4  0.2290 -159.9
 2.200  0.5141  149.4   4.242   63.1  0.1152   53.3  0.2293 -160.3
 2.220  0.5148  149.0   4.207   62.8  0.1161   53.2  0.2296 -160.7
 2.240  0.5155  148.6   4.171   62.5  0.1170   53.0  0.2299 -161.1
 2.260  0.5162  148.1   4.136   62.2  0.1178   52.9  0.2303 -161.5
 2.280  0.5169  147.7   4.101   61.8  0.1187   52.7  0.2306 -162.0
 2.300  0.5177  147.3   4.066   61.5  0.1196   52.6  0.2310 -162.4
 2.320  0.5185  146.9   4.031   61.2  0.1205   52.4  0.2313 -162.8
 2.340  0.5193  146.4   3.996   60.9  0.1214   52.3  0.2317 -163.2
 2.360  0.5202  146.0   3.962   60.5  0.1222   52.2  0.2321 -163.6
 2.380  0.5211  145.6   3.927   60.2  0.1231   52.0  0.2325 -164.0
 2.400  0.5220  145.2   3.893   59.8  0.1240   51.9  0.2329 -164.4
 2.420  0.5229  144.8   3.862   59.5  0.1249   51.7  0.2334 -164.8
 2.440  0.5239  144.4   3.832   59.2  0.1257   51.6  0.2340 -165.2
 2.460  0.5249  144.0   3.801   58.9  0.1266   51.4  0.2345 -165.6
 2.480  0.5259  143.5   3.771   58.5  0.1274   51.2  0.2351 -166.0
 2.500  0.5269  143.1   3.740   58.2  0.1283   51.1  0.2357 -166.4
 2.520  0.5280  142.7   3.710   57.9  0.1291   50.9  0.2362 -166.8
 2.540  0.5291  142.3   3.680   57.5  0.1300   50.8  0.2368 -167.2
 2.560  0.5302  141.9   3.650   57.2  0.1309   50.6  0.2374 -167.6
 2.580  0.5313  141.5   3.621   56.9  0.1317   50.5  0.2381 -168.0
 2.600  0.5325  141.1   3.591   56.5  0.1326   50.3  0.2387 -168.4
 2.620  0.5332  140.7   3.565   56.2  0.1334   50.1  0.2394 -168.8
 2.640  0.5339  140.3   3.539   55.9  0.1343   50.0  0.2401 -169.2
 2.660  0.5347  139.9   3.513   55.6  0.1351   49.8  0.2408 -169.5
 2.680  0.5354  139.6   3.487   55.3  0.1359   49.6  0.2415 -169.9
 2.700  0.5362  139.2   3.461   55.0  0.1367   49.5  0.2422 -170.3
 2.720  0.5370  138.8   3.436   54.7  0.1376   49.3  0.2429 -170.6
 2.740  0.5379  138.4   3.410   54.4  0.1384   49.2  0.2436 -171.0
 2.760  0.5387  138.1   3.385   54.1  0.1392   49.0  0.2444 -171.4
 2.780  0.5396  137.7   3.359   53.7  0.1401   48.9  0.2451 -171.7
 2.800  0.5405  137.3   3.334   53.4  0.1409   48.7  0.2459 -172.1
 2.820  0.5414  136.9   3.311   53.1  0.1417   48.5  0.2466 -172.5
 2.840  0.5423  136.6   3.288   52.8  0.1425   48.4  0.2474 -172.8
 2.860  0.5432  136.2   3.265   52.5  0.1433   48.2  0.2481 -173.2
 2.880  0.5442  135.9   3.242   52.2  0.1441   48.0  0.2489 -173.5
 2.900  0.5451  135.5   3.219   51.9  0.1449   47.9  0.2496 -173.9
 2.920  0.5461  135.2   3.196   51.6  0.1457   47.7  0.2504 -174.2
 2.940  0.5471  134.8   3.173   51.3  0.1466   47.6  0.2512 -174.6
 2.960  0.5482  134.5   3.151   51.0  0.1474   47.4  0.2520 -174.9
 2.980  0.5492  134.1   3.128   50.6  0.1482   47.3  0.2528 -175.3
 3.000  0.5503  133.8   3.106   50.3  0.1490   47.1  0.2536 -175.6
 3.100  0.5543  132.1   3.011   49.0  0.1528   46.1  0.2575 -177.2
 3.200  0.5587  130.4   2.918   47.6  0.1566   45.2  0.2616 -178.8
 3.300  0.5637  128.7   2.826   46.1  0.1604   44.3  0.2659  179.6
 3.400  0.5691  127.0   2.736   44.6  0.1643   43.5  0.2704  178.1
 3.500  0.5750  125.4   2.649   42.9  0.1682   42.7  0.2751  176.7
 3.600  0.5801  123.8   2.576   41.7  0.1715   41.8  0.2797  175.0
 3.700  0.5857  122.3   2.505   40.4  0.1749   40.9  0.2846  173.4
 3.800  0.5917  120.8   2.435   39.0  0.1783   40.1  0.2896  171.8
 3.900  0.5980  119.3   2.367   37.5  0.1817   39.3  0.2949  170.3
 4.000  0.6048  117.9   2.300   36.0  0.1852   38.5  0.3004  168.8
 4.100  0.6099  116.6   2.243   34.8  0.1882   37.7  0.3061  167.3
 4.200  0.6154  115.4   2.186   33.6  0.1912   36.9  0.3120  165.8
 4.300  0.6211  114.2   2.131   32.3  0.1942   36.1  0.3181  164.4
 4.400  0.6270  113.0   2.077   30.9  0.1973   35.3  0.3244  163.1
 4.500  0.6333  111.8   2.024   29.5  0.2004   34.6  0.3308  161.8
 4.600  0.6371  110.7   1.980   28.4  0.2033   33.9  0.3352  160.7
 4.700  0.6412  109.5   1.936   27.3  0.2062   33.2  0.3397  159.6
 4.800  0.6455  108.4   1.893   26.2  0.2092   32.5  0.3443  158.6
 4.900  0.6501  107.3   1.851   25.0  0.2122   31.8  0.3491  157.6
 5.000  0.6549  106.2   1.810   23.7  0.2152   31.2  0.3539  156.6
 5.100  0.6574  105.2   1.776   22.7  0.2184   30.4  0.3566  155.7
 5.200  0.6600  104.3   1.743   21.7  0.2216   29.7  0.3594  154.9
 5.300  0.6629  103.4   1.710   20.6  0.2248   29.0  0.3622  154.0
 5.400  0.6659  102.4   1.678   19.5  0.2281   28.3  0.3652  153.2
 5.500  0.6691  101.5   1.646   18.4  0.2314   27.6  0.3682  152.4
 5.600  0.6709  100.7   1.619   17.4  0.2343   26.8  0.3713  151.6
 5.700  0.6729   99.8   1.593   16.3  0.2372   25.9  0.3745  150.8
 5.800  0.6750   99.0   1.567   15.2  0.2402   25.1  0.3778  150.0
 5.900  0.6772   98.2   1.542   14.1  0.2432   24.4  0.3811  149.3
 6.000  0.6796   97.4   1.517   12.9  0.2463   23.6  0.3845  148.5
 6.100  0.6801   96.6   1.494   11.9  0.2488   22.8  0.3863  148.0
 6.200  0.6807   95.8   1.472   11.0  0.2514   22.1  0.3882  147.5
 6.300  0.6814   95.1   1.450    9.9  0.2540   21.4  0.3901  147.0
 6.400  0.6823   94.3   1.429    8.9  0.2567   20.7  0.3920  146.5
 6.500  0.6833   93.5   1.408    7.8  0.2594   20.0  0.3940  146.0
 6.600  0.6825   92.6   1.391    6.8  0.2624   19.3  0.3931  145.6
 6.800  0.6814   90.7   1.357    4.9  0.2684   17.9  0.3913  144.7
 7.000  0.6810   88.9   1.325    2.8  0.2746   16.6  0.3896  143.9
 7.200  0.6825   86.7   1.298    0.7  0.2811   14.9  0.3887  142.4
 7.400  0.6851   84.5   1.273   -1.5  0.2878   13.3  0.3881  140.9
 7.600  0.6888   82.1   1.248   -3.8  0.2940   11.5  0.3895  139.0
 7.800  0.6941   79.6   1.223   -6.2  0.2999    9.6  0.3932  136.7
 8.000  0.7007   77.2   1.200   -8.7  0.3062    7.7  0.3975  134.5
 8.200  0.7057   74.6   1.169  -11.0  0.3100    5.5  0.4019  131.7
 8.400  0.7122   72.1   1.141  -13.5  0.3141    3.4  0.4072  129.0
 8.600  0.7209   69.6   1.111  -15.9  0.3165    1.3  0.4142  125.8
 8.800  0.7317   67.3   1.079  -18.2  0.3172   -0.8  0.4235  122.0
 9.000  0.7436   65.1   1.050  -20.6  0.3182   -2.9  0.4346  118.4
 9.200  0.7593   63.2   1.015  -22.4  0.3165   -4.4  0.4516  114.3
 9.400  0.7758   61.5   0.981  -24.3  0.3150   -6.0  0.4707  110.6
 9.600  0.7902   59.8   0.949  -26.0  0.3135   -7.3  0.4899  107.3
 9.800  0.8025   58.3   0.917  -27.4  0.3118   -8.2  0.5088  104.4
10.000  0.8153   56.9   0.885  -28.9  0.3101   -9.2  0.5289  101.7
!
!  f       NFmin   Gammaopt  rn/50
! GHz       dB    MAG  ANG    -
 0.450      1.36  0.13 -171   0.13
 0.900      1.38  0.11 -170   0.13
 1.900      1.49  0.23 -146   0.13
 3.500      1.42  0.46 -122   0.16
!
! (c) 2016  Infineon Technologies AG, Munich
