! Infineon Technologies  Discrete & RF Semiconductors
! BFP460
! VCE =  2.5 V,  IC =  45 mA
! Common Emitter S-Parameters:                            Jan 2016
# GHz  S  MA  R  50
!  f         S11            S21            S12            S22
! GHz     MAG   ANG      MAG   ANG      MAG   ANG      MAG   ANG
 0.030  0.3775  -26.5  64.070  168.7  0.0044   84.2  0.9042  -11.6
 0.035  0.3768  -30.6  63.540  166.7  0.0051   82.4  0.8993  -13.7
 0.040  0.3781  -34.7  63.087  164.7  0.0058   81.0  0.8957  -15.9
 0.045  0.3753  -38.4  62.359  162.6  0.0064   79.8  0.8886  -18.0
 0.050  0.3740  -42.1  61.715  160.5  0.0071   78.8  0.8826  -20.1
 0.055  0.3792  -46.2  61.086  158.9  0.0076   77.6  0.8738  -22.1
 0.060  0.3863  -50.2  60.507  157.2  0.0082   76.6  0.8660  -24.1
 0.065  0.3854  -54.2  59.847  155.4  0.0087   75.1  0.8559  -26.0
 0.070  0.3864  -58.1  59.250  153.5  0.0093   73.8  0.8468  -28.0
 0.075  0.3900  -61.2  58.444  152.0  0.0099   73.0  0.8359  -29.9
 0.080  0.3947  -64.3  57.678  150.5  0.0105   72.2  0.8260  -31.8
 0.085  0.3955  -67.7  56.786  149.0  0.0110   71.1  0.8141  -33.5
 0.090  0.3977  -71.0  55.936  147.4  0.0116   70.1  0.8030  -35.3
 0.095  0.3983  -73.6  54.987  146.0  0.0120   69.5  0.7915  -36.9
 0.100  0.3996  -76.1  54.070  144.6  0.0125   68.9  0.7806  -38.6
 0.105  0.4045  -78.8  53.283  143.2  0.0129   68.2  0.7685  -40.2
 0.110  0.4102  -81.5  52.527  141.8  0.0133   67.6  0.7569  -41.8
 0.115  0.4098  -84.4  51.642  140.5  0.0137   66.8  0.7451  -43.3
 0.120  0.4105  -87.2  50.783  139.2  0.0141   66.1  0.7339  -44.8
 0.125  0.4112  -89.5  49.936  138.1  0.0145   65.5  0.7220  -46.2
 0.130  0.4125  -91.7  49.110  136.9  0.0149   64.9  0.7105  -47.6
 0.135  0.4140  -93.9  48.314  135.7  0.0153   64.3  0.6992  -48.9
 0.140  0.4161  -96.1  47.539  134.5  0.0157   63.7  0.6882  -50.3
 0.145  0.4176  -98.2  46.668  133.4  0.0160   63.3  0.6771  -51.5
 0.150  0.4196 -100.3  45.814  132.3  0.0163   63.0  0.6664  -52.8
 0.155  0.4191 -102.0  45.074  131.6  0.0166   62.7  0.6558  -53.7
 0.160  0.4189 -103.7  44.342  130.8  0.0169   62.4  0.6455  -54.7
 0.165  0.4191 -105.4  43.619  130.0  0.0172   62.1  0.6353  -55.7
 0.170  0.4197 -107.1  42.904  129.2  0.0175   61.9  0.6253  -56.7
 0.175  0.4206 -108.8  42.198  128.3  0.0178   61.6  0.6155  -57.7
 0.180  0.4219 -110.4  41.502  127.4  0.0181   61.3  0.6059  -58.8
 0.185  0.4236 -112.1  40.817  126.5  0.0184   61.1  0.5965  -59.9
 0.190  0.4256 -113.8  40.141  125.6  0.0187   60.9  0.5874  -61.1
 0.195  0.4280 -115.4  39.477  124.6  0.0190   60.6  0.5785  -62.3
 0.200  0.4307 -117.0  38.825  123.6  0.0193   60.4  0.5699  -63.5
 0.220  0.4318 -121.8  36.532  121.2  0.0203   59.8  0.5382  -66.6
 0.240  0.4360 -126.6  34.312  118.5  0.0212   59.3  0.5083  -70.0
 0.260  0.4395 -130.7  32.342  116.1  0.0221   58.9  0.4818  -73.1
 0.280  0.4414 -134.3  30.585  114.2  0.0230   58.8  0.4579  -75.8
 0.300  0.4451 -137.9  28.866  112.0  0.0239   58.7  0.4351  -78.7
 0.320  0.4461 -140.8  27.462  110.5  0.0247   58.9  0.4163  -80.8
 0.340  0.4481 -143.7  26.078  108.9  0.0256   59.0  0.3981  -83.2
 0.360  0.4497 -146.2  24.836  107.4  0.0264   59.2  0.3820  -85.3
 0.380  0.4504 -148.5  23.728  106.1  0.0273   59.3  0.3676  -87.3
 0.400  0.4518 -150.7  22.632  104.7  0.0281   59.5  0.3537  -89.4
 0.420  0.4529 -152.6  21.722  103.7  0.0290   59.8  0.3420  -91.0
 0.440  0.4545 -154.5  20.818  102.6  0.0299   60.0  0.3306  -92.7
 0.450  0.4555 -155.5  20.370  102.0  0.0303   60.1  0.3250  -93.6
 0.460  0.4555 -156.3  19.996  101.6  0.0307   60.2  0.3203  -94.3
 0.480  0.4557 -158.0  19.253  100.6  0.0316   60.5  0.3110  -95.9
 0.500  0.4563 -159.7  18.515   99.6  0.0324   60.8  0.3019  -97.5
 0.520  0.4568 -161.0  17.931   98.9  0.0333   61.0  0.2947  -98.7
 0.540  0.4575 -162.3  17.351   98.1  0.0342   61.3  0.2876 -100.0
 0.560  0.4585 -163.6  16.773   97.3  0.0350   61.5  0.2806 -101.3
 0.580  0.4597 -164.9  16.200   96.4  0.0359   61.7  0.2738 -102.7
 0.600  0.4611 -166.2  15.630   95.5  0.0368   61.9  0.2672 -104.2
 0.620  0.4613 -167.3  15.202   94.9  0.0377   62.1  0.2622 -105.3
 0.640  0.4617 -168.4  14.775   94.3  0.0386   62.2  0.2573 -106.4
 0.660  0.4622 -169.4  14.350   93.6  0.0394   62.3  0.2525 -107.6
 0.680  0.4629 -170.5  13.928   92.9  0.0403   62.5  0.2478 -108.8
 0.700  0.4638 -171.6  13.507   92.2  0.0412   62.6  0.2432 -110.1
 0.720  0.4642 -172.5  13.181   91.7  0.0421   62.7  0.2396 -111.0
 0.740  0.4647 -173.4  12.857   91.2  0.0430   62.8  0.2361 -112.0
 0.760  0.4653 -174.2  12.534   90.6  0.0439   62.9  0.2326 -113.0
 0.780  0.4660 -175.1  12.212   90.0  0.0448   63.0  0.2292 -114.0
 0.800  0.4668 -176.0  11.891   89.4  0.0457   63.1  0.2259 -115.1
 0.820  0.4672 -176.8  11.636   88.9  0.0466   63.2  0.2233 -115.9
 0.840  0.4676 -177.6  11.382   88.4  0.0475   63.3  0.2207 -116.8
 0.860  0.4682 -178.3  11.129   87.9  0.0485   63.3  0.2182 -117.7
 0.880  0.4688 -179.1  10.876   87.4  0.0494   63.4  0.2158 -118.6
 0.900  0.4695 -179.9  10.625   86.8  0.0503   63.5  0.2134 -119.5
 0.920  0.4696  179.4  10.418   86.4  0.0512   63.5  0.2115 -120.3
 0.940  0.4698  178.7  10.211   85.9  0.0521   63.5  0.2096 -121.0
 0.960  0.4701  177.9  10.006   85.5  0.0531   63.6  0.2077 -121.8
 0.980  0.4705  177.2   9.800   85.0  0.0540   63.6  0.2059 -122.6
 1.000  0.4709  176.5   9.596   84.5  0.0549   63.6  0.2041 -123.4
 1.020  0.4713  175.9   9.426   84.1  0.0558   63.6  0.2027 -124.1
 1.040  0.4717  175.2   9.256   83.7  0.0567   63.6  0.2013 -124.8
 1.060  0.4722  174.6   9.087   83.2  0.0577   63.6  0.1999 -125.5
 1.080  0.4728  173.9   8.918   82.8  0.0586   63.6  0.1986 -126.2
 1.100  0.4734  173.3   8.750   82.3  0.0595   63.6  0.1973 -126.9
 1.120  0.4738  172.7   8.607   81.9  0.0604   63.6  0.1962 -127.5
 1.140  0.4743  172.1   8.464   81.5  0.0614   63.5  0.1951 -128.2
 1.160  0.4748  171.6   8.322   81.1  0.0623   63.5  0.1941 -128.9
 1.180  0.4753  171.0   8.180   80.7  0.0633   63.4  0.1931 -129.5
 1.200  0.4759  170.4   8.038   80.3  0.0642   63.4  0.1921 -130.2
 1.220  0.4763  169.8   7.916   79.9  0.0651   63.3  0.1913 -130.8
 1.240  0.4767  169.3   7.795   79.5  0.0661   63.3  0.1906 -131.3
 1.260  0.4772  168.7   7.674   79.1  0.0670   63.2  0.1899 -131.9
 1.280  0.4777  168.2   7.554   78.7  0.0680   63.2  0.1892 -132.4
 1.300  0.4783  167.6   7.434   78.3  0.0689   63.1  0.1885 -133.0
 1.320  0.4786  167.1   7.329   77.9  0.0698   63.0  0.1878 -133.6
 1.340  0.4790  166.6   7.225   77.6  0.0707   62.9  0.1872 -134.1
 1.360  0.4795  166.1   7.121   77.2  0.0717   62.9  0.1866 -134.7
 1.380  0.4799  165.6   7.017   76.8  0.0726   62.8  0.1860 -135.2
 1.400  0.4804  165.1   6.914   76.4  0.0735   62.7  0.1854 -135.8
 1.420  0.4810  164.6   6.824   76.1  0.0744   62.6  0.1850 -136.3
 1.440  0.4816  164.1   6.734   75.7  0.0754   62.5  0.1847 -136.8
 1.460  0.4823  163.5   6.644   75.3  0.0763   62.4  0.1843 -137.2
 1.480  0.4830  163.0   6.554   75.0  0.0773   62.3  0.1840 -137.7
 1.500  0.4837  162.5   6.465   74.6  0.0782   62.2  0.1837 -138.2
 1.520  0.4842  162.0   6.385   74.3  0.0791   62.1  0.1834 -138.7
 1.540  0.4847  161.5   6.305   73.9  0.0800   62.0  0.1831 -139.2
 1.560  0.4852  161.0   6.225   73.5  0.0810   61.9  0.1828 -139.6
 1.580  0.4858  160.5   6.146   73.2  0.0819   61.8  0.1825 -140.1
 1.600  0.4864  160.0   6.067   72.8  0.0828   61.7  0.1822 -140.6
 1.620  0.4868  159.6   5.997   72.5  0.0837   61.6  0.1820 -141.0
 1.640  0.4872  159.1   5.928   72.1  0.0846   61.5  0.1819 -141.4
 1.660  0.4877  158.7   5.859   71.7  0.0856   61.3  0.1817 -141.9
 1.680  0.4882  158.2   5.790   71.4  0.0865   61.2  0.1815 -142.3
 1.700  0.4887  157.8   5.721   71.0  0.0874   61.1  0.1814 -142.7
 1.720  0.4893  157.3   5.658   70.7  0.0883   61.0  0.1813 -143.1
 1.740  0.4899  156.9   5.594   70.3  0.0893   60.9  0.1812 -143.6
 1.760  0.4905  156.4   5.531   70.0  0.0902   60.7  0.1812 -144.0
 1.780  0.4912  156.0   5.469   69.7  0.0912   60.6  0.1811 -144.5
 1.800  0.4919  155.5   5.406   69.3  0.0921   60.5  0.1811 -144.9
 1.820  0.4924  155.0   5.351   69.0  0.0930   60.4  0.1811 -145.3
 1.840  0.4929  154.6   5.296   68.6  0.0939   60.2  0.1811 -145.7
 1.860  0.4935  154.1   5.242   68.3  0.0948   60.1  0.1811 -146.2
 1.880  0.4941  153.7   5.187   68.0  0.0957   59.9  0.1811 -146.6
 1.900  0.4947  153.2   5.133   67.6  0.0966   59.8  0.1811 -147.0
 1.920  0.4952  152.8   5.082   67.3  0.0975   59.7  0.1812 -147.4
 1.940  0.4957  152.3   5.032   66.9  0.0984   59.5  0.1813 -147.8
 1.960  0.4962  151.9   4.981   66.6  0.0994   59.4  0.1814 -148.2
 1.980  0.4967  151.4   4.931   66.3  0.1003   59.2  0.1815 -148.6
 2.000  0.4973  151.0   4.881   65.9  0.1012   59.1  0.1816 -149.0
 2.020  0.4981  150.6   4.836   65.6  0.1021   58.9  0.1818 -149.4
 2.040  0.4989  150.2   4.792   65.3  0.1030   58.8  0.1820 -149.9
 2.060  0.4997  149.8   4.747   65.0  0.1039   58.6  0.1822 -150.3
 2.080  0.5006  149.3   4.703   64.7  0.1048   58.4  0.1824 -150.7
 2.100  0.5014  148.9   4.659   64.3  0.1057   58.3  0.1826 -151.2
 2.120  0.5023  148.5   4.615   64.0  0.1066   58.1  0.1829 -151.6
 2.140  0.5033  148.1   4.571   63.7  0.1075   58.0  0.1831 -152.0
 2.160  0.5042  147.7   4.527   63.3  0.1084   57.8  0.1834 -152.4
 2.180  0.5052  147.3   4.483   63.0  0.1093   57.6  0.1836 -152.9
 2.200  0.5062  146.9   4.440   62.6  0.1102   57.5  0.1839 -153.3
 2.220  0.5069  146.5   4.403   62.3  0.1111   57.3  0.1842 -153.7
 2.240  0.5077  146.1   4.366   62.0  0.1120   57.2  0.1846 -154.2
 2.260  0.5085  145.7   4.328   61.7  0.1128   57.0  0.1849 -154.6
 2.280  0.5093  145.3   4.292   61.3  0.1137   56.8  0.1853 -155.0
 2.300  0.5102  144.9   4.255   61.0  0.1146   56.7  0.1857 -155.5
 2.320  0.5110  144.5   4.218   60.7  0.1155   56.5  0.1861 -155.9
 2.340  0.5119  144.2   4.182   60.4  0.1164   56.4  0.1865 -156.3
 2.360  0.5128  143.8   4.145   60.0  0.1172   56.2  0.1869 -156.8
 2.380  0.5137  143.4   4.109   59.7  0.1181   56.0  0.1873 -157.2
 2.400  0.5147  143.0   4.073   59.3  0.1190   55.9  0.1877 -157.6
 2.420  0.5155  142.6   4.041   59.0  0.1199   55.7  0.1882 -158.0
 2.440  0.5163  142.3   4.009   58.7  0.1207   55.5  0.1888 -158.5
 2.460  0.5171  141.9   3.977   58.4  0.1216   55.3  0.1894 -158.9
 2.480  0.5180  141.5   3.945   58.1  0.1224   55.1  0.1899 -159.3
 2.500  0.5188  141.1   3.913   57.8  0.1233   55.0  0.1905 -159.7
 2.520  0.5197  140.8   3.881   57.5  0.1241   54.8  0.1911 -160.2
 2.540  0.5206  140.4   3.850   57.2  0.1250   54.6  0.1917 -160.6
 2.560  0.5216  140.0   3.818   56.9  0.1259   54.4  0.1923 -161.0
 2.580  0.5225  139.7   3.787   56.5  0.1267   54.3  0.1930 -161.4
 2.600  0.5235  139.3   3.756   56.2  0.1276   54.1  0.1936 -161.8
 2.620  0.5243  138.9   3.729   55.9  0.1284   53.9  0.1943 -162.2
 2.640  0.5252  138.5   3.701   55.6  0.1293   53.7  0.1950 -162.6
 2.660  0.5260  138.2   3.674   55.3  0.1301   53.6  0.1958 -163.0
 2.680  0.5269  137.8   3.647   55.0  0.1309   53.4  0.1965 -163.4
 2.700  0.5278  137.4   3.620   54.7  0.1317   53.2  0.1972 -163.8
 2.720  0.5288  137.1   3.593   54.4  0.1326   53.1  0.1980 -164.2
 2.740  0.5297  136.7   3.567   54.1  0.1334   52.9  0.1988 -164.6
 2.760  0.5307  136.3   3.540   53.8  0.1342   52.7  0.1995 -164.9
 2.780  0.5317  136.0   3.513   53.4  0.1351   52.6  0.2003 -165.3
 2.800  0.5327  135.6   3.487   53.1  0.1359   52.4  0.2011 -165.7
 2.820  0.5335  135.3   3.463   52.8  0.1367   52.2  0.2019 -166.1
 2.840  0.5344  135.0   3.439   52.5  0.1375   52.0  0.2027 -166.5
 2.860  0.5352  134.6   3.415   52.2  0.1383   51.8  0.2034 -166.8
 2.880  0.5361  134.3   3.391   52.0  0.1392   51.7  0.2042 -167.2
 2.900  0.5370  134.0   3.367   51.7  0.1400   51.5  0.2050 -167.6
 2.920  0.5379  133.7   3.343   51.4  0.1408   51.3  0.2059 -168.0
 2.940  0.5388  133.3   3.319   51.0  0.1416   51.1  0.2067 -168.3
 2.960  0.5398  133.0   3.296   50.7  0.1424   50.9  0.2075 -168.7
 2.980  0.5407  132.7   3.272   50.4  0.1433   50.8  0.2084 -169.0
 3.000  0.5417  132.4   3.249   50.1  0.1441   50.6  0.2092 -169.4
 3.100  0.5459  130.7   3.150   48.8  0.1479   49.6  0.2133 -171.2
 3.200  0.5505  129.1   3.052   47.5  0.1517   48.6  0.2176 -172.8
 3.300  0.5556  127.5   2.956   46.0  0.1555   47.7  0.2221 -174.5
 3.400  0.5611  125.9   2.863   44.5  0.1594   46.8  0.2267 -176.0
 3.500  0.5670  124.3   2.771   42.8  0.1633   46.0  0.2315 -177.5
 3.600  0.5723  122.8   2.695   41.6  0.1667   45.0  0.2363 -179.3
 3.700  0.5779  121.4   2.621   40.3  0.1701   44.1  0.2413  178.9
 3.800  0.5839  120.0   2.548   39.0  0.1735   43.3  0.2465  177.2
 3.900  0.5902  118.6   2.477   37.5  0.1770   42.4  0.2519  175.6
 4.000  0.5969  117.2   2.407   36.0  0.1805   41.6  0.2575  174.1
 4.100  0.6024  116.0   2.347   34.8  0.1835   40.7  0.2635  172.5
 4.200  0.6081  114.8   2.288   33.6  0.1866   39.9  0.2696  170.9
 4.300  0.6141  113.6   2.231   32.4  0.1897   39.1  0.2760  169.4
 4.400  0.6203  112.4   2.174   31.0  0.1928   38.3  0.2825  168.0
 4.500  0.6268  111.3   2.119   29.6  0.1960   37.5  0.2892  166.6
 4.600  0.6307  110.2   2.073   28.5  0.1990   36.7  0.2940  165.4
 4.700  0.6348  109.1   2.027   27.4  0.2019   36.0  0.2988  164.3
 4.800  0.6392  108.0   1.982   26.2  0.2050   35.3  0.3038  163.2
 4.900  0.6438  106.9   1.938   25.0  0.2080   34.6  0.3089  162.1
 5.000  0.6486  105.8   1.895   23.7  0.2111   33.9  0.3141  161.1
 5.100  0.6514  104.9   1.859   22.7  0.2143   33.1  0.3172  160.2
 5.200  0.6543  103.9   1.824   21.7  0.2175   32.4  0.3203  159.4
 5.300  0.6574  103.0   1.790   20.6  0.2208   31.6  0.3235  158.5
 5.400  0.6607  102.1   1.756   19.5  0.2241   30.9  0.3268  157.7
 5.500  0.6641  101.2   1.723   18.4  0.2275   30.2  0.3301  156.9
 5.600  0.6660  100.4   1.695   17.4  0.2304   29.3  0.3336  156.1
 5.700  0.6681   99.7   1.667   16.3  0.2334   28.5  0.3372  155.3
 5.800  0.6703   98.9   1.640   15.2  0.2365   27.7  0.3408  154.5
 5.900  0.6726   98.1   1.613   14.1  0.2396   26.9  0.3445  153.7
 6.000  0.6750   97.4   1.587   12.9  0.2427   26.1  0.3483  153.0
 6.100  0.6755   96.6   1.563   11.9  0.2453   25.3  0.3506  152.5
 6.200  0.6762   95.8   1.539   10.9  0.2479   24.6  0.3530  152.0
 6.300  0.6770   95.0   1.516    9.9  0.2506   23.8  0.3554  151.5
 6.400  0.6779   94.2   1.493    8.8  0.2533   23.1  0.3578  151.0
 6.500  0.6790   93.4   1.471    7.7  0.2560   22.4  0.3602  150.5
 6.600  0.6784   92.5   1.452    6.7  0.2590   21.7  0.3597  150.1
 6.800  0.6776   90.6   1.416    4.7  0.2651   20.3  0.3588  149.4
 7.000  0.6776   88.8   1.382    2.6  0.2713   18.9  0.3579  148.6
 7.200  0.6791   86.6   1.353    0.5  0.2778   17.2  0.3573  147.1
 7.400  0.6816   84.5   1.327   -1.7  0.2845   15.6  0.3570  145.6
 7.600  0.6854   82.2   1.300   -4.0  0.2909   13.8  0.3586  143.8
 7.800  0.6907   79.7   1.273   -6.4  0.2969   11.9  0.3624  141.5
 8.000  0.6973   77.3   1.248   -8.9  0.3032   10.0  0.3668  139.3
 8.200  0.7025   74.7   1.216  -11.2  0.3072    7.8  0.3714  136.5
 8.400  0.7092   72.1   1.186  -13.7  0.3115    5.6  0.3769  133.7
 8.600  0.7182   69.6   1.155  -16.1  0.3142    3.6  0.3838  130.4
 8.800  0.7291   67.4   1.122  -18.4  0.3151    1.5  0.3931  126.4
 9.000  0.7412   65.2   1.091  -20.8  0.3165   -0.6  0.4041  122.7
 9.200  0.7571   63.3   1.055  -22.6  0.3152   -2.2  0.4212  118.4
 9.400  0.7737   61.6   1.020  -24.6  0.3141   -3.8  0.4405  114.4
 9.600  0.7885   59.9   0.986  -26.3  0.3129   -5.1  0.4603  110.8
 9.800  0.8013   58.4   0.953  -27.7  0.3115   -6.1  0.4800  107.7
10.000  0.8146   57.0   0.920  -29.3  0.3101   -7.1  0.5011  104.9
!
!  f       NFmin   Gammaopt  rn/50
! GHz       dB    MAG  ANG    -
 0.450      1.77  0.29 -170   0.13
 0.900      1.79  0.27 -162   0.14
 1.900      1.89  0.36 -141   0.15
 3.500      1.72  0.59 -117   0.24
!
! (c) 2016  Infineon Technologies AG, Munich
