! Infineon Technologies  Discrete & RF Semiconductors
! BFP460
! VCE =  2.0 V,  IC =  18 mA
! Common Emitter S-Parameters:                            Jan 2016
# GHz  S  MA  R  50
!  f         S11            S21            S12            S22
! GHz     MAG   ANG      MAG   ANG      MAG   ANG      MAG   ANG
 0.030  0.6325  -14.0  42.719  172.0  0.0054   83.9  0.9507   -8.7
 0.035  0.6296  -16.3  42.532  170.6  0.0062   83.2  0.9477  -10.2
 0.040  0.6278  -18.6  42.372  169.1  0.0071   82.6  0.9453  -11.7
 0.045  0.6235  -20.7  42.085  167.5  0.0079   81.4  0.9415  -13.2
 0.050  0.6200  -22.8  41.833  165.8  0.0088   80.4  0.9383  -14.7
 0.055  0.6202  -25.1  41.617  164.7  0.0096   79.9  0.9333  -16.1
 0.060  0.6215  -27.4  41.418  163.5  0.0104   79.5  0.9288  -17.6
 0.065  0.6179  -29.8  41.256  162.1  0.0113   77.6  0.9232  -19.0
 0.070  0.6154  -32.2  41.119  160.7  0.0122   76.0  0.9182  -20.5
 0.075  0.6159  -34.3  40.805  159.7  0.0128   75.7  0.9120  -21.9
 0.080  0.6171  -36.3  40.505  158.6  0.0135   75.5  0.9063  -23.3
 0.085  0.6132  -38.5  40.172  157.3  0.0143   74.4  0.8990  -24.6
 0.090  0.6102  -40.8  39.860  156.0  0.0151   73.5  0.8921  -26.0
 0.095  0.6070  -42.7  39.423  154.9  0.0158   72.5  0.8850  -27.3
 0.100  0.6045  -44.6  39.000  153.8  0.0165   71.5  0.8783  -28.6
 0.105  0.6032  -46.6  38.703  152.7  0.0171   70.9  0.8705  -29.9
 0.110  0.6027  -48.7  38.421  151.6  0.0178   70.4  0.8632  -31.2
 0.115  0.5993  -50.7  38.049  150.4  0.0184   69.6  0.8552  -32.4
 0.120  0.5967  -52.7  37.694  149.2  0.0191   68.8  0.8476  -33.7
 0.125  0.5936  -54.5  37.312  148.3  0.0197   68.0  0.8394  -34.8
 0.130  0.5912  -56.4  36.941  147.3  0.0203   67.3  0.8316  -36.0
 0.135  0.5878  -58.3  36.583  146.2  0.0209   66.6  0.8234  -37.2
 0.140  0.5851  -60.2  36.238  145.1  0.0215   66.0  0.8155  -38.4
 0.145  0.5822  -61.9  35.800  144.1  0.0220   65.5  0.8071  -39.5
 0.150  0.5799  -63.6  35.372  143.1  0.0226   65.0  0.7990  -40.6
 0.155  0.5754  -65.1  34.971  142.3  0.0231   64.4  0.7900  -41.5
 0.160  0.5713  -66.7  34.577  141.5  0.0235   63.8  0.7811  -42.4
 0.165  0.5676  -68.3  34.189  140.7  0.0240   63.3  0.7725  -43.4
 0.170  0.5644  -69.9  33.809  139.9  0.0245   62.7  0.7641  -44.4
 0.175  0.5616  -71.5  33.435  139.0  0.0250   62.2  0.7560  -45.4
 0.180  0.5593  -73.2  33.070  138.2  0.0255   61.7  0.7480  -46.4
 0.185  0.5574  -74.8  32.712  137.3  0.0259   61.2  0.7403  -47.4
 0.190  0.5560  -76.5  32.362  136.4  0.0264   60.8  0.7329  -48.5
 0.195  0.5551  -78.1  32.020  135.4  0.0269   60.3  0.7257  -49.6
 0.200  0.5546  -79.8  31.687  134.5  0.0274   59.9  0.7188  -50.7
 0.220  0.5433  -85.0  30.256  131.9  0.0288   58.4  0.6879  -53.8
 0.240  0.5367  -90.4  28.896  129.0  0.0303   57.0  0.6592  -57.2
 0.260  0.5306  -95.3  27.632  126.4  0.0316   55.8  0.6324  -60.3
 0.280  0.5238  -99.7  26.433  124.1  0.0329   54.9  0.6066  -63.1
 0.300  0.5202 -104.2  25.278  121.7  0.0341   54.0  0.5823  -66.1
 0.320  0.5135 -107.9  24.233  119.9  0.0351   53.4  0.5603  -68.4
 0.340  0.5090 -111.7  23.214  117.9  0.0361   52.8  0.5392  -70.8
 0.360  0.5048 -115.2  22.277  116.2  0.0371   52.3  0.5199  -73.1
 0.380  0.5003 -118.3  21.414  114.6  0.0380   51.9  0.5019  -75.2
 0.400  0.4974 -121.5  20.568  112.9  0.0389   51.5  0.4847  -77.4
 0.420  0.4938 -124.3  19.822  111.6  0.0397   51.3  0.4693  -79.2
 0.440  0.4914 -127.1  19.087  110.2  0.0405   51.1  0.4545  -81.0
 0.450  0.4906 -128.5  18.724  109.5  0.0409   51.0  0.4472  -82.0
 0.460  0.4890 -129.7  18.411  109.0  0.0413   51.0  0.4407  -82.8
 0.480  0.4864 -132.0  17.789  107.8  0.0421   50.9  0.4281  -84.4
 0.500  0.4847 -134.4  17.175  106.6  0.0429   50.8  0.4158  -86.2
 0.520  0.4820 -136.4  16.666  105.7  0.0437   50.8  0.4055  -87.5
 0.540  0.4800 -138.4  16.161  104.7  0.0445   50.8  0.3954  -88.8
 0.560  0.4785 -140.4  15.662  103.7  0.0452   50.8  0.3856  -90.2
 0.580  0.4776 -142.5  15.167  102.7  0.0460   50.8  0.3759  -91.7
 0.600  0.4773 -144.5  14.678  101.5  0.0468   50.8  0.3666  -93.3
 0.620  0.4758 -146.1  14.294  100.8  0.0476   50.9  0.3591  -94.4
 0.640  0.4746 -147.6  13.912  100.0  0.0483   51.0  0.3517  -95.6
 0.660  0.4738 -149.2  13.533   99.2  0.0491   51.0  0.3444  -96.9
 0.680  0.4734 -150.8  13.157   98.3  0.0498   51.1  0.3374  -98.2
 0.700  0.4733 -152.4  12.784   97.4  0.0506   51.2  0.3305  -99.5
 0.720  0.4724 -153.7  12.487   96.8  0.0514   51.3  0.3248 -100.5
 0.740  0.4718 -155.0  12.191   96.1  0.0521   51.4  0.3193 -101.5
 0.760  0.4714 -156.4  11.897   95.4  0.0529   51.5  0.3138 -102.6
 0.780  0.4713 -157.7  11.604   94.7  0.0536   51.6  0.3085 -103.7
 0.800  0.4714 -159.0  11.314   93.9  0.0544   51.7  0.3033 -104.9
 0.820  0.4710 -160.1  11.079   93.4  0.0552   51.8  0.2991 -105.8
 0.840  0.4708 -161.3  10.845   92.8  0.0560   52.0  0.2949 -106.7
 0.860  0.4707 -162.4  10.612   92.2  0.0568   52.1  0.2908 -107.7
 0.880  0.4709 -163.6  10.380   91.6  0.0576   52.2  0.2868 -108.7
 0.900  0.4712 -164.7  10.150   90.9  0.0584   52.3  0.2829 -109.7
 0.920  0.4708 -165.7   9.957   90.4  0.0592   52.4  0.2796 -110.5
 0.940  0.4705 -166.7   9.765   89.9  0.0600   52.5  0.2763 -111.4
 0.960  0.4703 -167.6   9.573   89.3  0.0607   52.5  0.2731 -112.2
 0.980  0.4703 -168.6   9.383   88.8  0.0615   52.6  0.2700 -113.1
 1.000  0.4704 -169.6   9.193   88.2  0.0623   52.7  0.2669 -114.0
 1.020  0.4704 -170.5   9.033   87.7  0.0631   52.8  0.2644 -114.8
 1.040  0.4705 -171.4   8.873   87.3  0.0639   52.8  0.2619 -115.5
 1.060  0.4707 -172.3   8.714   86.8  0.0648   52.9  0.2594 -116.3
 1.080  0.4710 -173.2   8.556   86.2  0.0656   52.9  0.2570 -117.1
 1.100  0.4715 -174.1   8.398   85.7  0.0664   53.0  0.2547 -117.9
 1.120  0.4715 -174.9   8.263   85.3  0.0672   53.0  0.2526 -118.6
 1.140  0.4716 -175.7   8.129   84.8  0.0680   53.1  0.2506 -119.3
 1.160  0.4718 -176.5   7.995   84.3  0.0689   53.1  0.2486 -120.0
 1.180  0.4720 -177.3   7.862   83.8  0.0697   53.2  0.2467 -120.8
 1.200  0.4724 -178.1   7.729   83.3  0.0705   53.2  0.2448 -121.5
 1.220  0.4726 -178.8   7.614   82.9  0.0713   53.2  0.2432 -122.1
 1.240  0.4728 -179.6   7.498   82.5  0.0722   53.2  0.2417 -122.8
 1.260  0.4732  179.7   7.384   82.0  0.0730   53.3  0.2402 -123.4
 1.280  0.4736  178.9   7.270   81.6  0.0739   53.3  0.2387 -124.0
 1.300  0.4741  178.2   7.156   81.1  0.0747   53.3  0.2373 -124.7
 1.320  0.4742  177.5   7.057   80.7  0.0755   53.3  0.2359 -125.3
 1.340  0.4743  176.9   6.958   80.3  0.0764   53.3  0.2346 -125.9
 1.360  0.4745  176.2   6.859   79.9  0.0772   53.4  0.2333 -126.5
 1.380  0.4748  175.6   6.761   79.4  0.0781   53.4  0.2320 -127.2
 1.400  0.4751  174.9   6.663   79.0  0.0789   53.4  0.2307 -127.8
 1.420  0.4755  174.2   6.577   78.6  0.0797   53.4  0.2297 -128.4
 1.440  0.4760  173.5   6.491   78.2  0.0806   53.4  0.2288 -128.9
 1.460  0.4766  172.9   6.405   77.8  0.0814   53.3  0.2278 -129.5
 1.480  0.4772  172.2   6.320   77.3  0.0823   53.3  0.2269 -130.0
 1.500  0.4779  171.5   6.235   76.9  0.0831   53.3  0.2260 -130.6
 1.520  0.4781  170.9   6.159   76.5  0.0839   53.3  0.2252 -131.2
 1.540  0.4784  170.3   6.083   76.2  0.0848   53.3  0.2243 -131.7
 1.560  0.4788  169.7   6.007   75.8  0.0856   53.2  0.2235 -132.3
 1.580  0.4792  169.1   5.931   75.4  0.0865   53.2  0.2228 -132.9
 1.600  0.4796  168.5   5.856   75.0  0.0873   53.2  0.2220 -133.5
 1.620  0.4800  167.9   5.790   74.6  0.0882   53.1  0.2213 -134.0
 1.640  0.4805  167.4   5.724   74.3  0.0890   53.1  0.2207 -134.5
 1.660  0.4811  166.8   5.658   73.9  0.0899   53.0  0.2201 -135.0
 1.680  0.4817  166.3   5.592   73.5  0.0907   53.0  0.2195 -135.5
 1.700  0.4823  165.7   5.527   73.1  0.0916   52.9  0.2189 -136.0
 1.720  0.4828  165.1   5.467   72.7  0.0925   52.8  0.2184 -136.5
 1.740  0.4834  164.6   5.406   72.4  0.0933   52.8  0.2179 -137.0
 1.760  0.4840  164.0   5.346   72.0  0.0942   52.7  0.2175 -137.5
 1.780  0.4847  163.5   5.287   71.6  0.0950   52.7  0.2170 -138.0
 1.800  0.4854  162.9   5.227   71.2  0.0959   52.6  0.2166 -138.5
 1.820  0.4858  162.4   5.174   70.9  0.0967   52.5  0.2162 -139.0
 1.840  0.4862  161.9   5.122   70.5  0.0976   52.4  0.2158 -139.5
 1.860  0.4866  161.3   5.069   70.1  0.0984   52.4  0.2155 -139.9
 1.880  0.4871  160.8   5.017   69.8  0.0993   52.3  0.2151 -140.4
 1.900  0.4876  160.3   4.965   69.4  0.1001   52.2  0.2148 -140.9
 1.920  0.4884  159.8   4.916   69.1  0.1010   52.1  0.2145 -141.4
 1.940  0.4892  159.3   4.868   68.7  0.1018   52.0  0.2143 -141.9
 1.960  0.4900  158.7   4.819   68.3  0.1027   52.0  0.2140 -142.3
 1.980  0.4909  158.2   4.771   68.0  0.1035   51.9  0.2138 -142.8
 2.000  0.4918  157.7   4.723   67.6  0.1044   51.8  0.2136 -143.3
 2.020  0.4924  157.2   4.680   67.3  0.1052   51.7  0.2135 -143.8
 2.040  0.4929  156.7   4.637   66.9  0.1061   51.6  0.2133 -144.3
 2.060  0.4936  156.2   4.594   66.6  0.1069   51.5  0.2132 -144.7
 2.080  0.4942  155.7   4.552   66.2  0.1078   51.3  0.2131 -145.2
 2.100  0.4949  155.2   4.509   65.9  0.1086   51.2  0.2131 -145.7
 2.120  0.4957  154.7   4.467   65.5  0.1094   51.1  0.2130 -146.2
 2.140  0.4965  154.3   4.425   65.2  0.1103   51.0  0.2130 -146.7
 2.160  0.4973  153.8   4.383   64.8  0.1111   50.9  0.2129 -147.1
 2.180  0.4981  153.3   4.341   64.4  0.1120   50.8  0.2129 -147.6
 2.200  0.4990  152.8   4.300   64.0  0.1128   50.7  0.2129 -148.1
 2.220  0.4997  152.3   4.264   63.7  0.1136   50.6  0.2130 -148.6
 2.240  0.5005  151.9   4.228   63.4  0.1145   50.5  0.2130 -149.1
 2.260  0.5013  151.4   4.193   63.0  0.1153   50.4  0.2131 -149.5
 2.280  0.5021  151.0   4.157   62.7  0.1162   50.2  0.2132 -150.0
 2.300  0.5030  150.5   4.122   62.4  0.1170   50.1  0.2133 -150.5
 2.320  0.5038  150.1   4.087   62.0  0.1178   50.0  0.2134 -151.0
 2.340  0.5048  149.6   4.052   61.7  0.1187   49.9  0.2136 -151.5
 2.360  0.5057  149.2   4.017   61.3  0.1195   49.8  0.2137 -151.9
 2.380  0.5067  148.7   3.983   61.0  0.1204   49.7  0.2139 -152.4
 2.400  0.5077  148.3   3.948   60.6  0.1212   49.6  0.2141 -152.9
 2.420  0.5085  147.8   3.917   60.3  0.1220   49.5  0.2144 -153.4
 2.440  0.5093  147.4   3.886   60.0  0.1228   49.3  0.2147 -153.9
 2.460  0.5102  146.9   3.856   59.7  0.1236   49.2  0.2150 -154.3
 2.480  0.5111  146.5   3.825   59.3  0.1244   49.1  0.2154 -154.8
 2.500  0.5120  146.0   3.794   59.0  0.1252   48.9  0.2157 -155.3
 2.520  0.5130  145.6   3.764   58.7  0.1261   48.8  0.2161 -155.7
 2.540  0.5139  145.1   3.734   58.3  0.1269   48.7  0.2165 -156.2
 2.560  0.5150  144.7   3.704   58.0  0.1277   48.5  0.2169 -156.7
 2.580  0.5160  144.2   3.674   57.7  0.1285   48.4  0.2173 -157.1
 2.600  0.5171  143.8   3.644   57.3  0.1293   48.3  0.2177 -157.6
 2.620  0.5179  143.4   3.617   57.0  0.1301   48.2  0.2182 -158.0
 2.640  0.5186  143.0   3.591   56.7  0.1309   48.0  0.2187 -158.5
 2.660  0.5194  142.6   3.564   56.4  0.1317   47.9  0.2192 -158.9
 2.680  0.5202  142.2   3.538   56.0  0.1325   47.7  0.2197 -159.4
 2.700  0.5211  141.8   3.512   55.7  0.1332   47.6  0.2202 -159.8
 2.720  0.5220  141.4   3.485   55.4  0.1340   47.4  0.2208 -160.3
 2.740  0.5229  141.1   3.459   55.0  0.1348   47.3  0.2213 -160.7
 2.760  0.5238  140.7   3.433   54.7  0.1356   47.2  0.2219 -161.1
 2.780  0.5247  140.3   3.408   54.4  0.1364   47.0  0.2225 -161.6
 2.800  0.5257  139.9   3.382   54.0  0.1372   46.9  0.2231 -162.0
 2.820  0.5266  139.5   3.359   53.7  0.1380   46.8  0.2237 -162.4
 2.840  0.5276  139.1   3.336   53.4  0.1388   46.6  0.2243 -162.8
 2.860  0.5286  138.7   3.313   53.1  0.1395   46.5  0.2249 -163.2
 2.880  0.5296  138.4   3.290   52.8  0.1403   46.3  0.2256 -163.6
 2.900  0.5306  138.0   3.267   52.5  0.1411   46.2  0.2262 -164.0
 2.920  0.5317  137.6   3.244   52.2  0.1419   46.0  0.2269 -164.4
 2.940  0.5327  137.2   3.221   51.9  0.1427   45.9  0.2275 -164.8
 2.960  0.5338  136.8   3.199   51.6  0.1434   45.8  0.2282 -165.2
 2.980  0.5350  136.5   3.176   51.2  0.1442   45.6  0.2289 -165.6
 3.000  0.5361  136.1   3.154   50.9  0.1450   45.5  0.2296 -166.0
 3.100  0.5403  134.3   3.058   49.6  0.1486   44.6  0.2329 -167.9
 3.200  0.5450  132.5   2.963   48.2  0.1522   43.8  0.2364 -169.8
 3.300  0.5502  130.7   2.871   46.7  0.1559   43.1  0.2402 -171.6
 3.400  0.5560  129.0   2.780   45.1  0.1596   42.3  0.2442 -173.3
 3.500  0.5622  127.3   2.692   43.4  0.1633   41.6  0.2484 -175.0
 3.600  0.5674  125.7   2.618   42.1  0.1666   40.8  0.2525 -176.9
 3.700  0.5730  124.1   2.546   40.8  0.1698   39.9  0.2569 -178.8
 3.800  0.5791  122.5   2.476   39.4  0.1732   39.2  0.2615  179.4
 3.900  0.5856  121.0   2.406   37.9  0.1765   38.4  0.2664  177.7
 4.000  0.5925  119.5   2.339   36.3  0.1799   37.7  0.2715  176.0
 4.100  0.5978  118.2   2.281   35.1  0.1828   36.9  0.2769  174.3
 4.200  0.6034  116.9   2.224   33.9  0.1857   36.2  0.2826  172.6
 4.300  0.6094  115.6   2.167   32.5  0.1887   35.5  0.2884  171.1
 4.400  0.6156  114.3   2.113   31.2  0.1917   34.8  0.2945  169.6
 4.500  0.6221  113.1   2.059   29.7  0.1947   34.1  0.3008  168.1
 4.600  0.6260  111.9   2.014   28.6  0.1975   33.4  0.3052  166.9
 4.700  0.6302  110.8   1.969   27.5  0.2004   32.8  0.3097  165.7
 4.800  0.6347  109.6   1.926   26.3  0.2033   32.1  0.3144  164.6
 4.900  0.6394  108.5   1.883   25.0  0.2063   31.5  0.3191  163.5
 5.000  0.6443  107.4   1.841   23.7  0.2092   30.9  0.3240  162.4
 5.100  0.6471  106.4   1.806   22.7  0.2123   30.2  0.3268  161.5
 5.200  0.6500  105.4   1.772   21.6  0.2155   29.5  0.3298  160.6
 5.300  0.6532  104.4   1.739   20.5  0.2186   28.8  0.3328  159.7
 5.400  0.6566  103.5   1.706   19.4  0.2219   28.1  0.3358  158.8
 5.500  0.6601  102.5   1.674   18.2  0.2251   27.5  0.3390  157.9
 5.600  0.6621  101.7   1.646   17.2  0.2280   26.7  0.3424  157.1
 5.700  0.6642  100.9   1.619   16.1  0.2309   25.9  0.3459  156.3
 5.800  0.6665  100.1   1.592   15.0  0.2339   25.2  0.3494  155.5
 5.900  0.6689   99.3   1.566   13.9  0.2369   24.4  0.3530  154.7
 6.000  0.6714   98.5   1.541   12.7  0.2400   23.7  0.3567  153.9
 6.100  0.6719   97.7   1.518   11.7  0.2425   23.0  0.3590  153.4
 6.200  0.6725   96.9   1.495   10.7  0.2451   22.3  0.3613  152.8
 6.300  0.6732   96.1   1.472    9.7  0.2478   21.6  0.3636  152.3
 6.400  0.6741   95.3   1.450    8.6  0.2504   20.9  0.3659  151.8
 6.500  0.6751   94.5   1.429    7.5  0.2531   20.2  0.3683  151.3
 6.600  0.6744   93.5   1.411    6.5  0.2560   19.5  0.3678  150.9
 6.800  0.6737   91.6   1.376    4.5  0.2620   18.2  0.3668  150.1
 7.000  0.6737   89.7   1.343    2.4  0.2681   16.9  0.3659  149.3
 7.200  0.6754   87.5   1.315    0.3  0.2745   15.3  0.3653  147.8
 7.400  0.6781   85.3   1.289   -2.0  0.2811   13.7  0.3650  146.3
 7.600  0.6821   82.9   1.263   -4.3  0.2874   12.0  0.3666  144.4
 7.800  0.6875   80.4   1.237   -6.7  0.2934   10.2  0.3703  142.1
 8.000  0.6943   78.0   1.214   -9.2  0.2997    8.4  0.3746  139.9
 8.200  0.6998   75.4   1.183  -11.6  0.3037    6.3  0.3790  137.0
 8.400  0.7067   72.8   1.154  -14.1  0.3081    4.2  0.3843  134.3
 8.600  0.7158   70.3   1.123  -16.5  0.3108    2.2  0.3911  130.9
 8.800  0.7270   68.0   1.091  -18.8  0.3118    0.1  0.4000  126.9
 9.000  0.7393   65.7   1.061  -21.2  0.3132   -2.0  0.4107  123.2
 9.200  0.7554   63.8   1.027  -23.0  0.3119   -3.6  0.4274  118.8
 9.400  0.7723   62.0   0.993  -25.0  0.3108   -5.1  0.4463  114.8
 9.600  0.7871   60.3   0.960  -26.7  0.3097   -6.4  0.4658  111.3
 9.800  0.7996   58.8   0.928  -28.1  0.3082   -7.3  0.4851  108.2
10.000  0.8126   57.4   0.896  -29.7  0.3069   -8.3  0.5058  105.4
!
!  f       NFmin   Gammaopt  rn/50
! GHz       dB    MAG  ANG    -
 0.450      1.21  0.04  164   0.13
 0.900      1.13  0.18  150   0.14
 1.900      1.33  0.16 -152   0.12
 3.500      1.29  0.41 -126   0.14
!
! (c) 2016  Infineon Technologies AG, Munich
