! Infineon Technologies  Discrete & RF Semiconductors
! BFP460
! VCE =  4.0 V,  IC =  14 mA
! Common Emitter S-Parameters:                            Jan 2016
# GHz  S  MA  R  50
!  f         S11            S21            S12            S22
! GHz     MAG   ANG      MAG   ANG      MAG   ANG      MAG   ANG
 0.030  0.7022  -10.6  35.826  172.7  0.0051   82.0  0.9597   -7.1
 0.035  0.7004  -12.2  35.690  171.5  0.0060   80.8  0.9576   -8.2
 0.040  0.6992  -13.9  35.571  170.2  0.0069   79.9  0.9559   -9.4
 0.045  0.6987  -15.7  35.342  169.0  0.0077   79.5  0.9530  -10.4
 0.050  0.6989  -17.6  35.129  167.8  0.0085   79.2  0.9503  -11.4
 0.055  0.6943  -19.5  35.003  166.9  0.0093   78.4  0.9470  -12.5
 0.060  0.6906  -21.5  34.886  165.9  0.0101   77.8  0.9441  -13.7
 0.065  0.6883  -23.2  34.819  164.7  0.0109   77.4  0.9402  -14.8
 0.070  0.6867  -24.9  34.767  163.5  0.0118   77.0  0.9366  -16.0
 0.075  0.6866  -26.7  34.560  162.7  0.0126   76.5  0.9321  -17.1
 0.080  0.6872  -28.4  34.361  161.8  0.0134   76.0  0.9280  -18.2
 0.085  0.6840  -30.2  34.159  160.7  0.0141   75.2  0.9226  -19.3
 0.090  0.6814  -32.0  33.970  159.6  0.0149   74.5  0.9176  -20.4
 0.095  0.6791  -33.4  33.679  158.7  0.0155   73.8  0.9123  -21.4
 0.100  0.6772  -34.9  33.397  157.7  0.0162   73.1  0.9074  -22.5
 0.105  0.6752  -36.5  33.221  156.8  0.0169   72.4  0.9015  -23.5
 0.110  0.6738  -38.1  33.054  155.8  0.0176   71.8  0.8960  -24.6
 0.115  0.6695  -39.8  32.832  154.8  0.0183   71.2  0.8901  -25.6
 0.120  0.6659  -41.6  32.620  153.8  0.0190   70.6  0.8845  -26.6
 0.125  0.6629  -43.0  32.376  152.9  0.0196   69.9  0.8781  -27.6
 0.130  0.6603  -44.5  32.140  152.0  0.0203   69.2  0.8719  -28.6
 0.135  0.6570  -46.1  31.915  151.1  0.0209   68.8  0.8655  -29.5
 0.140  0.6542  -47.7  31.698  150.1  0.0216   68.4  0.8594  -30.5
 0.145  0.6505  -49.2  31.405  149.2  0.0222   67.7  0.8528  -31.4
 0.150  0.6473  -50.8  31.120  148.2  0.0228   67.1  0.8464  -32.4
 0.155  0.6428  -52.1  30.845  147.5  0.0233   66.5  0.8389  -33.2
 0.160  0.6386  -53.5  30.576  146.7  0.0239   65.9  0.8316  -34.0
 0.165  0.6348  -54.8  30.312  145.9  0.0244   65.4  0.8245  -34.8
 0.170  0.6313  -56.2  30.054  145.2  0.0249   64.8  0.8176  -35.6
 0.175  0.6283  -57.6  29.801  144.4  0.0255   64.3  0.8108  -36.5
 0.180  0.6255  -59.0  29.554  143.6  0.0260   63.9  0.8042  -37.3
 0.185  0.6232  -60.4  29.313  142.7  0.0266   63.4  0.7977  -38.2
 0.190  0.6212  -61.8  29.078  141.9  0.0271   62.9  0.7915  -39.1
 0.195  0.6197  -63.3  28.849  141.1  0.0277   62.5  0.7854  -40.0
 0.200  0.6185  -64.7  28.627  140.2  0.0282   62.1  0.7796  -40.9
 0.220  0.6037  -69.6  27.574  137.6  0.0299   60.4  0.7520  -43.7
 0.240  0.5935  -74.6  26.585  134.7  0.0317   58.9  0.7263  -46.6
 0.260  0.5837  -79.3  25.635  132.1  0.0333   57.5  0.7014  -49.4
 0.280  0.5732  -83.5  24.700  129.8  0.0347   56.3  0.6767  -51.8
 0.300  0.5660  -87.9  23.808  127.4  0.0361   55.2  0.6533  -54.4
 0.320  0.5559  -91.6  22.949  125.5  0.0373   54.3  0.6310  -56.4
 0.340  0.5481  -95.4  22.118  123.5  0.0385   53.5  0.6096  -58.6
 0.360  0.5408  -99.0  21.338  121.6  0.0396   52.7  0.5896  -60.7
 0.380  0.5335 -102.3  20.603  119.9  0.0406   52.1  0.5707  -62.5
 0.400  0.5279 -105.7  19.886  118.1  0.0416   51.4  0.5523  -64.4
 0.420  0.5211 -108.6  19.232  116.7  0.0425   50.9  0.5355  -66.0
 0.440  0.5156 -111.6  18.591  115.1  0.0434   50.5  0.5191  -67.6
 0.450  0.5134 -113.1  18.276  114.3  0.0439   50.3  0.5111  -68.5
 0.460  0.5105 -114.4  17.993  113.7  0.0443   50.1  0.5038  -69.2
 0.480  0.5054 -117.0  17.432  112.4  0.0451   49.8  0.4894  -70.6
 0.500  0.5013 -119.6  16.881  111.1  0.0459   49.5  0.4753  -72.1
 0.520  0.4966 -121.8  16.410  110.1  0.0467   49.3  0.4633  -73.2
 0.540  0.4927 -124.0  15.944  109.1  0.0474   49.2  0.4516  -74.4
 0.560  0.4895 -126.3  15.484  107.9  0.0482   49.0  0.4400  -75.6
 0.580  0.4871 -128.6  15.030  106.8  0.0489   48.9  0.4286  -76.9
 0.600  0.4855 -130.9  14.583  105.5  0.0497   48.7  0.4175  -78.3
 0.620  0.4823 -132.7  14.218  104.7  0.0504   48.6  0.4083  -79.2
 0.640  0.4795 -134.5  13.855  103.8  0.0511   48.6  0.3992  -80.2
 0.660  0.4773 -136.4  13.496  102.9  0.0518   48.5  0.3902  -81.3
 0.680  0.4755 -138.2  13.140  102.0  0.0525   48.5  0.3814  -82.4
 0.700  0.4743 -140.1  12.788  101.0  0.0532   48.4  0.3727  -83.5
 0.720  0.4723 -141.6  12.500  100.3  0.0539   48.4  0.3656  -84.3
 0.740  0.4706 -143.2  12.213   99.5  0.0546   48.4  0.3587  -85.2
 0.760  0.4693 -144.7  11.929   98.8  0.0552   48.5  0.3518  -86.1
 0.780  0.4683 -146.2  11.647   98.0  0.0559   48.5  0.3450  -87.0
 0.800  0.4677 -147.8  11.368   97.1  0.0566   48.5  0.3383  -88.0
 0.820  0.4664 -149.1  11.138   96.5  0.0573   48.6  0.3327  -88.7
 0.840  0.4654 -150.4  10.910   95.9  0.0580   48.6  0.3272  -89.5
 0.860  0.4647 -151.7  10.683   95.2  0.0587   48.7  0.3218  -90.3
 0.880  0.4642 -153.1  10.458   94.5  0.0594   48.7  0.3164  -91.1
 0.900  0.4639 -154.4  10.234   93.8  0.0601   48.8  0.3111  -92.0
 0.920  0.4628 -155.6  10.044   93.2  0.0608   48.9  0.3067  -92.7
 0.940  0.4619 -156.7   9.854   92.7  0.0615   48.9  0.3022  -93.3
 0.960  0.4611 -157.9   9.666   92.1  0.0622   49.0  0.2979  -94.0
 0.980  0.4606 -159.0   9.479   91.4  0.0629   49.0  0.2936  -94.8
 1.000  0.4602 -160.2   9.293   90.8  0.0636   49.1  0.2893  -95.5
 1.020  0.4595 -161.2   9.134   90.3  0.0643   49.1  0.2857  -96.1
 1.040  0.4589 -162.3   8.975   89.8  0.0650   49.2  0.2822  -96.8
 1.060  0.4585 -163.3   8.817   89.2  0.0657   49.2  0.2787  -97.5
 1.080  0.4583 -164.4   8.660   88.7  0.0664   49.3  0.2752  -98.2
 1.100  0.4582 -165.4   8.504   88.1  0.0671   49.3  0.2718  -98.9
 1.120  0.4579 -166.3   8.370   87.6  0.0678   49.4  0.2689  -99.5
 1.140  0.4577 -167.3   8.236   87.1  0.0686   49.4  0.2660 -100.1
 1.160  0.4577 -168.2   8.103   86.6  0.0693   49.5  0.2631 -100.7
 1.180  0.4577 -169.2   7.971   86.1  0.0701   49.5  0.2602 -101.3
 1.200  0.4579 -170.1   7.839   85.5  0.0708   49.6  0.2574 -101.9
 1.220  0.4579 -170.9   7.724   85.1  0.0715   49.6  0.2550 -102.5
 1.240  0.4579 -171.8   7.609   84.6  0.0722   49.7  0.2527 -103.0
 1.260  0.4581 -172.6   7.494   84.2  0.0730   49.7  0.2504 -103.6
 1.280  0.4583 -173.5   7.380   83.7  0.0737   49.8  0.2481 -104.2
 1.300  0.4587 -174.3   7.267   83.2  0.0744   49.8  0.2459 -104.8
 1.320  0.4587 -175.1   7.168   82.8  0.0751   49.8  0.2438 -105.3
 1.340  0.4587 -175.8   7.069   82.3  0.0759   49.8  0.2418 -105.9
 1.360  0.4588 -176.6   6.970   81.9  0.0766   49.9  0.2397 -106.4
 1.380  0.4590 -177.3   6.872   81.4  0.0774   49.9  0.2377 -106.9
 1.400  0.4593 -178.1   6.775   80.9  0.0781   49.9  0.2357 -107.5
 1.420  0.4594 -178.9   6.688   80.5  0.0788   49.9  0.2341 -108.0
 1.440  0.4597 -179.6   6.602   80.1  0.0796   49.9  0.2325 -108.5
 1.460  0.4600  179.6   6.516   79.6  0.0803   49.9  0.2309 -109.0
 1.480  0.4603  178.9   6.430   79.2  0.0811   49.9  0.2293 -109.6
 1.500  0.4608  178.1   6.345   78.7  0.0818   49.9  0.2278 -110.1
 1.520  0.4610  177.4   6.268   78.3  0.0826   49.9  0.2263 -110.6
 1.540  0.4612  176.7   6.191   77.9  0.0833   49.9  0.2249 -111.1
 1.560  0.4615  175.9   6.115   77.5  0.0841   49.9  0.2235 -111.6
 1.580  0.4619  175.2   6.039   77.1  0.0848   49.9  0.2221 -112.2
 1.600  0.4623  174.5   5.963   76.7  0.0856   49.9  0.2207 -112.7
 1.620  0.4626  173.9   5.895   76.3  0.0864   49.9  0.2195 -113.2
 1.640  0.4629  173.3   5.828   75.9  0.0871   49.9  0.2183 -113.6
 1.660  0.4633  172.7   5.761   75.5  0.0879   49.8  0.2172 -114.1
 1.680  0.4637  172.1   5.694   75.0  0.0886   49.8  0.2160 -114.5
 1.700  0.4642  171.5   5.628   74.6  0.0894   49.8  0.2149 -115.0
 1.720  0.4645  170.9   5.567   74.2  0.0902   49.8  0.2139 -115.5
 1.740  0.4649  170.2   5.507   73.9  0.0909   49.8  0.2129 -116.0
 1.760  0.4653  169.6   5.447   73.5  0.0917   49.7  0.2120 -116.5
 1.780  0.4658  168.9   5.387   73.1  0.0924   49.7  0.2110 -117.0
 1.800  0.4663  168.3   5.327   72.7  0.0932   49.7  0.2101 -117.5
 1.820  0.4667  167.7   5.274   72.3  0.0940   49.7  0.2092 -118.0
 1.840  0.4672  167.1   5.220   72.0  0.0948   49.6  0.2083 -118.4
 1.860  0.4677  166.5   5.167   71.6  0.0955   49.6  0.2075 -118.9
 1.880  0.4683  165.9   5.115   71.2  0.0963   49.5  0.2066 -119.4
 1.900  0.4689  165.3   5.062   70.8  0.0971   49.5  0.2058 -119.9
 1.920  0.4694  164.7   5.013   70.4  0.0979   49.4  0.2051 -120.4
 1.940  0.4700  164.1   4.964   70.0  0.0986   49.4  0.2044 -120.9
 1.960  0.4706  163.6   4.915   69.6  0.0994   49.3  0.2038 -121.3
 1.980  0.4713  163.0   4.866   69.2  0.1001   49.3  0.2031 -121.8
 2.000  0.4720  162.4   4.818   68.8  0.1009   49.2  0.2025 -122.3
 2.020  0.4726  161.9   4.774   68.5  0.1017   49.1  0.2019 -122.8
 2.040  0.4732  161.3   4.731   68.1  0.1024   49.0  0.2013 -123.3
 2.060  0.4739  160.8   4.688   67.8  0.1032   48.9  0.2008 -123.8
 2.080  0.4746  160.3   4.645   67.4  0.1039   48.9  0.2002 -124.3
 2.100  0.4753  159.7   4.602   67.1  0.1047   48.8  0.1997 -124.8
 2.120  0.4761  159.2   4.559   66.7  0.1055   48.7  0.1992 -125.3
 2.140  0.4769  158.7   4.516   66.4  0.1062   48.6  0.1987 -125.8
 2.160  0.4778  158.1   4.474   66.0  0.1070   48.6  0.1982 -126.3
 2.180  0.4787  157.6   4.432   65.6  0.1077   48.5  0.1978 -126.8
 2.200  0.4796  157.1   4.390   65.2  0.1085   48.4  0.1973 -127.3
 2.220  0.4803  156.6   4.354   64.9  0.1093   48.3  0.1969 -127.8
 2.240  0.4811  156.1   4.317   64.5  0.1100   48.2  0.1966 -128.3
 2.260  0.4818  155.6   4.281   64.2  0.1108   48.1  0.1962 -128.8
 2.280  0.4827  155.1   4.245   63.9  0.1115   48.1  0.1959 -129.4
 2.300  0.4835  154.6   4.209   63.5  0.1123   48.0  0.1956 -129.9
 2.320  0.4844  154.1   4.173   63.2  0.1131   47.9  0.1953 -130.4
 2.340  0.4853  153.7   4.138   62.8  0.1138   47.8  0.1950 -130.9
 2.360  0.4863  153.2   4.102   62.4  0.1146   47.8  0.1948 -131.4
 2.380  0.4873  152.7   4.067   62.1  0.1153   47.7  0.1945 -132.0
 2.400  0.4883  152.2   4.032   61.7  0.1161   47.6  0.1943 -132.5
 2.420  0.4891  151.7   4.001   61.4  0.1169   47.5  0.1942 -133.0
 2.440  0.4900  151.2   3.969   61.0  0.1176   47.4  0.1941 -133.6
 2.460  0.4908  150.7   3.938   60.7  0.1184   47.3  0.1940 -134.1
 2.480  0.4918  150.3   3.907   60.4  0.1191   47.2  0.1939 -134.6
 2.500  0.4927  149.8   3.877   60.0  0.1199   47.1  0.1938 -135.1
 2.520  0.4937  149.3   3.846   59.7  0.1207   47.0  0.1938 -135.7
 2.540  0.4947  148.8   3.816   59.3  0.1214   46.9  0.1938 -136.2
 2.560  0.4958  148.3   3.785   58.9  0.1222   46.8  0.1938 -136.7
 2.580  0.4969  147.9   3.755   58.6  0.1229   46.7  0.1938 -137.3
 2.600  0.4980  147.4   3.725   58.2  0.1237   46.6  0.1938 -137.8
 2.620  0.4988  147.0   3.698   57.9  0.1244   46.5  0.1939 -138.3
 2.640  0.4995  146.5   3.671   57.6  0.1252   46.4  0.1941 -138.8
 2.660  0.5003  146.1   3.644   57.3  0.1259   46.3  0.1942 -139.4
 2.680  0.5012  145.7   3.618   56.9  0.1266   46.1  0.1944 -139.9
 2.700  0.5020  145.2   3.591   56.6  0.1273   46.0  0.1945 -140.4
 2.720  0.5029  144.8   3.565   56.3  0.1281   45.9  0.1947 -140.9
 2.740  0.5039  144.4   3.538   55.9  0.1288   45.8  0.1950 -141.5
 2.760  0.5048  143.9   3.512   55.6  0.1295   45.7  0.1952 -142.0
 2.780  0.5058  143.5   3.486   55.3  0.1303   45.6  0.1954 -142.5
 2.800  0.5068  143.1   3.460   54.9  0.1310   45.5  0.1957 -143.0
 2.820  0.5077  142.7   3.436   54.6  0.1317   45.4  0.1960 -143.5
 2.840  0.5087  142.3   3.413   54.3  0.1324   45.2  0.1962 -144.0
 2.860  0.5097  141.9   3.389   54.0  0.1332   45.1  0.1965 -144.5
 2.880  0.5107  141.5   3.366   53.7  0.1339   45.0  0.1968 -145.0
 2.900  0.5118  141.1   3.342   53.4  0.1346   44.9  0.1972 -145.5
 2.920  0.5129  140.7   3.319   53.0  0.1353   44.8  0.1975 -146.0
 2.940  0.5140  140.3   3.296   52.7  0.1360   44.6  0.1979 -146.4
 2.960  0.5151  139.9   3.273   52.4  0.1368   44.5  0.1982 -146.9
 2.980  0.5162  139.5   3.250   52.0  0.1375   44.4  0.1986 -147.4
 3.000  0.5174  139.1   3.227   51.7  0.1382   44.3  0.1990 -147.9
 3.100  0.5216  137.1   3.129   50.3  0.1416   43.6  0.2010 -150.2
 3.200  0.5264  135.2   3.033   48.9  0.1450   42.8  0.2033 -152.5
 3.300  0.5318  133.3   2.938   47.4  0.1485   42.2  0.2059 -154.8
 3.400  0.5378  131.5   2.846   45.7  0.1519   41.5  0.2089 -157.0
 3.500  0.5443  129.7   2.757   44.0  0.1554   40.9  0.2121 -159.1
 3.600  0.5496  128.0   2.682   42.7  0.1585   40.2  0.2151 -161.4
 3.700  0.5554  126.3   2.609   41.3  0.1617   39.5  0.2184 -163.7
 3.800  0.5617  124.7   2.537   39.9  0.1648   38.8  0.2220 -165.9
 3.900  0.5684  123.1   2.467   38.3  0.1680   38.1  0.2259 -168.0
 4.000  0.5755  121.5   2.399   36.7  0.1712   37.5  0.2302 -170.1
 4.100  0.5811  120.1   2.340   35.5  0.1740   36.8  0.2348 -172.2
 4.200  0.5870  118.8   2.281   34.2  0.1769   36.1  0.2398 -174.2
 4.300  0.5933  117.5   2.224   32.8  0.1798   35.5  0.2450 -176.2
 4.400  0.5998  116.2   2.168   31.4  0.1827   34.8  0.2505 -178.0
 4.500  0.6067  114.9   2.114   29.9  0.1856   34.2  0.2563 -179.8
 4.600  0.6108  113.7   2.068   28.8  0.1884   33.6  0.2606  178.7
 4.700  0.6153  112.5   2.022   27.6  0.1912   33.0  0.2650  177.3
 4.800  0.6200  111.3   1.977   26.3  0.1941   32.4  0.2697  176.0
 4.900  0.6249  110.1   1.934   25.1  0.1969   31.8  0.2744  174.7
 5.000  0.6301  109.0   1.891   23.7  0.1998   31.3  0.2793  173.4
 5.100  0.6331  108.0   1.855   22.6  0.2029   30.6  0.2824  172.4
 5.200  0.6364  107.0   1.819   21.6  0.2059   30.0  0.2856  171.4
 5.300  0.6398  106.0   1.784   20.4  0.2090   29.4  0.2889  170.4
 5.400  0.6434  105.1   1.750   19.2  0.2122   28.8  0.2923  169.4
 5.500  0.6472  104.1   1.717   18.0  0.2153   28.2  0.2958  168.5
 5.600  0.6496  103.3   1.688   16.9  0.2182   27.4  0.2996  167.6
 5.700  0.6520  102.4   1.660   15.8  0.2211   26.7  0.3034  166.6
 5.800  0.6547  101.6   1.633   14.7  0.2240   26.0  0.3073  165.7
 5.900  0.6574  100.8   1.606   13.5  0.2270   25.3  0.3113  164.9
 6.000  0.6603  100.0   1.580   12.3  0.2300   24.6  0.3154  164.0
 6.100  0.6609   99.2   1.556   11.3  0.2325   23.9  0.3184  163.4
 6.200  0.6617   98.3   1.532   10.2  0.2351   23.2  0.3213  162.8
 6.300  0.6626   97.5   1.508    9.2  0.2377   22.6  0.3244  162.2
 6.400  0.6637   96.6   1.485    8.0  0.2403   21.9  0.3274  161.7
 6.500  0.6649   95.8   1.463    6.9  0.2430   21.3  0.3305  161.1
 6.600  0.6644   94.8   1.444    5.9  0.2459   20.7  0.3307  160.7
 6.800  0.6641   92.9   1.407    3.9  0.2518   19.5  0.3312  160.0
 7.000  0.6645   91.0   1.372    1.7  0.2578   18.3  0.3317  159.3
 7.200  0.6664   88.8   1.343   -0.4  0.2642   16.7  0.3318  157.8
 7.400  0.6694   86.6   1.315   -2.6  0.2708   15.2  0.3321  156.3
 7.600  0.6736   84.2   1.288   -4.9  0.2771   13.6  0.3341  154.4
 7.800  0.6793   81.7   1.261   -7.3  0.2832   11.8  0.3379  152.1
 8.000  0.6864   79.2   1.237   -9.9  0.2896   10.1  0.3422  149.8
 8.200  0.6923   76.5   1.204  -12.3  0.2940    8.1  0.3464  146.8
 8.400  0.6997   73.8   1.174  -14.9  0.2988    6.1  0.3516  143.9
 8.600  0.7094   71.3   1.143  -17.3  0.3019    4.1  0.3577  140.3
 8.800  0.7211   69.0   1.111  -19.6  0.3035    2.0  0.3656  136.1
 9.000  0.7339   66.7   1.081  -22.0  0.3054    0.0  0.3755  132.0
 9.200  0.7502   64.8   1.046  -23.9  0.3047   -1.6  0.3912  127.1
 9.400  0.7673   62.9   1.012  -25.9  0.3042   -3.1  0.4096  122.6
 9.600  0.7825   61.2   0.978  -27.7  0.3036   -4.4  0.4291  118.7
 9.800  0.7954   59.7   0.945  -29.3  0.3028   -5.3  0.4491  115.2
10.000  0.8089   58.2   0.912  -30.9  0.3020   -6.3  0.4706  112.1
!
!  f       NFmin   Gammaopt  rn/50
! GHz       dB    MAG  ANG    -
 0.450      1.09  0.04   41   0.14
 1.900      1.24  0.11 -165   0.12
 3.500      1.23  0.36 -131   0.13
!
! (c) 2016  Infineon Technologies AG, Munich
