! Infineon Technologies  Discrete & RF Semiconductors
! BFP460
! VCE =  2.5 V,  IC =  6.0 mA
! Common Emitter S-Parameters:                            Jan 2016
# GHz  S  MA  R  50
!  f         S11            S21            S12            S22
! GHz     MAG   ANG      MAG   ANG      MAG   ANG      MAG   ANG
 0.030  0.8492   -6.5  19.058  175.8  0.0060   86.2  0.9846   -4.4
 0.035  0.8484   -7.5  19.036  175.0  0.0069   85.5  0.9836   -5.1
 0.040  0.8479   -8.6  19.019  174.1  0.0079   85.0  0.9828   -5.8
 0.045  0.8465   -9.6  18.954  173.1  0.0089   85.1  0.9817   -6.4
 0.050  0.8453  -10.6  18.895  172.1  0.0100   85.1  0.9807   -7.1
 0.055  0.8441  -11.8  18.876  171.5  0.0109   83.7  0.9793   -7.8
 0.060  0.8434  -13.1  18.859  170.9  0.0118   82.6  0.9781   -8.6
 0.065  0.8408  -14.1  18.897  170.1  0.0128   82.3  0.9766   -9.3
 0.070  0.8384  -15.1  18.939  169.3  0.0138   82.0  0.9753  -10.0
 0.075  0.8397  -16.2  18.877  168.8  0.0147   81.2  0.9733  -10.7
 0.080  0.8414  -17.3  18.816  168.3  0.0156   80.4  0.9715  -11.4
 0.085  0.8394  -18.3  18.782  167.5  0.0166   79.9  0.9693  -12.0
 0.090  0.8377  -19.4  18.752  166.7  0.0177   79.4  0.9672  -12.7
 0.095  0.8361  -20.3  18.658  166.1  0.0186   79.0  0.9650  -13.4
 0.100  0.8348  -21.3  18.566  165.4  0.0195   78.7  0.9629  -14.2
 0.105  0.8346  -22.4  18.538  164.8  0.0203   78.2  0.9604  -14.8
 0.110  0.8347  -23.5  18.512  164.1  0.0212   77.8  0.9581  -15.5
 0.115  0.8316  -24.5  18.474  163.4  0.0221   77.2  0.9554  -16.2
 0.120  0.8287  -25.5  18.440  162.6  0.0231   76.6  0.9529  -16.9
 0.125  0.8266  -26.5  18.376  162.0  0.0239   76.0  0.9498  -17.5
 0.130  0.8248  -27.6  18.315  161.4  0.0248   75.5  0.9469  -18.2
 0.135  0.8228  -28.6  18.272  160.7  0.0257   75.0  0.9441  -18.8
 0.140  0.8211  -29.6  18.232  160.0  0.0266   74.5  0.9415  -19.5
 0.145  0.8179  -30.6  18.139  159.3  0.0274   73.9  0.9382  -20.2
 0.150  0.8150  -31.7  18.049  158.5  0.0283   73.3  0.9351  -20.9
 0.155  0.8118  -32.7  17.975  157.9  0.0291   72.7  0.9311  -21.5
 0.160  0.8089  -33.6  17.903  157.3  0.0299   72.1  0.9272  -22.1
 0.165  0.8062  -34.6  17.833  156.7  0.0307   71.6  0.9234  -22.7
 0.170  0.8037  -35.6  17.765  156.0  0.0315   71.1  0.9197  -23.3
 0.175  0.8015  -36.5  17.699  155.4  0.0323   70.6  0.9162  -23.9
 0.180  0.7995  -37.5  17.636  154.8  0.0331   70.1  0.9127  -24.6
 0.185  0.7977  -38.5  17.574  154.1  0.0339   69.7  0.9093  -25.2
 0.190  0.7962  -39.5  17.515  153.5  0.0348   69.3  0.9061  -25.8
 0.195  0.7949  -40.5  17.458  152.9  0.0356   68.9  0.9029  -26.5
 0.200  0.7939  -41.5  17.403  152.2  0.0364   68.5  0.8999  -27.1
 0.220  0.7809  -45.1  17.062  149.9  0.0392   66.6  0.8832  -29.4
 0.240  0.7710  -48.8  16.749  147.5  0.0421   65.0  0.8679  -31.7
 0.260  0.7610  -52.4  16.427  145.3  0.0447   63.4  0.8518  -33.9
 0.280  0.7503  -55.8  16.089  143.1  0.0472   61.8  0.8347  -36.1
 0.300  0.7424  -59.3  15.774  140.9  0.0497   60.4  0.8188  -38.3
 0.320  0.7299  -62.5  15.425  139.0  0.0518   58.9  0.8014  -40.2
 0.340  0.7198  -65.8  15.094  136.9  0.0540   57.5  0.7849  -42.1
 0.360  0.7097  -69.0  14.765  135.0  0.0560   56.3  0.7685  -43.9
 0.380  0.6993  -71.9  14.433  133.3  0.0578   55.0  0.7520  -45.7
 0.400  0.6908  -75.0  14.115  131.4  0.0597   53.9  0.7363  -47.5
 0.420  0.6801  -77.7  13.791  129.8  0.0613   52.8  0.7206  -49.0
 0.440  0.6711  -80.6  13.478  128.1  0.0629   51.8  0.7054  -50.7
 0.450  0.6672  -82.0  13.326  127.2  0.0637   51.3  0.6980  -51.5
 0.460  0.6622  -83.3  13.175  126.5  0.0644   50.8  0.6905  -52.2
 0.480  0.6533  -85.8  12.879  125.0  0.0658   50.0  0.6759  -53.6
 0.500  0.6457  -88.5  12.592  123.5  0.0673   49.1  0.6616  -55.0
 0.520  0.6363  -90.8  12.315  122.3  0.0684   48.3  0.6481  -56.2
 0.540  0.6280  -93.1  12.044  121.0  0.0695   47.6  0.6349  -57.4
 0.560  0.6207  -95.5  11.779  119.7  0.0707   46.9  0.6220  -58.6
 0.580  0.6145  -97.9  11.521  118.3  0.0718   46.2  0.6095  -59.9
 0.600  0.6094 -100.4  11.270  116.8  0.0730   45.5  0.5972  -61.3
 0.620  0.6020 -102.4  11.035  115.8  0.0739   44.9  0.5859  -62.3
 0.640  0.5954 -104.4  10.804  114.7  0.0748   44.3  0.5747  -63.4
 0.660  0.5896 -106.5  10.577  113.6  0.0757   43.8  0.5638  -64.5
 0.680  0.5845 -108.6  10.354  112.4  0.0766   43.2  0.5531  -65.6
 0.700  0.5802 -110.7  10.135  111.2  0.0775   42.7  0.5426  -66.8
 0.720  0.5747 -112.5   9.937  110.3  0.0782   42.3  0.5332  -67.7
 0.740  0.5698 -114.3   9.742  109.4  0.0790   41.9  0.5238  -68.5
 0.760  0.5655 -116.1   9.549  108.4  0.0797   41.5  0.5147  -69.5
 0.780  0.5618 -117.9   9.360  107.4  0.0805   41.1  0.5056  -70.4
 0.800  0.5586 -119.8   9.173  106.3  0.0812   40.7  0.4967  -71.4
 0.820  0.5544 -121.4   9.010  105.5  0.0819   40.4  0.4889  -72.1
 0.840  0.5506 -123.0   8.848  104.7  0.0826   40.1  0.4812  -72.9
 0.860  0.5473 -124.6   8.689  103.9  0.0832   39.8  0.4736  -73.7
 0.880  0.5444 -126.2   8.531  103.0  0.0839   39.6  0.4661  -74.5
 0.900  0.5419 -127.9   8.375  102.1  0.0846   39.3  0.4587  -75.3
 0.920  0.5384 -129.3   8.235  101.4  0.0852   39.1  0.4521  -76.0
 0.940  0.5353 -130.8   8.096  100.7  0.0858   38.8  0.4455  -76.7
 0.960  0.5325 -132.2   7.958   99.9  0.0863   38.6  0.4390  -77.5
 0.980  0.5301 -133.7   7.822   99.1  0.0869   38.3  0.4325  -78.2
 1.000  0.5280 -135.2   7.687   98.3  0.0875   38.1  0.4262  -79.0
 1.020  0.5253 -136.5   7.566   97.6  0.0880   37.9  0.4207  -79.6
 1.040  0.5230 -137.8   7.446   97.0  0.0886   37.8  0.4152  -80.3
 1.060  0.5209 -139.1   7.327   96.3  0.0891   37.6  0.4098  -80.9
 1.080  0.5190 -140.5   7.209   95.5  0.0897   37.5  0.4045  -81.6
 1.100  0.5175 -141.8   7.092   94.8  0.0902   37.3  0.3992  -82.3
 1.120  0.5155 -143.0   6.988   94.2  0.0907   37.2  0.3945  -82.9
 1.140  0.5136 -144.2   6.885   93.6  0.0912   37.1  0.3898  -83.5
 1.160  0.5120 -145.4   6.782   93.0  0.0918   36.9  0.3851  -84.1
 1.180  0.5106 -146.6   6.681   92.4  0.0923   36.8  0.3805  -84.7
 1.200  0.5095 -147.8   6.580   91.7  0.0928   36.7  0.3759  -85.3
 1.220  0.5082 -148.9   6.489   91.1  0.0933   36.6  0.3720  -85.8
 1.240  0.5071 -150.0   6.399   90.6  0.0938   36.5  0.3680  -86.3
 1.260  0.5061 -151.1   6.309   90.0  0.0944   36.4  0.3642  -86.9
 1.280  0.5054 -152.2   6.220   89.3  0.0949   36.3  0.3603  -87.4
 1.300  0.5048 -153.3   6.132   88.7  0.0954   36.2  0.3565  -88.0
 1.320  0.5037 -154.3   6.053   88.2  0.0959   36.1  0.3529  -88.5
 1.340  0.5027 -155.3   5.974   87.7  0.0964   36.1  0.3494  -89.0
 1.360  0.5019 -156.4   5.896   87.1  0.0969   36.0  0.3459  -89.5
 1.380  0.5013 -157.4   5.818   86.6  0.0974   36.0  0.3424  -90.1
 1.400  0.5008 -158.4   5.741   86.0  0.0979   35.9  0.3390  -90.6
 1.420  0.5000 -159.4   5.671   85.5  0.0984   35.8  0.3361  -91.1
 1.440  0.4993 -160.3   5.602   85.0  0.0989   35.8  0.3332  -91.6
 1.460  0.4988 -161.3   5.533   84.4  0.0993   35.7  0.3303  -92.1
 1.480  0.4984 -162.2   5.465   83.9  0.0998   35.7  0.3274  -92.6
 1.500  0.4982 -163.2   5.397   83.3  0.1003   35.6  0.3246  -93.1
 1.520  0.4976 -164.1   5.334   82.8  0.1008   35.6  0.3219  -93.6
 1.540  0.4971 -165.0   5.271   82.3  0.1013   35.5  0.3192  -94.1
 1.560  0.4967 -166.0   5.209   81.8  0.1018   35.5  0.3165  -94.6
 1.580  0.4964 -166.9   5.147   81.3  0.1023   35.4  0.3139  -95.1
 1.600  0.4963 -167.8   5.086   80.8  0.1028   35.4  0.3113  -95.6
 1.620  0.4960 -168.6   5.031   80.3  0.1033   35.4  0.3090  -96.0
 1.640  0.4958 -169.4   4.977   79.9  0.1038   35.3  0.3068  -96.5
 1.660  0.4957 -170.2   4.922   79.4  0.1043   35.3  0.3046  -96.9
 1.680  0.4957 -171.0   4.868   78.9  0.1048   35.2  0.3024  -97.3
 1.700  0.4958 -171.8   4.815   78.4  0.1053   35.2  0.3002  -97.8
 1.720  0.4957 -172.6   4.765   78.0  0.1058   35.2  0.2982  -98.2
 1.740  0.4957 -173.4   4.715   77.5  0.1063   35.2  0.2963  -98.7
 1.760  0.4958 -174.2   4.666   77.0  0.1069   35.1  0.2943  -99.2
 1.780  0.4960 -175.0   4.617   76.6  0.1074   35.1  0.2924  -99.6
 1.800  0.4963 -175.8   4.568   76.1  0.1079   35.1  0.2905 -100.1
 1.820  0.4962 -176.6   4.524   75.7  0.1084   35.1  0.2886 -100.5
 1.840  0.4962 -177.3   4.480   75.2  0.1089   35.0  0.2868 -101.0
 1.860  0.4963 -178.1   4.436   74.7  0.1094   35.0  0.2850 -101.4
 1.880  0.4965 -178.8   4.392   74.3  0.1099   34.9  0.2832 -101.8
 1.900  0.4968 -179.6   4.349   73.8  0.1104   34.9  0.2814 -102.3
 1.920  0.4969  179.7   4.308   73.4  0.1109   34.9  0.2798 -102.7
 1.940  0.4972  179.0   4.268   72.9  0.1114   34.9  0.2782 -103.2
 1.960  0.4975  178.2   4.228   72.5  0.1119   34.8  0.2766 -103.7
 1.980  0.4978  177.5   4.188   72.1  0.1124   34.8  0.2750 -104.1
 2.000  0.4983  176.8   4.148   71.6  0.1129   34.8  0.2735 -104.6
 2.020  0.4984  176.1   4.111   71.2  0.1134   34.8  0.2721 -105.0
 2.040  0.4987  175.4   4.075   70.8  0.1139   34.7  0.2707 -105.5
 2.060  0.4989  174.7   4.038   70.4  0.1145   34.7  0.2693 -105.9
 2.080  0.4993  174.1   4.002   70.0  0.1150   34.6  0.2679 -106.4
 2.100  0.4997  173.4   3.966   69.6  0.1155   34.6  0.2666 -106.8
 2.120  0.5002  172.7   3.930   69.2  0.1160   34.6  0.2653 -107.3
 2.140  0.5008  172.0   3.894   68.7  0.1165   34.5  0.2639 -107.8
 2.160  0.5014  171.3   3.859   68.3  0.1171   34.5  0.2626 -108.2
 2.180  0.5021  170.7   3.824   67.9  0.1176   34.4  0.2614 -108.7
 2.200  0.5029  170.0   3.789   67.4  0.1181   34.4  0.2601 -109.2
 2.220  0.5033  169.4   3.758   67.0  0.1186   34.4  0.2589 -109.7
 2.240  0.5037  168.7   3.728   66.6  0.1191   34.3  0.2578 -110.1
 2.260  0.5042  168.1   3.697   66.2  0.1197   34.3  0.2567 -110.6
 2.280  0.5048  167.5   3.667   65.8  0.1202   34.2  0.2556 -111.0
 2.300  0.5054  166.8   3.637   65.4  0.1207   34.2  0.2545 -111.5
 2.320  0.5061  166.2   3.607   65.0  0.1212   34.2  0.2534 -112.0
 2.340  0.5068  165.6   3.578   64.6  0.1217   34.1  0.2524 -112.4
 2.360  0.5076  164.9   3.548   64.2  0.1223   34.1  0.2513 -112.9
 2.380  0.5085  164.3   3.519   63.7  0.1228   34.0  0.2503 -113.4
 2.400  0.5094  163.7   3.490   63.3  0.1233   34.0  0.2493 -113.9
 2.420  0.5100  163.1   3.463   62.9  0.1238   33.9  0.2484 -114.4
 2.440  0.5107  162.5   3.437   62.6  0.1243   33.9  0.2476 -114.9
 2.460  0.5115  161.9   3.410   62.2  0.1249   33.8  0.2467 -115.4
 2.480  0.5123  161.3   3.384   61.8  0.1254   33.8  0.2459 -115.9
 2.500  0.5132  160.7   3.358   61.4  0.1259   33.7  0.2451 -116.5
 2.520  0.5141  160.1   3.332   61.0  0.1264   33.7  0.2444 -117.0
 2.540  0.5151  159.5   3.306   60.6  0.1269   33.6  0.2436 -117.5
 2.560  0.5161  159.0   3.281   60.2  0.1275   33.6  0.2429 -118.0
 2.580  0.5172  158.4   3.255   59.8  0.1280   33.5  0.2422 -118.6
 2.600  0.5183  157.8   3.230   59.4  0.1285   33.5  0.2415 -119.1
 2.620  0.5189  157.3   3.207   59.0  0.1290   33.4  0.2409 -119.6
 2.640  0.5196  156.7   3.184   58.7  0.1295   33.4  0.2404 -120.1
 2.660  0.5203  156.2   3.161   58.3  0.1300   33.3  0.2399 -120.6
 2.680  0.5210  155.7   3.139   57.9  0.1305   33.3  0.2394 -121.1
 2.700  0.5218  155.2   3.116   57.6  0.1310   33.2  0.2389 -121.6
 2.720  0.5226  154.7   3.094   57.2  0.1316   33.2  0.2384 -122.1
 2.740  0.5235  154.1   3.072   56.8  0.1321   33.1  0.2379 -122.6
 2.760  0.5244  153.6   3.050   56.4  0.1326   33.1  0.2375 -123.1
 2.780  0.5254  153.1   3.028   56.0  0.1331   33.0  0.2371 -123.6
 2.800  0.5264  152.6   3.006   55.6  0.1336   33.0  0.2367 -124.1
 2.820  0.5272  152.1   2.985   55.3  0.1341   32.9  0.2363 -124.6
 2.840  0.5280  151.6   2.965   54.9  0.1346   32.9  0.2360 -125.1
 2.860  0.5289  151.1   2.945   54.6  0.1352   32.8  0.2356 -125.6
 2.880  0.5298  150.6   2.925   54.2  0.1357   32.8  0.2353 -126.1
 2.900  0.5308  150.1   2.905   53.9  0.1362   32.7  0.2350 -126.6
 2.920  0.5318  149.6   2.885   53.5  0.1367   32.7  0.2347 -127.1
 2.940  0.5328  149.2   2.865   53.1  0.1372   32.6  0.2345 -127.6
 2.960  0.5339  148.7   2.845   52.8  0.1378   32.6  0.2342 -128.1
 2.980  0.5350  148.2   2.825   52.4  0.1383   32.5  0.2340 -128.6
 3.000  0.5361  147.7   2.806   52.0  0.1388   32.5  0.2338 -129.1
 3.100  0.5396  145.4   2.721   50.5  0.1413   32.1  0.2331 -131.5
 3.200  0.5440  143.1   2.639   48.9  0.1439   31.8  0.2328 -133.8
 3.300  0.5492  140.8   2.558   47.2  0.1465   31.4  0.2329 -136.2
 3.400  0.5553  138.6   2.480   45.3  0.1490   31.1  0.2334 -138.6
 3.500  0.5622  136.4   2.405   43.4  0.1516   30.8  0.2343 -140.9
 3.600  0.5671  134.4   2.340   42.0  0.1540   30.4  0.2348 -143.3
 3.700  0.5726  132.5   2.276   40.5  0.1564   30.0  0.2358 -145.8
 3.800  0.5787  130.6   2.214   38.9  0.1588   29.6  0.2372 -148.2
 3.900  0.5855  128.7   2.153   37.2  0.1613   29.3  0.2390 -150.6
 4.000  0.5929  126.9   2.095   35.4  0.1637   28.9  0.2412 -152.9
 4.100  0.5979  125.3   2.043   34.1  0.1660   28.5  0.2440 -155.2
 4.200  0.6034  123.7   1.992   32.7  0.1683   28.1  0.2472 -157.5
 4.300  0.6094  122.1   1.942   31.2  0.1706   27.7  0.2508 -159.8
 4.400  0.6158  120.6   1.894   29.6  0.1729   27.4  0.2548 -161.9
 4.500  0.6226  119.1   1.847   28.0  0.1752   27.0  0.2591 -164.0
 4.600  0.6265  117.7   1.806   26.8  0.1775   26.7  0.2628 -165.7
 4.700  0.6307  116.4   1.766   25.5  0.1799   26.3  0.2667 -167.3
 4.800  0.6353  115.1   1.727   24.2  0.1823   26.0  0.2708 -168.8
 4.900  0.6402  113.8   1.688   22.8  0.1846   25.7  0.2751 -170.3
 5.000  0.6454  112.5   1.651   21.3  0.1870   25.4  0.2796 -171.8
 5.100  0.6483  111.4   1.619   20.2  0.1898   25.0  0.2829 -173.0
 5.200  0.6515  110.3   1.588   19.0  0.1925   24.6  0.2863 -174.1
 5.300  0.6548  109.2   1.557   17.8  0.1953   24.2  0.2898 -175.2
 5.400  0.6585  108.2   1.527   16.5  0.1981   23.8  0.2935 -176.3
 5.500  0.6623  107.1   1.498   15.2  0.2009   23.4  0.2972 -177.4
 5.600  0.6649  106.2   1.472   14.1  0.2036   22.9  0.3013 -178.6
 5.700  0.6676  105.3   1.447   12.9  0.2063   22.4  0.3056 -179.7
 5.800  0.6706  104.4   1.423   11.7  0.2091   21.9  0.3099  179.2
 5.900  0.6737  103.5   1.399   10.5  0.2118   21.4  0.3144  178.1
 6.000  0.6769  102.6   1.376    9.2  0.2146   20.9  0.3190  177.1
 6.100  0.6775  101.7   1.354    8.1  0.2171   20.4  0.3228  176.3
 6.200  0.6784  100.8   1.333    7.0  0.2195   19.9  0.3267  175.5
 6.300  0.6793   99.9   1.312    5.9  0.2220   19.4  0.3306  174.8
 6.400  0.6805   99.0   1.292    4.7  0.2246   18.9  0.3346  174.0
 6.500  0.6818   98.1   1.272    3.5  0.2271   18.4  0.3387  173.3
 6.600  0.6815   97.1   1.255    2.5  0.2299   17.9  0.3401  172.8
 6.800  0.6814   95.2   1.222    0.4  0.2356   17.0  0.3430  171.9
 7.000  0.6821   93.2   1.191   -1.8  0.2414   16.1  0.3459  171.0
 7.200  0.6845   90.9   1.164   -4.0  0.2479   14.8  0.3474  169.4
 7.400  0.6881   88.5   1.140   -6.2  0.2545   13.6  0.3491  167.8
 7.600  0.6929   86.0   1.115   -8.6  0.2610   12.2  0.3519  165.7
 7.800  0.6991   83.3   1.092  -11.0  0.2675   10.7  0.3561  163.2
 8.000  0.7069   80.7   1.070  -13.6  0.2741    9.2  0.3609  160.7
 8.200  0.7125   77.9   1.041  -16.0  0.2791    7.3  0.3649  157.6
 8.400  0.7197   75.1   1.015  -18.5  0.2844    5.5  0.3700  154.6
 8.600  0.7290   72.4   0.987  -20.9  0.2881    3.6  0.3752  150.8
 8.800  0.7402   69.9   0.959  -23.1  0.2905    1.7  0.3815  146.4
 9.000  0.7528   67.4   0.933  -25.5  0.2931   -0.2  0.3899  142.2
 9.200  0.7683   65.3   0.902  -27.4  0.2932   -1.7  0.4034  137.0
 9.400  0.7847   63.4   0.872  -29.4  0.2936   -3.2  0.4200  132.2
 9.600  0.7988   61.6   0.843  -31.2  0.2936   -4.5  0.4385  127.8
 9.800  0.8106   60.0   0.813  -32.8  0.2933   -5.4  0.4583  123.9
10.000  0.8229   58.5   0.784  -34.4  0.2931   -6.4  0.4800  120.4
!
!  f       NFmin   Gammaopt  rn/50
! GHz       dB    MAG  ANG    -
 0.450      0.83  0.28   16   0.15
 0.900      0.84  0.26   37   0.16
 1.900      1.07  0.14  103   0.12
 3.500      1.18  0.31 -149   0.11
!
! (c) 2016  Infineon Technologies AG, Munich
