! Infineon Technologies  Discrete & RF Semiconductors
! BFP460
! VCE =  2.0 V,  IC =  2.0 mA
! Common Emitter S-Parameters:                            Jan 2016
# GHz  S  MA  R  50
!  f         S11            S21            S12            S22
! GHz     MAG   ANG      MAG   ANG      MAG   ANG      MAG   ANG
 0.030  0.9447   -3.6   7.265  177.9  0.0065   87.4  0.9944   -2.2
 0.035  0.9439   -4.1   7.260  177.3  0.0076   87.1  0.9939   -2.5
 0.040  0.9431   -4.6   7.255  176.7  0.0088   86.9  0.9935   -2.9
 0.045  0.9427   -5.1   7.241  176.0  0.0097   86.7  0.9934   -3.2
 0.050  0.9424   -5.7   7.229  175.2  0.0107   86.6  0.9934   -3.5
 0.055  0.9424   -6.5   7.232  174.9  0.0118   85.8  0.9929   -3.9
 0.060  0.9425   -7.3   7.235  174.6  0.0129   85.1  0.9925   -4.3
 0.065  0.9418   -7.8   7.261  174.1  0.0141   85.1  0.9921   -4.6
 0.070  0.9411   -8.3   7.288  173.6  0.0153   85.1  0.9918   -5.0
 0.075  0.9423   -8.9   7.271  173.4  0.0162   84.7  0.9913   -5.3
 0.080  0.9435   -9.4   7.255  173.2  0.0172   84.4  0.9908   -5.7
 0.085  0.9415   -9.9   7.258  172.7  0.0183   84.0  0.9902   -6.0
 0.090  0.9396  -10.5   7.262  172.3  0.0195   83.6  0.9896   -6.4
 0.095  0.9406  -11.2   7.237  171.9  0.0206   83.2  0.9890   -6.7
 0.100  0.9417  -11.8   7.213  171.4  0.0217   82.8  0.9884   -7.1
 0.105  0.9413  -12.4   7.217  171.0  0.0227   82.5  0.9878   -7.4
 0.110  0.9410  -13.0   7.221  170.7  0.0238   82.3  0.9873   -7.8
 0.115  0.9395  -13.6   7.225  170.2  0.0248   81.8  0.9864   -8.2
 0.120  0.9381  -14.3   7.229  169.8  0.0258   81.3  0.9856   -8.6
 0.125  0.9369  -14.8   7.222  169.5  0.0269   81.0  0.9847   -8.9
 0.130  0.9357  -15.3   7.216  169.1  0.0280   80.7  0.9839   -9.2
 0.135  0.9350  -15.8   7.217  168.6  0.0290   80.3  0.9831   -9.5
 0.140  0.9343  -16.4   7.219  168.1  0.0301   80.0  0.9824   -9.9
 0.145  0.9345  -17.0   7.202  167.6  0.0311   79.7  0.9814  -10.3
 0.150  0.9348  -17.6   7.186  167.1  0.0322   79.4  0.9805  -10.7
 0.155  0.9333  -18.2   7.178  166.7  0.0332   79.0  0.9793  -11.0
 0.160  0.9319  -18.7   7.171  166.3  0.0342   78.5  0.9781  -11.4
 0.165  0.9307  -19.3   7.164  165.9  0.0352   78.1  0.9770  -11.7
 0.170  0.9295  -19.9   7.157  165.5  0.0363   77.8  0.9758  -12.1
 0.175  0.9284  -20.5   7.151  165.1  0.0373   77.4  0.9748  -12.4
 0.180  0.9274  -21.1   7.145  164.7  0.0383   77.1  0.9737  -12.7
 0.185  0.9264  -21.6   7.140  164.3  0.0393   76.8  0.9727  -13.1
 0.190  0.9256  -22.2   7.134  163.9  0.0403   76.5  0.9717  -13.4
 0.195  0.9249  -22.8   7.130  163.5  0.0414   76.2  0.9708  -13.8
 0.200  0.9243  -23.4   7.125  163.1  0.0424   75.9  0.9699  -14.1
 0.220  0.9189  -25.7   7.077  161.5  0.0463   74.4  0.9644  -15.4
 0.240  0.9149  -28.0   7.036  159.8  0.0502   73.2  0.9594  -16.7
 0.260  0.9106  -30.2   6.991  158.2  0.0540   71.8  0.9537  -18.1
 0.280  0.9058  -32.3   6.942  156.7  0.0578   70.5  0.9472  -19.4
 0.300  0.9022  -34.5   6.898  155.1  0.0615   69.3  0.9413  -20.7
 0.320  0.8956  -36.7   6.840  153.6  0.0650   67.9  0.9340  -22.0
 0.340  0.8904  -39.0   6.787  152.0  0.0685   66.7  0.9272  -23.3
 0.360  0.8847  -41.1   6.731  150.5  0.0719   65.4  0.9200  -24.5
 0.380  0.8784  -43.1   6.670  149.0  0.0752   64.2  0.9123  -25.6
 0.400  0.8732  -45.2   6.614  147.5  0.0785   63.1  0.9049  -26.8
 0.420  0.8659  -47.3   6.548  146.1  0.0816   61.9  0.8971  -28.0
 0.440  0.8597  -49.3   6.486  144.6  0.0847   60.7  0.8897  -29.2
 0.450  0.8571  -50.4   6.456  143.9  0.0863   60.2  0.8861  -29.8
 0.460  0.8533  -51.4   6.422  143.2  0.0877   59.6  0.8817  -30.3
 0.480  0.8466  -53.4   6.358  141.9  0.0905   58.5  0.8732  -31.4
 0.500  0.8409  -55.4   6.297  140.5  0.0934   57.5  0.8650  -32.5
 0.520  0.8327  -57.3   6.224  139.2  0.0959   56.4  0.8565  -33.5
 0.540  0.8253  -59.2   6.155  137.9  0.0983   55.3  0.8482  -34.4
 0.560  0.8189  -61.1   6.088  136.6  0.1009   54.3  0.8402  -35.4
 0.580  0.8135  -63.1   6.025  135.2  0.1034   53.3  0.8325  -36.5
 0.600  0.8090  -65.1   5.966  133.8  0.1060   52.4  0.8250  -37.5
 0.620  0.8010  -66.8   5.895  132.6  0.1081   51.4  0.8163  -38.4
 0.640  0.7937  -68.6   5.826  131.4  0.1101   50.4  0.8077  -39.4
 0.660  0.7873  -70.4   5.760  130.2  0.1123   49.5  0.7994  -40.3
 0.680  0.7816  -72.2   5.697  129.0  0.1144   48.6  0.7913  -41.3
 0.700  0.7767  -74.1   5.636  127.7  0.1166   47.7  0.7835  -42.3
 0.720  0.7696  -75.7   5.566  126.7  0.1183   46.8  0.7753  -43.1
 0.740  0.7631  -77.4   5.498  125.6  0.1200   46.0  0.7673  -43.9
 0.760  0.7572  -79.1   5.432  124.5  0.1217   45.2  0.7594  -44.7
 0.780  0.7520  -80.8   5.368  123.4  0.1234   44.4  0.7517  -45.5
 0.800  0.7475  -82.5   5.306  122.2  0.1252   43.6  0.7442  -46.4
 0.820  0.7410  -84.1   5.244  121.2  0.1266   42.8  0.7365  -47.1
 0.840  0.7350  -85.6   5.184  120.2  0.1281   42.1  0.7290  -47.9
 0.860  0.7296  -87.2   5.126  119.2  0.1295   41.3  0.7216  -48.6
 0.880  0.7248  -88.9   5.069  118.2  0.1310   40.6  0.7143  -49.4
 0.900  0.7206  -90.5   5.014  117.1  0.1325   39.9  0.7072  -50.2
 0.920  0.7146  -92.0   4.955  116.2  0.1337   39.2  0.7003  -50.8
 0.940  0.7091  -93.4   4.897  115.2  0.1349   38.5  0.6935  -51.5
 0.960  0.7040  -94.9   4.841  114.3  0.1361   37.9  0.6868  -52.1
 0.980  0.6995  -96.5   4.786  113.3  0.1373   37.2  0.6801  -52.8
 1.000  0.6954  -98.0   4.732  112.3  0.1386   36.6  0.6736  -53.5
 1.020  0.6903  -99.4   4.677  111.5  0.1395   36.0  0.6673  -54.1
 1.040  0.6856 -100.7   4.623  110.6  0.1405   35.4  0.6610  -54.7
 1.060  0.6813 -102.1   4.570  109.7  0.1414   34.8  0.6548  -55.4
 1.080  0.6775 -103.6   4.518  108.8  0.1424   34.3  0.6487  -56.0
 1.100  0.6740 -105.0   4.467  107.9  0.1434   33.7  0.6427  -56.7
 1.120  0.6693 -106.3   4.417  107.1  0.1442   33.1  0.6369  -57.2
 1.140  0.6650 -107.6   4.368  106.3  0.1450   32.6  0.6312  -57.8
 1.160  0.6611 -109.0   4.319  105.5  0.1458   32.1  0.6256  -58.3
 1.180  0.6575 -110.3   4.272  104.7  0.1466   31.5  0.6200  -58.9
 1.200  0.6543 -111.7   4.225  103.8  0.1474   31.0  0.6145  -59.5
 1.220  0.6507 -113.0   4.180  103.1  0.1481   30.5  0.6093  -60.0
 1.240  0.6473 -114.2   4.135  102.3  0.1487   30.0  0.6042  -60.6
 1.260  0.6443 -115.5   4.091  101.5  0.1494   29.5  0.5992  -61.1
 1.280  0.6417 -116.8   4.047  100.7  0.1501   29.1  0.5942  -61.6
 1.300  0.6393 -118.1   4.005   99.9  0.1508   28.6  0.5892  -62.2
 1.320  0.6359 -119.3   3.964   99.2  0.1513   28.2  0.5844  -62.7
 1.340  0.6328 -120.5   3.923   98.5  0.1519   27.7  0.5796  -63.1
 1.360  0.6299 -121.7   3.883   97.8  0.1524   27.3  0.5749  -63.6
 1.380  0.6273 -122.9   3.843   97.0  0.1529   26.8  0.5702  -64.1
 1.400  0.6250 -124.1   3.804   96.3  0.1535   26.4  0.5656  -64.6
 1.420  0.6221 -125.2   3.766   95.6  0.1539   26.0  0.5614  -65.0
 1.440  0.6194 -126.4   3.728   94.9  0.1544   25.6  0.5571  -65.5
 1.460  0.6169 -127.5   3.691   94.2  0.1548   25.3  0.5530  -65.9
 1.480  0.6147 -128.6   3.654   93.4  0.1552   24.9  0.5488  -66.3
 1.500  0.6128 -129.8   3.618   92.7  0.1557   24.5  0.5447  -66.8
 1.520  0.6101 -130.9   3.583   92.1  0.1560   24.1  0.5407  -67.2
 1.540  0.6076 -132.0   3.548   91.4  0.1564   23.8  0.5367  -67.7
 1.560  0.6053 -133.1   3.514   90.8  0.1567   23.4  0.5328  -68.1
 1.580  0.6033 -134.3   3.480   90.1  0.1570   23.1  0.5289  -68.5
 1.600  0.6015 -135.4   3.447   89.4  0.1574   22.7  0.5250  -69.0
 1.620  0.5997 -136.4   3.416   88.8  0.1577   22.4  0.5216  -69.4
 1.640  0.5981 -137.5   3.385   88.2  0.1579   22.0  0.5183  -69.8
 1.660  0.5966 -138.5   3.355   87.6  0.1582   21.7  0.5150  -70.2
 1.680  0.5954 -139.6   3.325   86.9  0.1585   21.3  0.5117  -70.6
 1.700  0.5944 -140.6   3.295   86.3  0.1588   21.0  0.5084  -71.0
 1.720  0.5927 -141.6   3.266   85.7  0.1590   20.7  0.5052  -71.4
 1.740  0.5911 -142.6   3.237   85.1  0.1592   20.4  0.5020  -71.8
 1.760  0.5898 -143.6   3.208   84.5  0.1594   20.1  0.4988  -72.2
 1.780  0.5886 -144.6   3.180   83.9  0.1597   19.8  0.4956  -72.6
 1.800  0.5876 -145.6   3.152   83.3  0.1599   19.5  0.4925  -73.0
 1.820  0.5862 -146.6   3.126   82.7  0.1601   19.2  0.4896  -73.4
 1.840  0.5849 -147.5   3.099   82.2  0.1603   19.0  0.4866  -73.7
 1.860  0.5838 -148.5   3.074   81.6  0.1605   18.7  0.4837  -74.1
 1.880  0.5829 -149.5   3.048   81.0  0.1607   18.5  0.4809  -74.5
 1.900  0.5822 -150.5   3.023   80.4  0.1609   18.2  0.4780  -74.9
 1.920  0.5811 -151.4   2.998   79.8  0.1610   17.9  0.4754  -75.3
 1.940  0.5801 -152.3   2.973   79.3  0.1611   17.6  0.4728  -75.6
 1.960  0.5793 -153.3   2.949   78.7  0.1612   17.4  0.4702  -76.0
 1.980  0.5786 -154.2   2.925   78.1  0.1614   17.1  0.4676  -76.4
 2.000  0.5781 -155.1   2.901   77.5  0.1615   16.8  0.4651  -76.8
 2.020  0.5770 -156.0   2.878   77.0  0.1616   16.6  0.4627  -77.2
 2.040  0.5760 -156.9   2.854   76.5  0.1616   16.3  0.4602  -77.5
 2.060  0.5751 -157.8   2.832   76.0  0.1617   16.1  0.4578  -77.9
 2.080  0.5744 -158.7   2.809   75.4  0.1618   15.9  0.4554  -78.2
 2.100  0.5739 -159.6   2.786   74.9  0.1619   15.6  0.4531  -78.6
 2.120  0.5735 -160.5   2.764   74.4  0.1619   15.4  0.4507  -79.0
 2.140  0.5732 -161.4   2.742   73.8  0.1620   15.2  0.4484  -79.3
 2.160  0.5730 -162.3   2.721   73.2  0.1621   15.0  0.4461  -79.7
 2.180  0.5730 -163.2   2.699   72.7  0.1622   14.7  0.4438  -80.1
 2.200  0.5732 -164.1   2.678   72.1  0.1623   14.5  0.4415  -80.5
 2.220  0.5726 -164.9   2.658   71.6  0.1623   14.3  0.4394  -80.8
 2.240  0.5721 -165.7   2.639   71.1  0.1623   14.1  0.4373  -81.2
 2.260  0.5717 -166.6   2.619   70.6  0.1623   14.0  0.4352  -81.5
 2.280  0.5715 -167.4   2.600   70.1  0.1623   13.8  0.4331  -81.9
 2.300  0.5713 -168.2   2.581   69.6  0.1623   13.6  0.4310  -82.3
 2.320  0.5713 -169.0   2.563   69.1  0.1623   13.4  0.4290  -82.6
 2.340  0.5714 -169.8   2.544   68.5  0.1624   13.2  0.4270  -83.0
 2.360  0.5716 -170.7   2.526   68.0  0.1624   13.1  0.4250  -83.4
 2.380  0.5720 -171.5   2.508   67.5  0.1624   12.9  0.4230  -83.7
 2.400  0.5724 -172.3   2.490   66.9  0.1624   12.7  0.4210  -84.1
 2.420  0.5722 -173.1   2.472   66.4  0.1624   12.5  0.4192  -84.5
 2.440  0.5721 -173.8   2.455   66.0  0.1623   12.4  0.4174  -84.9
 2.460  0.5720 -174.6   2.438   65.5  0.1623   12.2  0.4157  -85.2
 2.480  0.5721 -175.4   2.421   65.0  0.1623   12.0  0.4139  -85.6
 2.500  0.5723 -176.2   2.404   64.5  0.1622   11.9  0.4122  -86.0
 2.520  0.5726 -176.9   2.387   64.0  0.1622   11.7  0.4105  -86.4
 2.540  0.5730 -177.7   2.371   63.5  0.1622   11.5  0.4088  -86.8
 2.560  0.5735 -178.5   2.354   63.0  0.1621   11.3  0.4072  -87.2
 2.580  0.5741 -179.2   2.338   62.5  0.1621   11.2  0.4055  -87.6
 2.600  0.5748 -180.0   2.322   62.0  0.1621   11.0  0.4039  -88.0
 2.620  0.5748  179.3   2.307   61.6  0.1620   10.9  0.4024  -88.4
 2.640  0.5749  178.6   2.291   61.1  0.1619   10.7  0.4010  -88.8
 2.660  0.5750  177.9   2.276   60.7  0.1618   10.6  0.3996  -89.1
 2.680  0.5753  177.1   2.261   60.2  0.1617   10.4  0.3982  -89.5
 2.700  0.5756  176.4   2.246   59.7  0.1616   10.3  0.3968  -89.9
 2.720  0.5761  175.7   2.231   59.3  0.1615   10.2  0.3955  -90.3
 2.740  0.5766  175.0   2.217   58.8  0.1614   10.0  0.3941  -90.7
 2.760  0.5772  174.3   2.202   58.3  0.1613    9.9  0.3928  -91.1
 2.780  0.5779  173.6   2.188   57.8  0.1612    9.7  0.3915  -91.5
 2.800  0.5787  172.9   2.174   57.3  0.1611    9.6  0.3902  -91.9
 2.820  0.5789  172.2   2.160   56.9  0.1610    9.5  0.3890  -92.3
 2.840  0.5793  171.6   2.146   56.4  0.1609    9.4  0.3877  -92.7
 2.860  0.5797  170.9   2.132   56.0  0.1608    9.3  0.3865  -93.1
 2.880  0.5801  170.2   2.119   55.5  0.1607    9.2  0.3853  -93.5
 2.900  0.5807  169.5   2.105   55.1  0.1605    9.1  0.3842  -93.9
 2.920  0.5813  168.9   2.092   54.6  0.1604    8.9  0.3830  -94.3
 2.940  0.5821  168.2   2.079   54.1  0.1603    8.8  0.3819  -94.7
 2.960  0.5829  167.5   2.066   53.7  0.1602    8.7  0.3808  -95.1
 2.980  0.5837  166.9   2.053   53.2  0.1601    8.6  0.3797  -95.5
 3.000  0.5847  166.2   2.040   52.7  0.1600    8.5  0.3786  -95.9
 3.100  0.5854  163.2   1.980   50.8  0.1593    8.2  0.3742  -97.8
 3.200  0.5877  160.2   1.921   48.9  0.1587    7.9  0.3702  -99.7
 3.300  0.5916  157.3   1.865   46.8  0.1580    7.5  0.3667 -101.7
 3.400  0.5971  154.3   1.812   44.6  0.1574    7.2  0.3636 -103.7
 3.500  0.6040  151.5   1.762   42.2  0.1567    6.9  0.3609 -105.7
 3.600  0.6069  148.9   1.715   40.5  0.1561    6.9  0.3579 -107.7
 3.700  0.6110  146.3   1.669   38.7  0.1555    6.9  0.3554 -109.8
 3.800  0.6163  143.8   1.626   36.8  0.1549    6.8  0.3534 -111.9
 3.900  0.6228  141.3   1.584   34.8  0.1543    6.8  0.3519 -114.1
 4.000  0.6305  138.9   1.544   32.7  0.1537    6.8  0.3508 -116.2
 4.100  0.6345  136.9   1.505   31.1  0.1534    7.0  0.3506 -118.4
 4.200  0.6393  134.8   1.468   29.4  0.1531    7.2  0.3509 -120.7
 4.300  0.6448  132.9   1.431   27.7  0.1529    7.4  0.3517 -122.9
 4.400  0.6511  130.9   1.396   25.8  0.1526    7.6  0.3530 -125.1
 4.500  0.6582  129.0   1.363   23.9  0.1523    7.8  0.3549 -127.3
 4.600  0.6615  127.3   1.332   22.5  0.1526    8.3  0.3574 -129.3
 4.700  0.6654  125.7   1.301   21.0  0.1530    8.7  0.3603 -131.3
 4.800  0.6698  124.0   1.272   19.4  0.1533    9.2  0.3637 -133.2
 4.900  0.6747  122.4   1.243   17.7  0.1536    9.6  0.3674 -135.1
 5.000  0.6802  120.8   1.216   16.0  0.1540   10.1  0.3716 -137.0
 5.100  0.6833  119.5   1.191   14.8  0.1553   10.6  0.3752 -138.7
 5.200  0.6867  118.1   1.166   13.4  0.1567   11.0  0.3791 -140.3
 5.300  0.6905  116.8   1.142   12.1  0.1580   11.4  0.3833 -142.0
 5.400  0.6947  115.5   1.119   10.7  0.1593   11.9  0.3879 -143.6
 5.500  0.6992  114.2   1.096    9.2  0.1607   12.3  0.3927 -145.1
 5.600  0.7021  113.1   1.076    8.0  0.1627   12.6  0.3972 -146.8
 5.700  0.7053  111.9   1.056    6.8  0.1647   12.8  0.4020 -148.5
 5.800  0.7088  110.8   1.037    5.5  0.1666   13.0  0.4072 -150.2
 5.900  0.7125  109.7   1.018    4.2  0.1686   13.3  0.4128 -151.8
 6.000  0.7165  108.6   1.000    2.8  0.1706   13.5  0.4186 -153.4
 6.100  0.7172  107.6   0.983    1.7  0.1729   13.6  0.4234 -154.8
 6.200  0.7181  106.5   0.966    0.6  0.1751   13.8  0.4284 -156.3
 6.300  0.7193  105.5   0.950   -0.6  0.1774   13.9  0.4338 -157.6
 6.400  0.7207  104.4   0.934   -1.8  0.1796   14.1  0.4393 -159.0
 6.500  0.7223  103.4   0.918   -3.0  0.1819   14.2  0.4451 -160.3
 6.600  0.7223  102.3   0.904   -4.0  0.1848   14.3  0.4482 -161.3
 6.800  0.7230  100.0   0.878   -6.0  0.1907   14.4  0.4549 -163.3
 7.000  0.7249   97.8   0.852   -8.2  0.1966   14.6  0.4622 -165.3
 7.200  0.7278   95.2   0.831  -10.2  0.2040   14.3  0.4656 -167.7
 7.400  0.7322   92.6   0.811  -12.3  0.2115   13.9  0.4698 -170.0
 7.600  0.7374   89.8   0.792  -14.5  0.2192   13.3  0.4740 -172.8
 7.800  0.7438   86.8   0.774  -16.7  0.2273   12.4  0.4787 -175.9
 8.000  0.7522   83.9   0.757  -19.1  0.2354   11.5  0.4848 -179.0
 8.200  0.7569   80.7   0.736  -21.2  0.2428   10.0  0.4880  177.5
 8.400  0.7640   77.6   0.716  -23.5  0.2504    8.5  0.4930  174.1
 8.600  0.7722   74.7   0.697  -25.6  0.2566    6.9  0.4966  170.2
 8.800  0.7813   71.8   0.676  -27.6  0.2615    5.0  0.4997  165.7
 9.000  0.7923   69.1   0.657  -29.7  0.2667    3.3  0.5057  161.3
 9.200  0.8051   66.8   0.635  -31.3  0.2692    1.8  0.5139  155.8
 9.400  0.8191   64.6   0.614  -33.1  0.2720    0.3  0.5266  150.6
 9.600  0.8311   62.6   0.593  -34.6  0.2741   -0.9  0.5418  145.7
 9.800  0.8408   61.0   0.571  -35.9  0.2756   -2.0  0.5593  141.0
10.000  0.8511   59.3   0.550  -37.3  0.2772   -3.1  0.5802  136.7
!
!  f       NFmin   Gammaopt  rn/50
! GHz       dB    MAG  ANG    -
 0.450      0.68  0.58   19   0.26
 0.900      0.74  0.54   38   0.26
 1.900      1.17  0.35   94   0.17
 3.500      1.69  0.37 -166   0.13
!
! (c) 2016  Infineon Technologies AG, Munich
