! Infineon Technologies  Discrete & RF Semiconductors
! BFP460
! VCE =  2.0 V,  IC =  16 mA
! Common Emitter S-Parameters:                            Jan 2016
# GHz  S  MA  R  50
!  f         S11            S21            S12            S22
! GHz     MAG   ANG      MAG   ANG      MAG   ANG      MAG   ANG
 0.030  0.6615  -12.8  39.707  172.5  0.0055   84.0  0.9555   -8.2
 0.035  0.6589  -14.9  39.552  171.1  0.0064   83.4  0.9527   -9.6
 0.040  0.6572  -17.1  39.420  169.7  0.0073   82.9  0.9505  -11.0
 0.045  0.6559  -18.9  39.174  168.2  0.0080   81.9  0.9470  -12.4
 0.050  0.6552  -20.8  38.956  166.6  0.0088   81.1  0.9440  -13.8
 0.055  0.6530  -23.1  38.787  165.5  0.0097   80.3  0.9398  -15.1
 0.060  0.6518  -25.4  38.632  164.4  0.0107   79.7  0.9361  -16.5
 0.065  0.6473  -27.5  38.511  163.1  0.0114   78.6  0.9310  -17.8
 0.070  0.6438  -29.7  38.409  161.8  0.0122   77.7  0.9265  -19.2
 0.075  0.6435  -31.6  38.140  160.8  0.0130   76.5  0.9208  -20.5
 0.080  0.6440  -33.5  37.883  159.8  0.0139   75.5  0.9156  -21.9
 0.085  0.6412  -35.7  37.604  158.6  0.0147   74.6  0.9091  -23.2
 0.090  0.6393  -37.9  37.343  157.3  0.0155   73.8  0.9030  -24.5
 0.095  0.6370  -39.6  36.974  156.3  0.0162   73.2  0.8965  -25.7
 0.100  0.6352  -41.4  36.617  155.2  0.0170   72.6  0.8905  -27.0
 0.105  0.6334  -43.2  36.367  154.1  0.0176   71.6  0.8834  -28.2
 0.110  0.6323  -45.1  36.130  153.0  0.0183   70.7  0.8767  -29.4
 0.115  0.6287  -47.0  35.821  151.9  0.0190   70.0  0.8694  -30.6
 0.120  0.6258  -48.9  35.526  150.8  0.0197   69.4  0.8624  -31.8
 0.125  0.6213  -50.6  35.198  149.9  0.0204   68.7  0.8547  -32.9
 0.130  0.6173  -52.3  34.879  148.9  0.0211   68.1  0.8474  -34.1
 0.135  0.6149  -54.1  34.569  147.9  0.0216   67.5  0.8399  -35.2
 0.140  0.6131  -56.0  34.271  146.8  0.0222   66.9  0.8327  -36.3
 0.145  0.6099  -57.6  33.892  145.8  0.0228   66.3  0.8248  -37.4
 0.150  0.6073  -59.3  33.523  144.8  0.0235   65.8  0.8172  -38.5
 0.155  0.6027  -60.8  33.169  144.0  0.0240   65.2  0.8086  -39.4
 0.160  0.5984  -62.3  32.822  143.2  0.0245   64.5  0.8002  -40.3
 0.165  0.5946  -63.8  32.481  142.4  0.0250   63.9  0.7920  -41.2
 0.170  0.5912  -65.3  32.146  141.6  0.0255   63.4  0.7840  -42.2
 0.175  0.5882  -66.9  31.818  140.8  0.0260   62.8  0.7763  -43.1
 0.180  0.5857  -68.4  31.498  139.9  0.0265   62.3  0.7687  -44.1
 0.185  0.5836  -70.0  31.184  139.0  0.0270   61.8  0.7614  -45.1
 0.190  0.5819  -71.6  30.878  138.1  0.0276   61.3  0.7543  -46.1
 0.195  0.5807  -73.2  30.580  137.2  0.0281   60.9  0.7475  -47.1
 0.200  0.5800  -74.8  30.289  136.3  0.0286   60.4  0.7409  -48.2
 0.220  0.5672  -79.9  29.006  133.6  0.0302   58.8  0.7108  -51.3
 0.240  0.5592  -85.3  27.790  130.7  0.0318   57.4  0.6830  -54.6
 0.260  0.5517  -90.2  26.645  128.2  0.0332   56.1  0.6567  -57.7
 0.280  0.5435  -94.6  25.543  125.9  0.0345   55.0  0.6311  -60.4
 0.300  0.5386  -99.1  24.482  123.5  0.0358   54.0  0.6071  -63.4
 0.320  0.5307 -102.8  23.509  121.7  0.0369   53.2  0.5848  -65.7
 0.340  0.5252 -106.7  22.563  119.7  0.0380   52.5  0.5635  -68.1
 0.360  0.5198 -110.2  21.687  117.8  0.0390   51.9  0.5438  -70.4
 0.380  0.5142 -113.5  20.873  116.2  0.0399   51.4  0.5254  -72.4
 0.400  0.5102 -116.8  20.077  114.4  0.0409   50.9  0.5078  -74.6
 0.420  0.5059 -119.7  19.371  113.1  0.0417   50.6  0.4919  -76.4
 0.440  0.5028 -122.5  18.677  111.7  0.0426   50.3  0.4766  -78.2
 0.450  0.5018 -124.0  18.334  110.9  0.0430   50.2  0.4691  -79.2
 0.460  0.4998 -125.2  18.033  110.3  0.0434   50.1  0.4623  -80.0
 0.480  0.4963 -127.6  17.437  109.2  0.0442   50.0  0.4491  -81.6
 0.500  0.4938 -130.1  16.849  107.9  0.0450   49.8  0.4363  -83.4
 0.520  0.4905 -132.1  16.358  107.0  0.0458   49.7  0.4255  -84.7
 0.540  0.4879 -134.2  15.871  106.0  0.0465   49.7  0.4148  -86.0
 0.560  0.4859 -136.3  15.389  105.0  0.0473   49.6  0.4045  -87.4
 0.580  0.4845 -138.4  14.913  103.9  0.0480   49.6  0.3943  -88.9
 0.600  0.4838 -140.5  14.442  102.7  0.0488   49.5  0.3845  -90.5
 0.620  0.4818 -142.2  14.069  101.9  0.0496   49.5  0.3764  -91.6
 0.640  0.4802 -143.8  13.698  101.1  0.0503   49.6  0.3686  -92.8
 0.660  0.4791 -145.5  13.330  100.3  0.0511   49.6  0.3608  -94.1
 0.680  0.4783 -147.2  12.965   99.4  0.0518   49.7  0.3533  -95.4
 0.700  0.4780 -148.9  12.604   98.4  0.0526   49.7  0.3459  -96.7
 0.720  0.4768 -150.3  12.313   97.8  0.0533   49.8  0.3399  -97.7
 0.740  0.4759 -151.6  12.024   97.1  0.0541   49.8  0.3339  -98.7
 0.760  0.4753 -153.0  11.736   96.4  0.0548   49.9  0.3281  -99.8
 0.780  0.4750 -154.4  11.451   95.7  0.0556   49.9  0.3224 -100.9
 0.800  0.4749 -155.8  11.167   94.9  0.0563   50.0  0.3168 -102.0
 0.820  0.4742 -157.0  10.937   94.3  0.0571   50.1  0.3122 -102.9
 0.840  0.4738 -158.2  10.707   93.7  0.0578   50.2  0.3077 -103.8
 0.860  0.4736 -159.4  10.480   93.1  0.0586   50.3  0.3032 -104.7
 0.880  0.4735 -160.6  10.253   92.4  0.0593   50.4  0.2989 -105.7
 0.900  0.4737 -161.8  10.028   91.7  0.0601   50.5  0.2946 -106.7
 0.920  0.4731 -162.8   9.838   91.2  0.0609   50.6  0.2910 -107.5
 0.940  0.4726 -163.9   9.649   90.6  0.0616   50.7  0.2874 -108.4
 0.960  0.4723 -164.9   9.461   90.1  0.0624   50.7  0.2839 -109.2
 0.980  0.4721 -166.0   9.274   89.5  0.0631   50.8  0.2805 -110.1
 1.000  0.4721 -167.0   9.088   88.9  0.0639   50.9  0.2771 -111.0
 1.020  0.4719 -167.9   8.930   88.4  0.0647   51.0  0.2743 -111.7
 1.040  0.4718 -168.8   8.773   87.9  0.0655   51.0  0.2716 -112.5
 1.060  0.4719 -169.8   8.617   87.4  0.0662   51.1  0.2688 -113.3
 1.080  0.4720 -170.7   8.462   86.9  0.0670   51.1  0.2662 -114.1
 1.100  0.4723 -171.6   8.307   86.3  0.0678   51.2  0.2636 -114.9
 1.120  0.4722 -172.5   8.174   85.9  0.0686   51.3  0.2613 -115.6
 1.140  0.4721 -173.3   8.042   85.4  0.0694   51.3  0.2591 -116.3
 1.160  0.4722 -174.2   7.910   84.9  0.0702   51.4  0.2569 -117.0
 1.180  0.4724 -175.0   7.779   84.4  0.0710   51.4  0.2547 -117.8
 1.200  0.4727 -175.9   7.648   83.9  0.0718   51.5  0.2526 -118.5
 1.220  0.4730 -176.7   7.534   83.5  0.0726   51.5  0.2509 -119.1
 1.240  0.4733 -177.4   7.421   83.0  0.0734   51.5  0.2491 -119.8
 1.260  0.4737 -178.2   7.308   82.6  0.0742   51.6  0.2475 -120.5
 1.280  0.4742 -178.9   7.195   82.1  0.0750   51.6  0.2458 -121.1
 1.300  0.4748 -179.7   7.083   81.6  0.0758   51.6  0.2442 -121.8
 1.320  0.4748  179.6   6.985   81.2  0.0766   51.6  0.2427 -122.4
 1.340  0.4749  178.9   6.888   80.8  0.0774   51.6  0.2412 -123.1
 1.360  0.4751  178.2   6.791   80.4  0.0783   51.7  0.2397 -123.7
 1.380  0.4754  177.5   6.695   79.9  0.0791   51.7  0.2382 -124.3
 1.400  0.4757  176.8   6.599   79.5  0.0799   51.7  0.2368 -125.0
 1.420  0.4760  176.1   6.514   79.1  0.0807   51.7  0.2357 -125.5
 1.440  0.4763  175.4   6.429   78.7  0.0815   51.7  0.2345 -126.1
 1.460  0.4768  174.8   6.344   78.3  0.0824   51.7  0.2334 -126.7
 1.480  0.4772  174.1   6.260   77.8  0.0832   51.7  0.2324 -127.2
 1.500  0.4778  173.4   6.176   77.4  0.0840   51.7  0.2313 -127.8
 1.520  0.4781  172.7   6.101   77.0  0.0848   51.7  0.2303 -128.4
 1.540  0.4784  172.1   6.026   76.6  0.0856   51.7  0.2294 -128.9
 1.560  0.4787  171.4   5.951   76.2  0.0865   51.6  0.2284 -129.5
 1.580  0.4792  170.8   5.877   75.8  0.0873   51.6  0.2275 -130.0
 1.600  0.4797  170.1   5.803   75.4  0.0881   51.6  0.2266 -130.6
 1.620  0.4800  169.5   5.737   75.0  0.0889   51.6  0.2258 -131.1
 1.640  0.4804  169.0   5.671   74.7  0.0897   51.5  0.2251 -131.6
 1.660  0.4808  168.4   5.605   74.3  0.0906   51.5  0.2243 -132.1
 1.680  0.4813  167.9   5.540   73.9  0.0914   51.4  0.2236 -132.7
 1.700  0.4818  167.3   5.475   73.5  0.0922   51.4  0.2229 -133.2
 1.720  0.4822  166.7   5.416   73.1  0.0930   51.3  0.2223 -133.7
 1.740  0.4827  166.1   5.356   72.8  0.0939   51.3  0.2218 -134.2
 1.760  0.4832  165.6   5.297   72.4  0.0947   51.2  0.2212 -134.8
 1.780  0.4838  165.0   5.239   72.0  0.0956   51.2  0.2207 -135.3
 1.800  0.4844  164.4   5.180   71.6  0.0964   51.1  0.2202 -135.8
 1.820  0.4849  163.8   5.128   71.2  0.0972   51.0  0.2197 -136.3
 1.840  0.4855  163.3   5.075   70.9  0.0981   51.0  0.2192 -136.8
 1.860  0.4862  162.7   5.023   70.5  0.0989   50.9  0.2187 -137.3
 1.880  0.4869  162.2   4.972   70.1  0.0998   50.9  0.2182 -137.8
 1.900  0.4876  161.6   4.920   69.7  0.1006   50.8  0.2178 -138.3
 1.920  0.4881  161.1   4.872   69.3  0.1014   50.7  0.2174 -138.8
 1.940  0.4886  160.6   4.824   69.0  0.1022   50.6  0.2171 -139.3
 1.960  0.4891  160.0   4.777   68.6  0.1031   50.6  0.2168 -139.7
 1.980  0.4897  159.5   4.729   68.2  0.1039   50.5  0.2165 -140.2
 2.000  0.4903  159.0   4.682   67.8  0.1047   50.4  0.2162 -140.7
 2.020  0.4909  158.5   4.639   67.5  0.1055   50.3  0.2160 -141.2
 2.040  0.4915  158.0   4.597   67.2  0.1064   50.2  0.2158 -141.7
 2.060  0.4922  157.5   4.555   66.8  0.1072   50.1  0.2156 -142.2
 2.080  0.4929  156.9   4.512   66.5  0.1080   50.0  0.2154 -142.7
 2.100  0.4937  156.4   4.470   66.1  0.1088   49.9  0.2152 -143.2
 2.120  0.4945  155.9   4.429   65.8  0.1097   49.8  0.2151 -143.7
 2.140  0.4954  155.4   4.387   65.4  0.1105   49.8  0.2150 -144.2
 2.160  0.4962  154.9   4.345   65.1  0.1113   49.7  0.2149 -144.7
 2.180  0.4971  154.4   4.304   64.7  0.1122   49.6  0.2148 -145.2
 2.200  0.4981  153.9   4.263   64.3  0.1130   49.5  0.2147 -145.7
 2.220  0.4988  153.4   4.227   64.0  0.1138   49.4  0.2147 -146.2
 2.240  0.4996  153.0   4.192   63.6  0.1146   49.3  0.2147 -146.7
 2.260  0.5003  152.5   4.157   63.3  0.1154   49.2  0.2147 -147.1
 2.280  0.5012  152.0   4.122   63.0  0.1162   49.0  0.2147 -147.6
 2.300  0.5020  151.6   4.087   62.6  0.1170   48.9  0.2147 -148.1
 2.320  0.5029  151.1   4.052   62.3  0.1179   48.8  0.2148 -148.6
 2.340  0.5038  150.7   4.017   61.9  0.1187   48.7  0.2148 -149.1
 2.360  0.5047  150.2   3.983   61.5  0.1195   48.6  0.2149 -149.5
 2.380  0.5057  149.8   3.948   61.2  0.1203   48.5  0.2150 -150.0
 2.400  0.5067  149.3   3.914   60.8  0.1211   48.4  0.2151 -150.5
 2.420  0.5075  148.8   3.883   60.5  0.1219   48.3  0.2153 -151.0
 2.440  0.5083  148.4   3.853   60.2  0.1227   48.1  0.2156 -151.5
 2.460  0.5092  147.9   3.822   59.8  0.1235   48.0  0.2158 -152.0
 2.480  0.5101  147.5   3.792   59.5  0.1243   47.9  0.2161 -152.5
 2.500  0.5111  147.0   3.762   59.2  0.1251   47.8  0.2164 -153.0
 2.520  0.5120  146.6   3.732   58.8  0.1260   47.7  0.2167 -153.5
 2.540  0.5130  146.1   3.702   58.5  0.1268   47.5  0.2170 -153.9
 2.560  0.5140  145.7   3.672   58.1  0.1276   47.4  0.2173 -154.4
 2.580  0.5151  145.2   3.642   57.8  0.1284   47.3  0.2176 -154.9
 2.600  0.5162  144.8   3.613   57.4  0.1292   47.2  0.2180 -155.4
 2.620  0.5170  144.4   3.587   57.1  0.1300   47.1  0.2184 -155.8
 2.640  0.5179  144.0   3.561   56.8  0.1307   46.9  0.2189 -156.3
 2.660  0.5188  143.6   3.535   56.5  0.1315   46.8  0.2193 -156.7
 2.680  0.5197  143.1   3.509   56.2  0.1323   46.7  0.2198 -157.2
 2.700  0.5207  142.7   3.483   55.9  0.1330   46.5  0.2203 -157.6
 2.720  0.5216  142.3   3.457   55.5  0.1338   46.4  0.2208 -158.1
 2.740  0.5226  141.9   3.432   55.2  0.1346   46.3  0.2213 -158.5
 2.760  0.5237  141.5   3.407   54.9  0.1354   46.1  0.2218 -158.9
 2.780  0.5247  141.1   3.381   54.5  0.1361   46.0  0.2224 -159.4
 2.800  0.5258  140.7   3.356   54.2  0.1369   45.9  0.2229 -159.8
 2.820  0.5267  140.3   3.333   53.9  0.1377   45.8  0.2234 -160.2
 2.840  0.5275  139.9   3.310   53.6  0.1384   45.6  0.2240 -160.7
 2.860  0.5284  139.5   3.287   53.3  0.1392   45.5  0.2246 -161.1
 2.880  0.5294  139.2   3.264   53.0  0.1399   45.3  0.2251 -161.5
 2.900  0.5303  138.8   3.241   52.7  0.1407   45.2  0.2257 -162.0
 2.920  0.5313  138.4   3.219   52.3  0.1414   45.0  0.2263 -162.4
 2.940  0.5323  138.0   3.196   52.0  0.1422   44.9  0.2270 -162.8
 2.960  0.5333  137.6   3.174   51.7  0.1430   44.8  0.2276 -163.3
 2.980  0.5343  137.3   3.151   51.3  0.1437   44.6  0.2282 -163.7
 3.000  0.5354  136.9   3.129   51.0  0.1445   44.5  0.2289 -164.1
 3.100  0.5395  135.0   3.034   49.7  0.1481   43.7  0.2320 -166.0
 3.200  0.5441  133.2   2.940   48.2  0.1517   42.9  0.2353 -167.9
 3.300  0.5493  131.4   2.848   46.7  0.1553   42.2  0.2389 -169.8
 3.400  0.5551  129.6   2.758   45.1  0.1589   41.5  0.2427 -171.6
 3.500  0.5613  127.9   2.671   43.4  0.1626   40.8  0.2468 -173.3
 3.600  0.5665  126.3   2.598   42.1  0.1658   40.0  0.2507 -175.3
 3.700  0.5721  124.6   2.526   40.8  0.1691   39.2  0.2549 -177.2
 3.800  0.5782  123.1   2.456   39.3  0.1724   38.4  0.2593 -179.0
 3.900  0.5848  121.5   2.388   37.8  0.1757   37.7  0.2640  179.2
 4.000  0.5917  120.0   2.321   36.2  0.1790   37.0  0.2690  177.5
 4.100  0.5971  118.6   2.263   35.0  0.1819   36.3  0.2743  175.7
 4.200  0.6028  117.3   2.207   33.8  0.1848   35.5  0.2798  174.1
 4.300  0.6088  116.0   2.151   32.4  0.1877   34.8  0.2856  172.4
 4.400  0.6151  114.7   2.097   31.1  0.1906   34.2  0.2916  170.9
 4.500  0.6217  113.5   2.044   29.6  0.1936   33.5  0.2978  169.4
 4.600  0.6256  112.3   1.999   28.5  0.1964   32.8  0.3021  168.1
 4.700  0.6298  111.1   1.955   27.4  0.1993   32.2  0.3066  166.9
 4.800  0.6343  110.0   1.911   26.2  0.2022   31.6  0.3112  165.8
 4.900  0.6390  108.8   1.869   24.9  0.2051   31.0  0.3159  164.6
 5.000  0.6440  107.7   1.827   23.6  0.2080   30.4  0.3207  163.5
 5.100  0.6467  106.7   1.793   22.6  0.2111   29.7  0.3236  162.6
 5.200  0.6496  105.7   1.759   21.5  0.2142   29.0  0.3265  161.7
 5.300  0.6527  104.7   1.725   20.4  0.2173   28.4  0.3295  160.8
 5.400  0.6560  103.8   1.693   19.3  0.2205   27.7  0.3326  159.9
 5.500  0.6595  102.8   1.661   18.1  0.2237   27.1  0.3358  159.1
 5.600  0.6617  102.0   1.633   17.1  0.2266   26.3  0.3393  158.2
 5.700  0.6640  101.2   1.606   16.0  0.2295   25.6  0.3428  157.4
 5.800  0.6665  100.4   1.580   14.9  0.2325   24.8  0.3464  156.6
 5.900  0.6691   99.6   1.554   13.7  0.2355   24.1  0.3501  155.8
 6.000  0.6718   98.8   1.529   12.5  0.2386   23.4  0.3538  155.0
 6.100  0.6722   98.0   1.506   11.5  0.2411   22.7  0.3561  154.5
 6.200  0.6727   97.2   1.483   10.5  0.2437   22.0  0.3585  153.9
 6.300  0.6734   96.3   1.461    9.4  0.2463   21.3  0.3609  153.4
 6.400  0.6742   95.5   1.439    8.3  0.2489   20.7  0.3633  152.9
 6.500  0.6751   94.7   1.418    7.2  0.2516   20.0  0.3657  152.4
 6.600  0.6745   93.8   1.400    6.2  0.2545   19.3  0.3652  152.0
 6.800  0.6738   91.9   1.365    4.2  0.2605   18.0  0.3644  151.1
 7.000  0.6738   90.0   1.332    2.1  0.2666   16.8  0.3636  150.3
 7.200  0.6755   87.8   1.305    0.0  0.2730   15.2  0.3631  148.8
 7.400  0.6783   85.6   1.279   -2.2  0.2795   13.6  0.3628  147.3
 7.600  0.6823   83.2   1.253   -4.5  0.2858   11.9  0.3645  145.4
 7.800  0.6879   80.7   1.227   -6.9  0.2919   10.1  0.3682  143.1
 8.000  0.6949   78.2   1.204   -9.5  0.2982    8.3  0.3726  140.9
 8.200  0.7001   75.5   1.173  -11.8  0.3022    6.2  0.3770  138.0
 8.400  0.7069   72.9   1.144  -14.3  0.3066    4.1  0.3822  135.3
 8.600  0.7161   70.4   1.114  -16.7  0.3094    2.1  0.3889  131.9
 8.800  0.7276   68.1   1.082  -19.0  0.3104    0.0  0.3977  127.9
 9.000  0.7402   65.8   1.053  -21.5  0.3119   -2.0  0.4083  124.1
 9.200  0.7561   63.9   1.019  -23.3  0.3107   -3.6  0.4249  119.7
 9.400  0.7727   62.2   0.985  -25.3  0.3097   -5.1  0.4438  115.7
 9.600  0.7874   60.5   0.952  -27.0  0.3086   -6.4  0.4631  112.1
 9.800  0.8001   59.0   0.920  -28.5  0.3072   -7.3  0.4826  109.0
10.000  0.8134   57.5   0.888  -30.1  0.3059   -8.3  0.5033  106.1
!
!  f       NFmin   Gammaopt  rn/50
! GHz       dB    MAG  ANG    -
 0.450      1.15  0.02 -171   0.12
 0.900      1.13  0.05   97   0.15
 1.900      1.29  0.14 -157   0.12
 3.500      1.26  0.38 -127   0.14
!
! (c) 2016  Infineon Technologies AG, Munich
