! Infineon Technologies  Discrete & RF Semiconductors
! BFP460
! VCE =  1.5 V,  IC =  1.0 mA
! Common Emitter S-Parameters:                            Jan 2016
# GHz  S  MA  R  50
!  f         S11            S21            S12            S22
! GHz     MAG   ANG      MAG   ANG      MAG   ANG      MAG   ANG
 0.030  0.9687   -2.6   3.790  178.4  0.0069   88.2  0.9968   -1.6
 0.035  0.9699   -3.1   3.784  177.9  0.0080   88.0  0.9965   -1.8
 0.040  0.9712   -3.6   3.779  177.4  0.0092   87.8  0.9963   -2.0
 0.045  0.9704   -4.0   3.773  176.8  0.0104   87.2  0.9961   -2.2
 0.050  0.9697   -4.4   3.768  176.1  0.0117   86.7  0.9959   -2.5
 0.055  0.9691   -5.0   3.767  175.9  0.0128   87.0  0.9957   -2.7
 0.060  0.9686   -5.6   3.767  175.6  0.0139   87.2  0.9956   -3.0
 0.065  0.9675   -5.9   3.783  175.2  0.0150   86.6  0.9956   -3.2
 0.070  0.9664   -6.3   3.799  174.8  0.0162   86.0  0.9956   -3.5
 0.075  0.9691   -6.8   3.791  174.7  0.0174   85.8  0.9954   -3.8
 0.080  0.9718   -7.2   3.784  174.6  0.0186   85.7  0.9952   -4.1
 0.085  0.9698   -7.6   3.786  174.2  0.0197   85.1  0.9947   -4.3
 0.090  0.9678   -8.1   3.789  173.8  0.0208   84.6  0.9942   -4.6
 0.095  0.9678   -8.6   3.778  173.5  0.0219   84.4  0.9940   -4.8
 0.100  0.9679   -9.0   3.767  173.1  0.0231   84.2  0.9938   -5.1
 0.105  0.9687   -9.5   3.770  172.8  0.0242   83.8  0.9933   -5.3
 0.110  0.9696  -10.0   3.774  172.5  0.0254   83.4  0.9929   -5.5
 0.115  0.9686  -10.4   3.778  172.1  0.0265   83.2  0.9926   -5.8
 0.120  0.9676  -10.8   3.783  171.8  0.0277   83.1  0.9923   -6.1
 0.125  0.9673  -11.2   3.780  171.5  0.0288   82.8  0.9918   -6.3
 0.130  0.9671  -11.6   3.778  171.2  0.0299   82.5  0.9914   -6.5
 0.135  0.9661  -12.0   3.782  170.8  0.0310   82.2  0.9910   -6.8
 0.140  0.9652  -12.5   3.787  170.4  0.0322   81.9  0.9907   -7.1
 0.145  0.9652  -13.0   3.781  170.0  0.0333   81.5  0.9903   -7.3
 0.150  0.9653  -13.4   3.775  169.6  0.0345   81.2  0.9899   -7.6
 0.155  0.9646  -13.8   3.773  169.3  0.0356   80.8  0.9893   -7.8
 0.160  0.9640  -14.3   3.771  168.9  0.0367   80.5  0.9887   -8.1
 0.165  0.9634  -14.7   3.769  168.6  0.0378   80.2  0.9881   -8.3
 0.170  0.9629  -15.2   3.768  168.3  0.0389   79.9  0.9876   -8.6
 0.175  0.9625  -15.6   3.766  168.0  0.0400   79.6  0.9870   -8.8
 0.180  0.9621  -16.1   3.765  167.6  0.0411   79.3  0.9865   -9.1
 0.185  0.9618  -16.5   3.764  167.3  0.0423   79.1  0.9860   -9.3
 0.190  0.9615  -17.0   3.763  167.0  0.0434   78.8  0.9855   -9.6
 0.195  0.9613  -17.4   3.762  166.6  0.0445   78.6  0.9850   -9.8
 0.200  0.9612  -17.9   3.761  166.3  0.0456   78.4  0.9846  -10.1
 0.220  0.9582  -19.7   3.749  164.9  0.0500   77.1  0.9819  -11.1
 0.240  0.9560  -21.4   3.740  163.6  0.0544   76.1  0.9794  -12.0
 0.260  0.9536  -23.2   3.728  162.2  0.0587   74.9  0.9765  -13.0
 0.280  0.9508  -24.9   3.714  160.9  0.0629   73.7  0.9731  -14.0
 0.300  0.9488  -26.6   3.701  159.6  0.0672   72.7  0.9700  -15.0
 0.320  0.9444  -28.3   3.685  158.3  0.0713   71.5  0.9662  -15.9
 0.340  0.9409  -30.1   3.671  157.0  0.0755   70.4  0.9627  -16.8
 0.360  0.9375  -31.8   3.654  155.7  0.0795   69.3  0.9588  -17.8
 0.380  0.9341  -33.5   3.635  154.4  0.0835   68.3  0.9545  -18.7
 0.400  0.9315  -35.1   3.617  153.1  0.0874   67.3  0.9504  -19.6
 0.420  0.9269  -36.8   3.597  151.8  0.0912   66.2  0.9461  -20.5
 0.440  0.9232  -38.5   3.579  150.5  0.0951   65.1  0.9420  -21.4
 0.450  0.9216  -39.4   3.571  149.8  0.0970   64.6  0.9400  -21.9
 0.460  0.9190  -40.2   3.559  149.2  0.0988   64.0  0.9374  -22.3
 0.480  0.9144  -41.8   3.537  148.0  0.1024   63.0  0.9323  -23.2
 0.500  0.9106  -43.5   3.516  146.8  0.1060   62.0  0.9274  -24.0
 0.520  0.9049  -45.1   3.491  145.6  0.1093   60.9  0.9222  -24.8
 0.540  0.8999  -46.7   3.468  144.4  0.1126   59.8  0.9172  -25.7
 0.560  0.8956  -48.3   3.446  143.1  0.1160   58.8  0.9124  -26.5
 0.580  0.8920  -50.0   3.426  141.9  0.1194   57.9  0.9078  -27.3
 0.600  0.8892  -51.6   3.408  140.6  0.1228   57.0  0.9034  -28.2
 0.620  0.8832  -53.1   3.382  139.5  0.1257   56.0  0.8976  -29.0
 0.640  0.8779  -54.7   3.357  138.3  0.1287   55.0  0.8920  -29.8
 0.660  0.8732  -56.2   3.334  137.2  0.1316   54.1  0.8865  -30.6
 0.680  0.8692  -57.8   3.312  136.0  0.1347   53.2  0.8813  -31.5
 0.700  0.8658  -59.4   3.291  134.8  0.1377   52.3  0.8762  -32.3
 0.720  0.8599  -60.9   3.263  133.7  0.1402   51.3  0.8705  -33.0
 0.740  0.8545  -62.3   3.236  132.7  0.1428   50.4  0.8649  -33.7
 0.760  0.8498  -63.9   3.211  131.6  0.1454   49.5  0.8595  -34.4
 0.780  0.8456  -65.4   3.186  130.4  0.1480   48.6  0.8542  -35.2
 0.800  0.8420  -66.9   3.163  129.3  0.1507   47.8  0.8490  -35.9
 0.820  0.8365  -68.3   3.138  128.3  0.1529   47.0  0.8433  -36.6
 0.840  0.8316  -69.7   3.113  127.3  0.1551   46.1  0.8377  -37.2
 0.860  0.8272  -71.2   3.090  126.2  0.1574   45.3  0.8322  -37.9
 0.880  0.8233  -72.6   3.067  125.2  0.1597   44.6  0.8268  -38.6
 0.900  0.8199  -74.1   3.046  124.1  0.1620   43.8  0.8216  -39.3
 0.920  0.8144  -75.5   3.020  123.1  0.1639   43.0  0.8162  -39.9
 0.940  0.8093  -76.9   2.994  122.1  0.1659   42.2  0.8108  -40.6
 0.960  0.8047  -78.3   2.970  121.1  0.1678   41.4  0.8056  -41.2
 0.980  0.8006  -79.7   2.947  120.1  0.1699   40.6  0.8004  -41.8
 1.000  0.7970  -81.1   2.924  119.1  0.1719   39.9  0.7954  -42.5
 1.020  0.7920  -82.4   2.899  118.2  0.1735   39.1  0.7903  -43.1
 1.040  0.7874  -83.7   2.874  117.3  0.1752   38.4  0.7853  -43.7
 1.060  0.7831  -85.0   2.851  116.3  0.1769   37.6  0.7804  -44.3
 1.080  0.7794  -86.4   2.828  115.4  0.1786   36.9  0.7755  -45.0
 1.100  0.7760  -87.7   2.806  114.4  0.1803   36.2  0.7708  -45.6
 1.120  0.7714  -89.0   2.782  113.5  0.1817   35.5  0.7660  -46.1
 1.140  0.7672  -90.2   2.758  112.6  0.1831   34.8  0.7612  -46.7
 1.160  0.7633  -91.5   2.735  111.7  0.1845   34.2  0.7565  -47.2
 1.180  0.7599  -92.8   2.713  110.8  0.1860   33.5  0.7519  -47.7
 1.200  0.7568  -94.1   2.691  109.9  0.1875   32.9  0.7473  -48.3
 1.220  0.7526  -95.3   2.669  109.1  0.1886   32.2  0.7427  -48.8
 1.240  0.7488  -96.6   2.647  108.2  0.1898   31.6  0.7382  -49.4
 1.260  0.7453  -97.8   2.626  107.4  0.1910   31.0  0.7337  -49.9
 1.280  0.7422  -99.1   2.605  106.5  0.1922   30.3  0.7293  -50.4
 1.300  0.7394 -100.4   2.585  105.6  0.1934   29.7  0.7250  -51.0
 1.320  0.7356 -101.6   2.564  104.8  0.1943   29.1  0.7206  -51.5
 1.340  0.7321 -102.7   2.543  104.0  0.1953   28.5  0.7163  -51.9
 1.360  0.7289 -103.9   2.522  103.2  0.1962   27.9  0.7120  -52.4
 1.380  0.7260 -105.1   2.502  102.4  0.1972   27.3  0.7078  -52.9
 1.400  0.7234 -106.3   2.483  101.6  0.1982   26.7  0.7036  -53.4
 1.420  0.7198 -107.4   2.463  100.8  0.1990   26.1  0.6997  -53.8
 1.440  0.7164 -108.6   2.444  100.0  0.1998   25.6  0.6958  -54.3
 1.460  0.7134 -109.8   2.425   99.2  0.2006   25.0  0.6919  -54.8
 1.480  0.7106 -110.9   2.407   98.4  0.2014   24.5  0.6881  -55.2
 1.500  0.7082 -112.1   2.389   97.6  0.2023   23.9  0.6844  -55.7
 1.520  0.7048 -113.2   2.370   96.9  0.2029   23.4  0.6806  -56.1
 1.540  0.7018 -114.4   2.351   96.1  0.2036   22.9  0.6768  -56.6
 1.560  0.6990 -115.5   2.333   95.4  0.2042   22.4  0.6731  -57.0
 1.580  0.6964 -116.6   2.315   94.6  0.2049   21.9  0.6694  -57.5
 1.600  0.6942 -117.8   2.298   93.8  0.2056   21.4  0.6657  -57.9
 1.620  0.6917 -118.8   2.281   93.1  0.2061   20.9  0.6626  -58.3
 1.640  0.6895 -119.9   2.264   92.4  0.2067   20.4  0.6595  -58.7
 1.660  0.6875 -121.0   2.248   91.7  0.2073   19.8  0.6565  -59.1
 1.680  0.6857 -122.0   2.232   90.9  0.2079   19.3  0.6535  -59.5
 1.700  0.6842 -123.1   2.216   90.2  0.2085   18.8  0.6505  -59.9
 1.720  0.6816 -124.1   2.199   89.5  0.2089   18.3  0.6473  -60.3
 1.740  0.6792 -125.2   2.183   88.9  0.2092   17.8  0.6441  -60.7
 1.760  0.6771 -126.3   2.167   88.2  0.2096   17.4  0.6410  -61.1
 1.780  0.6752 -127.3   2.151   87.5  0.2100   16.9  0.6379  -61.6
 1.800  0.6735 -128.4   2.136   86.8  0.2104   16.4  0.6348  -62.0
 1.820  0.6715 -129.4   2.121   86.1  0.2107   16.0  0.6318  -62.4
 1.840  0.6696 -130.4   2.106   85.5  0.2109   15.5  0.6288  -62.8
 1.860  0.6680 -131.4   2.091   84.8  0.2112   15.1  0.6258  -63.2
 1.880  0.6665 -132.4   2.077   84.1  0.2115   14.6  0.6229  -63.6
 1.900  0.6653 -133.4   2.063   83.4  0.2118   14.2  0.6200  -64.0
 1.920  0.6635 -134.4   2.048   82.8  0.2120   13.8  0.6174  -64.4
 1.940  0.6619 -135.4   2.034   82.1  0.2122   13.4  0.6148  -64.8
 1.960  0.6604 -136.4   2.020   81.4  0.2124   12.9  0.6123  -65.1
 1.980  0.6592 -137.4   2.006   80.8  0.2127   12.5  0.6098  -65.5
 2.000  0.6582 -138.4   1.993   80.1  0.2129   12.1  0.6073  -65.9
 2.020  0.6562 -139.4   1.979   79.5  0.2129   11.7  0.6048  -66.3
 2.040  0.6544 -140.3   1.965   78.9  0.2129   11.3  0.6023  -66.6
 2.060  0.6528 -141.3   1.952   78.3  0.2130   10.9  0.5998  -67.0
 2.080  0.6514 -142.2   1.938   77.7  0.2130   10.5  0.5974  -67.3
 2.100  0.6502 -143.2   1.925   77.1  0.2131   10.1  0.5949  -67.7
 2.120  0.6491 -144.2   1.912   76.4  0.2131    9.7  0.5925  -68.1
 2.140  0.6483 -145.2   1.900   75.8  0.2132    9.3  0.5902  -68.5
 2.160  0.6476 -146.1   1.887   75.1  0.2133    8.9  0.5878  -68.8
 2.180  0.6471 -147.1   1.875   74.5  0.2134    8.5  0.5855  -69.2
 2.200  0.6468 -148.1   1.863   73.8  0.2135    8.1  0.5832  -69.6
 2.220  0.6455 -149.0   1.851   73.2  0.2133    7.7  0.5810  -70.0
 2.240  0.6444 -149.9   1.839   72.6  0.2132    7.4  0.5788  -70.3
 2.260  0.6435 -150.8   1.827   72.1  0.2131    7.0  0.5766  -70.7
 2.280  0.6427 -151.7   1.815   71.5  0.2129    6.7  0.5744  -71.0
 2.300  0.6421 -152.6   1.804   70.8  0.2128    6.3  0.5723  -71.4
 2.320  0.6416 -153.5   1.793   70.2  0.2127    5.9  0.5702  -71.8
 2.340  0.6413 -154.4   1.782   69.6  0.2126    5.6  0.5681  -72.2
 2.360  0.6411 -155.3   1.771   69.0  0.2125    5.2  0.5660  -72.5
 2.380  0.6411 -156.2   1.760   68.3  0.2124    4.9  0.5640  -72.9
 2.400  0.6413 -157.1   1.750   67.7  0.2123    4.5  0.5620  -73.3
 2.420  0.6403 -158.0   1.739   67.2  0.2120    4.2  0.5601  -73.7
 2.440  0.6395 -158.8   1.728   66.6  0.2118    3.8  0.5582  -74.0
 2.460  0.6388 -159.7   1.717   66.1  0.2115    3.5  0.5563  -74.4
 2.480  0.6383 -160.5   1.706   65.5  0.2113    3.2  0.5544  -74.8
 2.500  0.6378 -161.4   1.695   65.0  0.2110    2.9  0.5526  -75.2
 2.520  0.6376 -162.3   1.684   64.4  0.2108    2.5  0.5508  -75.6
 2.540  0.6375 -163.1   1.674   63.9  0.2105    2.2  0.5490  -75.9
 2.560  0.6375 -164.0   1.664   63.3  0.2103    1.9  0.5472  -76.3
 2.580  0.6377 -164.8   1.654   62.7  0.2101    1.5  0.5455  -76.7
 2.600  0.6380 -165.7   1.644   62.1  0.2099    1.2  0.5438  -77.1
 2.620  0.6374 -166.5   1.634   61.6  0.2095    0.9  0.5423  -77.5
 2.640  0.6370 -167.3   1.624   61.1  0.2091    0.6  0.5409  -77.8
 2.660  0.6367 -168.1   1.615   60.5  0.2088    0.3  0.5394  -78.2
 2.680  0.6365 -168.9   1.605   60.0  0.2084   -0.1  0.5380  -78.6
 2.700  0.6364 -169.6   1.596   59.5  0.2080   -0.4  0.5366  -79.0
 2.720  0.6365 -170.4   1.586   58.9  0.2077   -0.7  0.5352  -79.4
 2.740  0.6367 -171.2   1.577   58.4  0.2073   -1.0  0.5339  -79.7
 2.760  0.6370 -172.0   1.568   57.8  0.2070   -1.4  0.5326  -80.1
 2.780  0.6374 -172.8   1.560   57.3  0.2066   -1.7  0.5313  -80.5
 2.800  0.6379 -173.6   1.551   56.7  0.2063   -2.0  0.5300  -80.9
 2.820  0.6376 -174.4   1.542   56.2  0.2058   -2.2  0.5287  -81.3
 2.840  0.6374 -175.1   1.533   55.7  0.2053   -2.5  0.5274  -81.6
 2.860  0.6373 -175.9   1.524   55.2  0.2048   -2.7  0.5261  -82.0
 2.880  0.6373 -176.6   1.515   54.7  0.2043   -3.0  0.5248  -82.4
 2.900  0.6374 -177.4   1.506   54.1  0.2039   -3.2  0.5236  -82.8
 2.920  0.6377 -178.1   1.497   53.6  0.2034   -3.5  0.5224  -83.2
 2.940  0.6380 -178.9   1.489   53.1  0.2029   -3.7  0.5212  -83.5
 2.960  0.6385 -179.6   1.480   52.5  0.2024   -4.0  0.5201  -83.9
 2.980  0.6390  179.6   1.472   52.0  0.2020   -4.2  0.5189  -84.3
 3.000  0.6397  178.9   1.464   51.4  0.2015   -4.5  0.5178  -84.7
 3.100  0.6376  175.5   1.422   49.3  0.1983   -5.5  0.5127  -86.6
 3.200  0.6378  172.1   1.383   47.0  0.1951   -6.5  0.5082  -88.5
 3.300  0.6403  168.7   1.346   44.6  0.1920   -7.6  0.5042  -90.4
 3.400  0.6450  165.3   1.311   42.1  0.1890   -8.7  0.5009  -92.4
 3.500  0.6519  162.0   1.279   39.4  0.1860   -9.8  0.4981  -94.4
 3.600  0.6530  159.0   1.245   37.5  0.1824  -10.3  0.4947  -96.4
 3.700  0.6559  156.1   1.212   35.4  0.1788  -10.8  0.4919  -98.4
 3.800  0.6605  153.2   1.182   33.3  0.1752  -11.4  0.4897 -100.4
 3.900  0.6668  150.3   1.152   31.1  0.1716  -11.9  0.4881 -102.4
 4.000  0.6747  147.5   1.125   28.7  0.1680  -12.5  0.4871 -104.5
 4.100  0.6774  145.1   1.097   26.9  0.1645  -12.4  0.4865 -106.7
 4.200  0.6814  142.8   1.069   25.1  0.1610  -12.4  0.4865 -108.9
 4.300  0.6864  140.4   1.043   23.2  0.1576  -12.3  0.4873 -111.1
 4.400  0.6926  138.1   1.018   21.1  0.1541  -12.3  0.4889 -113.3
 4.500  0.6998  135.9   0.995   19.0  0.1506  -12.2  0.4911 -115.5
 4.600  0.7025  134.0   0.971   17.5  0.1478  -11.5  0.4931 -117.6
 4.700  0.7060  132.1   0.948   15.9  0.1451  -10.7  0.4958 -119.7
 4.800  0.7102  130.2   0.926   14.2  0.1424   -9.9  0.4992 -121.8
 4.900  0.7152  128.3   0.905   12.4  0.1397   -9.1  0.5032 -123.9
 5.000  0.7210  126.5   0.884   10.6  0.1370   -8.3  0.5079 -125.9
 5.100  0.7238  125.0   0.864    9.3  0.1359   -7.1  0.5112 -127.8
 5.200  0.7271  123.5   0.845    8.0  0.1348   -5.8  0.5150 -129.7
 5.300  0.7309  122.0   0.827    6.6  0.1339   -4.5  0.5193 -131.6
 5.400  0.7352  120.5   0.809    5.2  0.1329   -3.2  0.5243 -133.4
 5.500  0.7400  119.0   0.791    3.7  0.1321   -1.9  0.5297 -135.2
 5.600  0.7428  117.7   0.776    2.6  0.1326   -0.6  0.5337 -137.2
 5.700  0.7460  116.4   0.760    1.4  0.1332    0.7  0.5382 -139.1
 5.800  0.7496  115.1   0.746    0.2  0.1339    2.0  0.5434 -141.0
 5.900  0.7536  113.8   0.731   -1.0  0.1346    3.3  0.5492 -142.9
 6.000  0.7580  112.5   0.717   -2.3  0.1354    4.6  0.5555 -144.7
 6.100  0.7584  111.3   0.704   -3.3  0.1372    5.8  0.5595 -146.4
 6.200  0.7592  110.1   0.691   -4.4  0.1391    6.9  0.5639 -148.1
 6.300  0.7602  108.9   0.678   -5.5  0.1411    8.0  0.5689 -149.8
 6.400  0.7617  107.7   0.665   -6.6  0.1431    9.1  0.5743 -151.5
 6.500  0.7634  106.5   0.653   -7.8  0.1451   10.1  0.5802 -153.1
 6.600  0.7632  105.3   0.643   -8.6  0.1483   11.0  0.5828 -154.4
 6.800  0.7640  102.8   0.622  -10.2  0.1547   12.7  0.5888 -157.0
 7.000  0.7661  100.4   0.602  -12.0  0.1613   14.2  0.5961 -159.6
 7.200  0.7685   97.6   0.587  -13.5  0.1703   14.8  0.5982 -162.4
 7.400  0.7727   94.8   0.572  -15.1  0.1793   15.3  0.6016 -165.1
 7.600  0.7775   91.8   0.559  -16.7  0.1889   15.4  0.6050 -168.2
 7.800  0.7832   88.6   0.547  -18.5  0.1991   14.9  0.6089 -171.6
 8.000  0.7913   85.5   0.535  -20.3  0.2093   14.5  0.6149 -175.0
 8.200  0.7941   82.1   0.522  -21.9  0.2190   13.0  0.6167 -178.8
 8.400  0.7996   78.8   0.509  -23.5  0.2289   11.6  0.6210  177.5
 8.600  0.8061   75.6   0.497  -25.1  0.2374   10.0  0.6234  173.5
 8.800  0.8131   72.6   0.484  -26.5  0.2445    8.2  0.6245  169.1
 9.000  0.8223   69.6   0.472  -28.0  0.2519    6.4  0.6293  164.7
 9.200  0.8326   67.2   0.459  -29.2  0.2561    4.7  0.6340  159.4
 9.400  0.8443   64.9   0.447  -30.5  0.2605    3.0  0.6440  154.1
 9.600  0.8541   62.9   0.434  -31.6  0.2641    1.6  0.6562  149.1
 9.800  0.8616   61.1   0.421  -32.4  0.2667    0.3  0.6701  144.3
10.000  0.8699   59.4   0.407  -33.2  0.2694   -0.9  0.6886  139.7
!
!  f       NFmin   Gammaopt  rn/50
! GHz       dB    MAG  ANG    -
 0.450      0.69  0.73   19   0.45
 0.900      0.78  0.68   41   0.42
 1.900      1.48  0.47   96   0.28
 3.500      2.50  0.41 -173   0.14
!
! (c) 2016  Infineon Technologies AG, Munich
