! Infineon Technologies  Discrete & RF Semiconductors
! BFP460
! VCE =  4.0 V,  IC =  2.0 mA
! Common Emitter S-Parameters:                            Jan 2016
# GHz  S  MA  R  50
!  f         S11            S21            S12            S22
! GHz     MAG   ANG      MAG   ANG      MAG   ANG      MAG   ANG
 0.030  0.9497   -3.3   7.107  177.5  0.0059   86.6  0.9959   -2.2
 0.035  0.9497   -3.8   7.099  177.0  0.0069   86.2  0.9955   -2.5
 0.040  0.9498   -4.3   7.092  176.4  0.0080   85.9  0.9951   -2.8
 0.045  0.9509   -4.9   7.074  175.9  0.0090   86.2  0.9946   -3.0
 0.050  0.9521   -5.4   7.056  175.3  0.0100   86.5  0.9942   -3.2
 0.055  0.9497   -6.0   7.056  175.1  0.0110   85.8  0.9940   -3.5
 0.060  0.9474   -6.7   7.056  174.8  0.0121   85.2  0.9938   -3.9
 0.065  0.9471   -7.2   7.085  174.3  0.0129   84.8  0.9936   -4.2
 0.070  0.9468   -7.8   7.115  173.8  0.0138   84.4  0.9935   -4.5
 0.075  0.9481   -8.4   7.098  173.6  0.0148   84.2  0.9931   -4.8
 0.080  0.9495   -8.9   7.082  173.4  0.0159   84.1  0.9927   -5.2
 0.085  0.9476   -9.5   7.085  172.9  0.0169   83.8  0.9920   -5.5
 0.090  0.9458  -10.1   7.089  172.5  0.0179   83.6  0.9913   -5.9
 0.095  0.9457  -10.6   7.064  172.1  0.0189   83.2  0.9907   -6.2
 0.100  0.9456  -11.1   7.039  171.7  0.0199   82.9  0.9901   -6.5
 0.105  0.9456  -11.7   7.042  171.3  0.0208   82.5  0.9894   -6.8
 0.110  0.9458  -12.3   7.046  171.0  0.0218   82.1  0.9887   -7.1
 0.115  0.9455  -12.8   7.052  170.5  0.0228   81.8  0.9880   -7.4
 0.120  0.9453  -13.4   7.058  170.1  0.0238   81.5  0.9873   -7.8
 0.125  0.9443  -13.9   7.051  169.8  0.0247   81.2  0.9866   -8.1
 0.130  0.9433  -14.4   7.044  169.5  0.0256   80.9  0.9860   -8.4
 0.135  0.9426  -15.0   7.047  169.0  0.0266   80.5  0.9853   -8.7
 0.140  0.9421  -15.6   7.050  168.5  0.0276   80.1  0.9847   -9.0
 0.145  0.9418  -16.1   7.034  168.1  0.0285   79.8  0.9838   -9.3
 0.150  0.9416  -16.6   7.019  167.6  0.0295   79.5  0.9830   -9.7
 0.155  0.9402  -17.1   7.012  167.2  0.0304   79.1  0.9819  -10.0
 0.160  0.9390  -17.7   7.006  166.8  0.0314   78.7  0.9809  -10.3
 0.165  0.9378  -18.2   7.000  166.5  0.0323   78.3  0.9799  -10.6
 0.170  0.9366  -18.8   6.994  166.1  0.0332   78.0  0.9789  -10.9
 0.175  0.9356  -19.3   6.989  165.7  0.0341   77.7  0.9779  -11.2
 0.180  0.9347  -19.9   6.984  165.3  0.0351   77.4  0.9770  -11.6
 0.185  0.9338  -20.4   6.979  164.9  0.0360   77.1  0.9761  -11.9
 0.190  0.9331  -21.0   6.974  164.6  0.0369   76.8  0.9753  -12.2
 0.195  0.9324  -21.5   6.970  164.2  0.0379   76.5  0.9744  -12.5
 0.200  0.9318  -22.1   6.966  163.8  0.0388   76.3  0.9736  -12.8
 0.220  0.9269  -24.2   6.924  162.2  0.0424   74.9  0.9688  -14.0
 0.240  0.9234  -26.4   6.888  160.6  0.0461   73.7  0.9644  -15.3
 0.260  0.9193  -28.5   6.849  159.1  0.0496   72.5  0.9593  -16.5
 0.280  0.9147  -30.7   6.805  157.6  0.0530   71.2  0.9535  -17.7
 0.300  0.9113  -32.8   6.766  156.1  0.0565   70.1  0.9481  -18.9
 0.320  0.9054  -34.9   6.714  154.6  0.0598   68.8  0.9417  -20.0
 0.340  0.9007  -36.9   6.668  153.1  0.0631   67.6  0.9356  -21.1
 0.360  0.8955  -39.0   6.617  151.6  0.0663   66.5  0.9290  -22.3
 0.380  0.8896  -41.0   6.561  150.2  0.0694   65.3  0.9220  -23.4
 0.400  0.8848  -43.0   6.510  148.7  0.0725   64.2  0.9153  -24.5
 0.420  0.8777  -45.0   6.452  147.3  0.0754   63.0  0.9082  -25.6
 0.440  0.8716  -47.0   6.397  145.9  0.0783   61.9  0.9015  -26.7
 0.450  0.8690  -48.0   6.371  145.2  0.0798   61.4  0.8982  -27.2
 0.460  0.8654  -48.9   6.340  144.6  0.0811   60.8  0.8942  -27.7
 0.480  0.8590  -50.8   6.279  143.2  0.0838   59.8  0.8864  -28.6
 0.500  0.8535  -52.7   6.222  141.9  0.0865   58.8  0.8789  -29.6
 0.520  0.8455  -54.5   6.156  140.6  0.0889   57.7  0.8710  -30.5
 0.540  0.8384  -56.3   6.093  139.3  0.0913   56.6  0.8634  -31.5
 0.560  0.8321  -58.2   6.033  138.0  0.0937   55.6  0.8560  -32.4
 0.580  0.8268  -60.1   5.976  136.7  0.0961   54.6  0.8488  -33.4
 0.600  0.8223  -62.0   5.923  135.3  0.0986   53.7  0.8419  -34.4
 0.620  0.8145  -63.7   5.857  134.2  0.1006   52.7  0.8337  -35.2
 0.640  0.8075  -65.4   5.793  133.0  0.1026   51.8  0.8258  -36.1
 0.660  0.8012  -67.2   5.731  131.8  0.1046   50.9  0.8180  -37.0
 0.680  0.7956  -69.0   5.672  130.6  0.1067   50.0  0.8104  -37.9
 0.700  0.7909  -70.8   5.616  129.3  0.1088   49.2  0.8030  -38.8
 0.720  0.7838  -72.4   5.550  128.3  0.1105   48.3  0.7954  -39.5
 0.740  0.7773  -74.0   5.486  127.2  0.1122   47.5  0.7879  -40.3
 0.760  0.7714  -75.6   5.423  126.1  0.1139   46.7  0.7805  -41.0
 0.780  0.7662  -77.3   5.363  125.0  0.1156   45.9  0.7733  -41.8
 0.800  0.7616  -79.0   5.305  123.8  0.1174   45.1  0.7662  -42.6
 0.820  0.7549  -80.5   5.247  122.8  0.1188   44.3  0.7589  -43.3
 0.840  0.7488  -82.1   5.191  121.9  0.1202   43.6  0.7517  -44.0
 0.860  0.7432  -83.7   5.136  120.9  0.1216   42.9  0.7446  -44.7
 0.880  0.7382  -85.3   5.083  119.8  0.1230   42.2  0.7376  -45.4
 0.900  0.7338  -86.9   5.031  118.8  0.1245   41.5  0.7307  -46.1
 0.920  0.7277  -88.3   4.974  117.9  0.1257   40.8  0.7240  -46.7
 0.940  0.7221  -89.8   4.919  116.9  0.1268   40.1  0.7175  -47.3
 0.960  0.7170  -91.3   4.864  116.0  0.1280   39.4  0.7110  -48.0
 0.980  0.7123  -92.8   4.811  115.0  0.1293   38.8  0.7046  -48.6
 1.000  0.7082  -94.3   4.760  114.0  0.1305   38.1  0.6983  -49.3
 1.020  0.7029  -95.7   4.707  113.2  0.1315   37.5  0.6922  -49.9
 1.040  0.6981  -97.0   4.656  112.3  0.1324   36.9  0.6861  -50.4
 1.060  0.6936  -98.4   4.605  111.4  0.1334   36.3  0.6801  -51.0
 1.080  0.6896  -99.9   4.555  110.5  0.1344   35.7  0.6742  -51.6
 1.100  0.6860 -101.3   4.507  109.6  0.1354   35.1  0.6684  -52.2
 1.120  0.6811 -102.6   4.458  108.8  0.1362   34.5  0.6628  -52.7
 1.140  0.6766 -103.9   4.410  108.0  0.1370   34.0  0.6573  -53.2
 1.160  0.6725 -105.2   4.363  107.1  0.1378   33.5  0.6518  -53.7
 1.180  0.6687 -106.5   4.317  106.3  0.1386   32.9  0.6464  -54.3
 1.200  0.6653 -107.9   4.272  105.4  0.1394   32.4  0.6410  -54.8
 1.220  0.6614 -109.1   4.227  104.7  0.1401   31.9  0.6360  -55.3
 1.240  0.6579 -110.4   4.184  103.9  0.1407   31.4  0.6309  -55.7
 1.260  0.6546 -111.6   4.141  103.1  0.1414   30.9  0.6260  -56.2
 1.280  0.6517 -112.9   4.098  102.3  0.1421   30.5  0.6211  -56.7
 1.300  0.6491 -114.2   4.057  101.5  0.1428   30.0  0.6162  -57.2
 1.320  0.6455 -115.4   4.016  100.8  0.1433   29.6  0.6114  -57.6
 1.340  0.6421 -116.6   3.976  100.1  0.1438   29.1  0.6066  -58.1
 1.360  0.6390 -117.8   3.936   99.3  0.1443   28.7  0.6019  -58.6
 1.380  0.6362 -119.0   3.897   98.6  0.1449   28.2  0.5972  -59.0
 1.400  0.6337 -120.2   3.859   97.8  0.1454   27.8  0.5926  -59.5
 1.420  0.6304 -121.4   3.821   97.1  0.1458   27.4  0.5885  -59.9
 1.440  0.6274 -122.5   3.784   96.4  0.1463   27.0  0.5844  -60.3
 1.460  0.6246 -123.7   3.748   95.7  0.1468   26.6  0.5803  -60.7
 1.480  0.6221 -124.9   3.711   95.0  0.1472   26.2  0.5763  -61.1
 1.500  0.6199 -126.1   3.676   94.3  0.1477   25.8  0.5723  -61.5
 1.520  0.6169 -127.2   3.641   93.6  0.1480   25.5  0.5683  -61.9
 1.540  0.6142 -128.3   3.607   93.0  0.1484   25.1  0.5644  -62.3
 1.560  0.6117 -129.4   3.574   92.3  0.1488   24.8  0.5605  -62.7
 1.580  0.6094 -130.6   3.541   91.6  0.1491   24.4  0.5566  -63.1
 1.600  0.6074 -131.7   3.508   90.9  0.1495   24.1  0.5527  -63.5
 1.620  0.6054 -132.7   3.477   90.3  0.1498   23.8  0.5494  -63.9
 1.640  0.6035 -133.7   3.446   89.7  0.1501   23.4  0.5460  -64.2
 1.660  0.6019 -134.7   3.415   89.0  0.1504   23.1  0.5427  -64.6
 1.680  0.6005 -135.8   3.385   88.4  0.1507   22.7  0.5395  -64.9
 1.700  0.5992 -136.8   3.355   87.7  0.1510   22.4  0.5362  -65.3
 1.720  0.5973 -137.8   3.326   87.1  0.1512   22.1  0.5330  -65.7
 1.740  0.5956 -138.9   3.297   86.5  0.1514   21.8  0.5298  -66.0
 1.760  0.5941 -139.9   3.268   85.9  0.1516   21.4  0.5267  -66.4
 1.780  0.5928 -141.0   3.240   85.3  0.1519   21.1  0.5235  -66.8
 1.800  0.5917 -142.0   3.212   84.7  0.1521   20.8  0.5204  -67.2
 1.820  0.5900 -143.0   3.186   84.1  0.1523   20.5  0.5174  -67.6
 1.840  0.5884 -143.9   3.160   83.5  0.1524   20.2  0.5144  -67.9
 1.860  0.5870 -144.9   3.135   82.9  0.1526   20.0  0.5115  -68.3
 1.880  0.5858 -145.9   3.110   82.3  0.1528   19.7  0.5085  -68.6
 1.900  0.5847 -146.9   3.085   81.7  0.1530   19.4  0.5056  -69.0
 1.920  0.5835 -147.9   3.060   81.1  0.1531   19.1  0.5030  -69.3
 1.940  0.5825 -148.8   3.035   80.6  0.1533   18.9  0.5004  -69.7
 1.960  0.5816 -149.8   3.011   80.0  0.1534   18.6  0.4978  -70.0
 1.980  0.5809 -150.7   2.987   79.4  0.1536   18.4  0.4952  -70.4
 2.000  0.5804 -151.7   2.963   78.8  0.1537   18.1  0.4927  -70.7
 2.020  0.5791 -152.6   2.939   78.3  0.1538   17.9  0.4903  -71.0
 2.040  0.5779 -153.5   2.916   77.8  0.1538   17.6  0.4879  -71.3
 2.060  0.5769 -154.4   2.893   77.2  0.1539   17.4  0.4855  -71.7
 2.080  0.5760 -155.3   2.870   76.7  0.1540   17.2  0.4831  -72.0
 2.100  0.5753 -156.2   2.847   76.2  0.1541   16.9  0.4807  -72.3
 2.120  0.5747 -157.1   2.825   75.6  0.1542   16.7  0.4783  -72.6
 2.140  0.5742 -158.1   2.803   75.0  0.1542   16.5  0.4760  -73.0
 2.160  0.5740 -159.0   2.781   74.5  0.1543   16.3  0.4737  -73.3
 2.180  0.5738 -159.9   2.759   73.9  0.1544   16.0  0.4714  -73.7
 2.200  0.5738 -160.8   2.738   73.3  0.1545   15.8  0.4691  -74.0
 2.220  0.5730 -161.6   2.718   72.8  0.1545   15.6  0.4670  -74.3
 2.240  0.5723 -162.5   2.698   72.3  0.1545   15.4  0.4648  -74.7
 2.260  0.5718 -163.3   2.679   71.8  0.1545   15.3  0.4627  -75.0
 2.280  0.5713 -164.1   2.660   71.3  0.1545   15.1  0.4606  -75.3
 2.300  0.5710 -165.0   2.641   70.8  0.1545   14.9  0.4585  -75.7
 2.320  0.5708 -165.8   2.622   70.3  0.1545   14.7  0.4565  -76.0
 2.340  0.5708 -166.7   2.603   69.7  0.1546   14.5  0.4544  -76.3
 2.360  0.5708 -167.5   2.585   69.2  0.1546   14.4  0.4524  -76.7
 2.380  0.5710 -168.4   2.567   68.7  0.1546   14.2  0.4504  -77.0
 2.400  0.5713 -169.2   2.549   68.1  0.1546   14.0  0.4484  -77.4
 2.420  0.5709 -170.0   2.531   67.6  0.1546   13.8  0.4466  -77.7
 2.440  0.5706 -170.8   2.514   67.2  0.1545   13.7  0.4448  -78.1
 2.460  0.5705 -171.6   2.496   66.7  0.1545   13.5  0.4429  -78.4
 2.480  0.5704 -172.4   2.479   66.2  0.1544   13.3  0.4412  -78.8
 2.500  0.5704 -173.2   2.462   65.7  0.1544   13.2  0.4394  -79.1
 2.520  0.5706 -173.9   2.445   65.2  0.1543   13.0  0.4376  -79.5
 2.540  0.5709 -174.7   2.428   64.7  0.1543   12.8  0.4359  -79.8
 2.560  0.5712 -175.5   2.411   64.2  0.1543   12.6  0.4342  -80.2
 2.580  0.5717 -176.3   2.395   63.6  0.1542   12.5  0.4325  -80.5
 2.600  0.5723 -177.1   2.379   63.1  0.1542   12.3  0.4308  -80.9
 2.620  0.5722 -177.8   2.363   62.7  0.1541   12.2  0.4293  -81.3
 2.640  0.5721 -178.6   2.348   62.2  0.1540   12.0  0.4278  -81.6
 2.660  0.5722 -179.3   2.332   61.8  0.1539   11.9  0.4263  -82.0
 2.680  0.5723  180.0   2.317   61.3  0.1538   11.7  0.4248  -82.3
 2.700  0.5726  179.2   2.302   60.8  0.1537   11.6  0.4234  -82.7
 2.720  0.5729  178.5   2.287   60.4  0.1536   11.5  0.4219  -83.1
 2.740  0.5734  177.8   2.272   59.9  0.1536   11.3  0.4205  -83.5
 2.760  0.5739  177.1   2.258   59.4  0.1535   11.2  0.4191  -83.8
 2.780  0.5745  176.3   2.243   58.9  0.1534   11.0  0.4178  -84.2
 2.800  0.5752  175.6   2.229   58.4  0.1533   10.9  0.4164  -84.6
 2.820  0.5753  174.9   2.215   58.0  0.1532   10.8  0.4151  -85.0
 2.840  0.5754  174.2   2.201   57.5  0.1531   10.7  0.4139  -85.3
 2.860  0.5756  173.5   2.187   57.1  0.1530   10.6  0.4126  -85.7
 2.880  0.5760  172.8   2.173   56.6  0.1529   10.5  0.4114  -86.1
 2.900  0.5764  172.1   2.159   56.2  0.1528   10.4  0.4102  -86.4
 2.920  0.5768  171.4   2.146   55.7  0.1527   10.3  0.4090  -86.8
 2.940  0.5774  170.8   2.132   55.2  0.1526   10.2  0.4078  -87.2
 2.960  0.5781  170.1   2.119   54.8  0.1525   10.1  0.4067  -87.5
 2.980  0.5788  169.4   2.106   54.3  0.1524   10.0  0.4055  -87.9
 3.000  0.5796  168.7   2.093   53.8  0.1523    9.9  0.4044  -88.3
 3.100  0.5801  165.6   2.031   51.9  0.1516    9.6  0.3996  -90.1
 3.200  0.5822  162.6   1.972   49.9  0.1510    9.3  0.3952  -91.9
 3.300  0.5861  159.5   1.915   47.8  0.1503    9.0  0.3912  -93.7
 3.400  0.5915  156.5   1.861   45.6  0.1497    8.7  0.3876  -95.6
 3.500  0.5985  153.6   1.810   43.2  0.1490    8.4  0.3844  -97.5
 3.600  0.6013  150.9   1.762   41.5  0.1484    8.4  0.3809  -99.4
 3.700  0.6054  148.3   1.715   39.6  0.1478    8.4  0.3779 -101.4
 3.800  0.6108  145.7   1.670   37.7  0.1473    8.5  0.3753 -103.4
 3.900  0.6174  143.1   1.628   35.6  0.1467    8.5  0.3732 -105.4
 4.000  0.6252  140.6   1.587   33.5  0.1461    8.5  0.3715 -107.4
 4.100  0.6290  138.5   1.547   31.9  0.1459    8.8  0.3705 -109.6
 4.200  0.6337  136.4   1.509   30.2  0.1456    9.1  0.3700 -111.8
 4.300  0.6392  134.4   1.472   28.4  0.1454    9.3  0.3701 -114.0
 4.400  0.6455  132.4   1.436   26.6  0.1452    9.6  0.3707 -116.2
 4.500  0.6526  130.4   1.402   24.6  0.1450    9.9  0.3719 -118.4
 4.600  0.6561  128.7   1.369   23.1  0.1454   10.4  0.3738 -120.4
 4.700  0.6601  127.0   1.338   21.6  0.1458   10.9  0.3762 -122.4
 4.800  0.6647  125.3   1.307   20.0  0.1462   11.5  0.3790 -124.4
 4.900  0.6699  123.7   1.277   18.4  0.1467   12.0  0.3823 -126.4
 5.000  0.6756  122.1   1.249   16.6  0.1471   12.5  0.3860 -128.3
 5.100  0.6788  120.7   1.223   15.3  0.1485   13.0  0.3892 -130.1
 5.200  0.6823  119.3   1.198   14.0  0.1499   13.5  0.3927 -131.8
 5.300  0.6863  118.0   1.173   12.6  0.1514   14.0  0.3965 -133.5
 5.400  0.6906  116.6   1.149   11.2  0.1528   14.4  0.4008 -135.2
 5.500  0.6953  115.3   1.126    9.7  0.1543   14.9  0.4053 -136.8
 5.600  0.6982  114.1   1.105    8.5  0.1564   15.2  0.4094 -138.6
 5.700  0.7013  113.0   1.085    7.2  0.1585   15.5  0.4139 -140.4
 5.800  0.7048  111.8   1.065    5.9  0.1606   15.8  0.4189 -142.1
 5.900  0.7085  110.7   1.046    4.5  0.1628   16.0  0.4241 -143.8
 6.000  0.7125  109.6   1.027    3.1  0.1649   16.3  0.4298 -145.5
 6.100  0.7134  108.5   1.009    2.0  0.1673   16.5  0.4344 -147.1
 6.200  0.7145  107.5   0.991    0.9  0.1697   16.6  0.4393 -148.6
 6.300  0.7158  106.4   0.974   -0.3  0.1721   16.8  0.4445 -150.1
 6.400  0.7175  105.4   0.957   -1.5  0.1745   16.9  0.4500 -151.6
 6.500  0.7193  104.3   0.941   -2.8  0.1769   17.1  0.4558 -153.0
 6.600  0.7192  103.2   0.926   -3.8  0.1799   17.2  0.4590 -154.1
 6.800  0.7200  100.9   0.898   -5.9  0.1860   17.4  0.4658 -156.2
 7.000  0.7219   98.6   0.871   -8.2  0.1921   17.6  0.4733 -158.3
 7.200  0.7250   96.0   0.849  -10.2  0.1997   17.2  0.4767 -160.7
 7.400  0.7296   93.4   0.827  -12.3  0.2074   16.9  0.4809 -163.1
 7.600  0.7350   90.6   0.807  -14.5  0.2154   16.2  0.4849 -165.9
 7.800  0.7414   87.6   0.788  -16.7  0.2238   15.3  0.4891 -169.1
 8.000  0.7499   84.6   0.770  -19.1  0.2322   14.4  0.4949 -172.2
 8.200  0.7546   81.4   0.748  -21.2  0.2400   12.8  0.4976 -175.8
 8.400  0.7617   78.3   0.728  -23.5  0.2480   11.3  0.5023 -179.4
 8.600  0.7700   75.2   0.707  -25.6  0.2546    9.7  0.5052  176.6
 8.800  0.7794   72.4   0.687  -27.6  0.2600    7.8  0.5071  172.1
 9.000  0.7906   69.6   0.667  -29.7  0.2656    6.1  0.5121  167.7
 9.200  0.8034   67.3   0.645  -31.4  0.2686    4.5  0.5184  162.2
 9.400  0.8175   65.1   0.623  -33.2  0.2717    3.0  0.5295  156.8
 9.600  0.8295   63.1   0.602  -34.8  0.2743    1.6  0.5434  151.6
 9.800  0.8392   61.4   0.580  -36.2  0.2762    0.5  0.5600  146.7
10.000  0.8496   59.7   0.558  -37.6  0.2782   -0.6  0.5804  142.1
!
!  f       NFmin   Gammaopt  rn/50
! GHz       dB    MAG  ANG    -
 0.450      0.68  0.58   19   0.26
 0.900      0.74  0.54   38   0.26
 1.900      1.17  0.35   94   0.17
 3.500      1.69  0.37 -166   0.13
!
! (c) 2016  Infineon Technologies AG, Munich
