! Infineon Technologies  Discrete & RF Semiconductors
! BFP460
! VCE =  3.0 V,  IC =  16 mA
! Common Emitter S-Parameters:                            Jan 2016
# GHz  S  MA  R  50
!  f         S11            S21            S12            S22
! GHz     MAG   ANG      MAG   ANG      MAG   ANG      MAG   ANG
 0.030  0.6674  -12.2  39.560  172.1  0.0052   82.7  0.9619   -8.0
 0.035  0.6662  -14.1  39.397  170.8  0.0060   82.9  0.9592   -9.2
 0.040  0.6657  -16.1  39.256  169.4  0.0068   83.1  0.9569  -10.5
 0.045  0.6628  -18.1  38.982  168.1  0.0078   82.4  0.9535  -11.7
 0.050  0.6607  -20.1  38.728  166.8  0.0088   81.8  0.9505  -12.9
 0.055  0.6593  -22.1  38.554  165.8  0.0094   80.2  0.9460  -14.2
 0.060  0.6587  -24.2  38.393  164.7  0.0100   78.7  0.9420  -15.5
 0.065  0.6562  -26.2  38.287  163.4  0.0108   77.7  0.9373  -16.7
 0.070  0.6545  -28.2  38.200  162.1  0.0117   76.9  0.9331  -18.0
 0.075  0.6545  -30.1  37.945  161.2  0.0124   76.5  0.9278  -19.2
 0.080  0.6552  -32.0  37.700  160.2  0.0132   76.1  0.9229  -20.5
 0.085  0.6497  -33.9  37.432  159.1  0.0139   75.2  0.9166  -21.7
 0.090  0.6450  -35.9  37.179  157.9  0.0147   74.4  0.9107  -22.9
 0.095  0.6433  -37.5  36.819  156.9  0.0154   73.7  0.9046  -24.0
 0.100  0.6422  -39.2  36.471  155.8  0.0162   73.0  0.8988  -25.2
 0.105  0.6399  -41.0  36.239  154.8  0.0168   72.1  0.8919  -26.3
 0.110  0.6382  -42.9  36.020  153.7  0.0175   71.3  0.8854  -27.5
 0.115  0.6347  -44.8  35.729  152.7  0.0181   70.6  0.8785  -28.6
 0.120  0.6318  -46.7  35.451  151.6  0.0188   70.0  0.8719  -29.8
 0.125  0.6279  -48.2  35.141  150.7  0.0195   69.4  0.8645  -30.8
 0.130  0.6245  -49.8  34.841  149.7  0.0202   68.8  0.8573  -31.9
 0.135  0.6224  -51.5  34.552  148.7  0.0208   68.1  0.8500  -32.9
 0.140  0.6208  -53.3  34.275  147.6  0.0214   67.5  0.8430  -34.0
 0.145  0.6166  -54.9  33.910  146.7  0.0219   66.9  0.8354  -35.0
 0.150  0.6128  -56.5  33.555  145.7  0.0224   66.4  0.8281  -36.0
 0.155  0.6083  -57.9  33.217  144.9  0.0229   65.8  0.8198  -36.8
 0.160  0.6042  -59.4  32.885  144.1  0.0234   65.2  0.8116  -37.7
 0.165  0.6005  -60.8  32.560  143.3  0.0239   64.6  0.8037  -38.6
 0.170  0.5972  -62.3  32.241  142.5  0.0245   64.1  0.7959  -39.5
 0.175  0.5943  -63.8  31.929  141.7  0.0250   63.5  0.7883  -40.4
 0.180  0.5918  -65.3  31.623  140.9  0.0255   63.0  0.7809  -41.3
 0.185  0.5897  -66.9  31.325  140.0  0.0260   62.5  0.7738  -42.3
 0.190  0.5880  -68.4  31.034  139.1  0.0265   62.1  0.7668  -43.2
 0.195  0.5868  -70.0  30.750  138.2  0.0271   61.6  0.7601  -44.2
 0.200  0.5860  -71.5  30.474  137.3  0.0276   61.2  0.7536  -45.2
 0.220  0.5721  -76.6  29.228  134.7  0.0291   59.6  0.7240  -48.1
 0.240  0.5630  -81.9  28.048  131.8  0.0307   58.1  0.6964  -51.2
 0.260  0.5546  -86.7  26.931  129.2  0.0321   56.8  0.6701  -54.1
 0.280  0.5458  -91.2  25.850  127.0  0.0334   55.8  0.6444  -56.7
 0.300  0.5402  -95.7  24.813  124.5  0.0347   54.8  0.6201  -59.5
 0.320  0.5313  -99.4  23.854  122.7  0.0358   54.0  0.5976  -61.6
 0.340  0.5248 -103.3  22.921  120.7  0.0369   53.3  0.5760  -63.8
 0.360  0.5187 -106.8  22.054  118.8  0.0379   52.6  0.5559  -65.9
 0.380  0.5125 -110.1  21.242  117.2  0.0388   52.0  0.5370  -67.8
 0.400  0.5080 -113.4  20.450  115.4  0.0398   51.5  0.5188  -69.8
 0.420  0.5032 -116.2  19.744  114.0  0.0406   51.2  0.5024  -71.4
 0.440  0.4997 -119.1  19.049  112.6  0.0415   50.9  0.4865  -73.2
 0.450  0.4984 -120.6  18.707  111.8  0.0419   50.7  0.4787  -74.1
 0.460  0.4961 -121.8  18.404  111.2  0.0423   50.6  0.4717  -74.8
 0.480  0.4921 -124.4  17.804  110.1  0.0431   50.4  0.4579  -76.3
 0.500  0.4891 -126.9  17.212  108.8  0.0439   50.2  0.4445  -77.9
 0.520  0.4854 -129.0  16.716  107.8  0.0447   50.1  0.4332  -79.1
 0.540  0.4824 -131.1  16.225  106.8  0.0454   50.1  0.4220  -80.3
 0.560  0.4800 -133.3  15.739  105.8  0.0462   50.0  0.4111  -81.6
 0.580  0.4783 -135.4  15.259  104.6  0.0469   50.0  0.4004  -83.0
 0.600  0.4773 -137.6  14.786  103.4  0.0477   49.9  0.3899  -84.4
 0.620  0.4750 -139.3  14.407  102.6  0.0484   49.9  0.3814  -85.4
 0.640  0.4732 -141.0  14.030  101.8  0.0491   49.9  0.3730  -86.5
 0.660  0.4717 -142.8  13.657  101.0  0.0499   50.0  0.3648  -87.6
 0.680  0.4707 -144.5  13.287  100.1  0.0506   50.0  0.3566  -88.8
 0.700  0.4702 -146.3  12.920   99.1  0.0513   50.0  0.3487  -90.0
 0.720  0.4688 -147.7  12.623   98.4  0.0520   50.1  0.3423  -90.9
 0.740  0.4677 -149.1  12.329   97.8  0.0527   50.1  0.3359  -91.8
 0.760  0.4668 -150.5  12.036   97.0  0.0535   50.2  0.3296  -92.8
 0.780  0.4663 -152.0  11.745   96.3  0.0542   50.2  0.3235  -93.8
 0.800  0.4660 -153.4  11.456   95.5  0.0549   50.3  0.3174  -94.8
 0.820  0.4652 -154.6  11.221   94.9  0.0556   50.4  0.3124  -95.6
 0.840  0.4645 -155.9  10.987   94.3  0.0564   50.5  0.3074  -96.4
 0.860  0.4641 -157.1  10.755   93.7  0.0571   50.5  0.3026  -97.2
 0.880  0.4640 -158.4  10.524   93.0  0.0579   50.6  0.2977  -98.1
 0.900  0.4640 -159.6  10.294   92.3  0.0586   50.7  0.2930  -99.0
 0.920  0.4631 -160.7  10.100   91.8  0.0593   50.8  0.2890  -99.7
 0.940  0.4624 -161.8   9.907   91.2  0.0601   50.9  0.2851 -100.5
 0.960  0.4619 -162.9   9.716   90.6  0.0608   50.9  0.2812 -101.3
 0.980  0.4615 -164.0   9.525   90.0  0.0616   51.0  0.2774 -102.1
 1.000  0.4613 -165.1   9.335   89.4  0.0623   51.1  0.2736 -102.9
 1.020  0.4610 -166.0   9.173   88.9  0.0631   51.2  0.2705 -103.6
 1.040  0.4608 -167.0   9.012   88.4  0.0638   51.2  0.2675 -104.3
 1.060  0.4608 -167.9   8.852   87.9  0.0646   51.3  0.2645 -105.0
 1.080  0.4609 -168.9   8.692   87.4  0.0653   51.3  0.2615 -105.7
 1.100  0.4611 -169.8   8.533   86.8  0.0661   51.4  0.2586 -106.5
 1.120  0.4610 -170.7   8.397   86.4  0.0669   51.5  0.2560 -107.1
 1.140  0.4610 -171.5   8.261   85.9  0.0676   51.5  0.2535 -107.8
 1.160  0.4611 -172.4   8.126   85.4  0.0684   51.6  0.2509 -108.4
 1.180  0.4614 -173.2   7.992   84.9  0.0691   51.6  0.2485 -109.1
 1.200  0.4617 -174.1   7.858   84.4  0.0699   51.7  0.2460 -109.8
 1.220  0.4618 -174.9   7.742   84.0  0.0707   51.7  0.2440 -110.4
 1.240  0.4621 -175.7   7.626   83.5  0.0715   51.7  0.2420 -111.0
 1.260  0.4624 -176.4   7.510   83.1  0.0722   51.8  0.2401 -111.6
 1.280  0.4628 -177.2   7.395   82.6  0.0730   51.8  0.2382 -112.2
 1.300  0.4633 -178.0   7.281   82.1  0.0738   51.8  0.2363 -112.8
 1.320  0.4633 -178.7   7.181   81.7  0.0746   51.8  0.2345 -113.4
 1.340  0.4634 -179.5   7.081   81.3  0.0754   51.8  0.2327 -114.0
 1.360  0.4636  179.8   6.982   80.8  0.0761   51.9  0.2310 -114.6
 1.380  0.4639  179.0   6.883   80.4  0.0769   51.9  0.2293 -115.2
 1.400  0.4642  178.3   6.785   79.9  0.0777   51.9  0.2276 -115.8
 1.420  0.4644  177.6   6.698   79.5  0.0785   51.9  0.2263 -116.3
 1.440  0.4646  176.9   6.610   79.1  0.0793   51.9  0.2250 -116.9
 1.460  0.4649  176.1   6.524   78.7  0.0801   51.9  0.2237 -117.4
 1.480  0.4653  175.4   6.437   78.2  0.0809   51.9  0.2224 -117.9
 1.500  0.4658  174.7   6.351   77.8  0.0817   51.9  0.2212 -118.5
 1.520  0.4660  174.0   6.273   77.4  0.0825   51.9  0.2200 -119.0
 1.540  0.4663  173.4   6.196   77.0  0.0833   51.9  0.2189 -119.6
 1.560  0.4667  172.7   6.118   76.6  0.0841   51.8  0.2177 -120.1
 1.580  0.4671  172.1   6.042   76.2  0.0849   51.8  0.2166 -120.6
 1.600  0.4676  171.4   5.965   75.8  0.0857   51.8  0.2155 -121.2
 1.620  0.4679  170.8   5.898   75.4  0.0865   51.8  0.2146 -121.7
 1.640  0.4683  170.3   5.831   75.0  0.0873   51.7  0.2137 -122.2
 1.660  0.4687  169.7   5.764   74.6  0.0881   51.7  0.2128 -122.7
 1.680  0.4691  169.2   5.697   74.2  0.0889   51.6  0.2119 -123.2
 1.700  0.4696  168.6   5.631   73.8  0.0897   51.6  0.2110 -123.7
 1.720  0.4701  168.0   5.570   73.4  0.0905   51.6  0.2102 -124.2
 1.740  0.4706  167.4   5.509   73.1  0.0913   51.5  0.2095 -124.7
 1.760  0.4712  166.9   5.448   72.7  0.0921   51.5  0.2087 -125.2
 1.780  0.4718  166.3   5.387   72.3  0.0929   51.4  0.2080 -125.7
 1.800  0.4725  165.7   5.327   71.9  0.0937   51.4  0.2073 -126.2
 1.820  0.4729  165.1   5.273   71.6  0.0945   51.3  0.2066 -126.7
 1.840  0.4734  164.5   5.219   71.2  0.0953   51.3  0.2060 -127.2
 1.860  0.4740  163.9   5.166   70.8  0.0962   51.2  0.2053 -127.7
 1.880  0.4746  163.3   5.112   70.5  0.0970   51.2  0.2047 -128.2
 1.900  0.4752  162.7   5.059   70.1  0.0978   51.1  0.2041 -128.7
 1.920  0.4758  162.2   5.010   69.7  0.0986   51.0  0.2036 -129.2
 1.940  0.4765  161.6   4.961   69.4  0.0994   51.0  0.2031 -129.7
 1.960  0.4772  161.1   4.912   69.0  0.1002   50.9  0.2026 -130.1
 1.980  0.4780  160.5   4.863   68.6  0.1010   50.9  0.2022 -130.6
 2.000  0.4788  160.0   4.815   68.2  0.1018   50.8  0.2017 -131.1
 2.020  0.4794  159.5   4.771   67.9  0.1026   50.7  0.2013 -131.6
 2.040  0.4800  158.9   4.728   67.5  0.1034   50.6  0.2009 -132.1
 2.060  0.4806  158.4   4.684   67.2  0.1042   50.5  0.2006 -132.6
 2.080  0.4813  157.9   4.641   66.8  0.1050   50.4  0.2002 -133.1
 2.100  0.4821  157.4   4.598   66.5  0.1058   50.3  0.1999 -133.6
 2.120  0.4828  156.9   4.555   66.1  0.1066   50.2  0.1996 -134.1
 2.140  0.4836  156.3   4.513   65.8  0.1074   50.2  0.1993 -134.6
 2.160  0.4845  155.8   4.470   65.4  0.1082   50.1  0.1990 -135.1
 2.180  0.4854  155.3   4.428   65.0  0.1090   50.0  0.1988 -135.6
 2.200  0.4863  154.8   4.386   64.6  0.1098   49.9  0.1985 -136.1
 2.220  0.4870  154.3   4.350   64.3  0.1106   49.8  0.1983 -136.6
 2.240  0.4877  153.9   4.313   63.9  0.1114   49.7  0.1982 -137.1
 2.260  0.4884  153.4   4.277   63.6  0.1122   49.6  0.1980 -137.6
 2.280  0.4892  152.9   4.241   63.3  0.1130   49.5  0.1979 -138.1
 2.300  0.4900  152.5   4.205   62.9  0.1138   49.4  0.1978 -138.6
 2.320  0.4908  152.0   4.169   62.6  0.1146   49.3  0.1977 -139.2
 2.340  0.4917  151.6   4.134   62.2  0.1154   49.2  0.1976 -139.7
 2.360  0.4926  151.1   4.098   61.8  0.1162   49.1  0.1976 -140.2
 2.380  0.4935  150.7   4.063   61.5  0.1170   49.0  0.1975 -140.7
 2.400  0.4945  150.2   4.028   61.1  0.1178   48.9  0.1975 -141.2
 2.420  0.4954  149.7   3.997   60.8  0.1186   48.8  0.1976 -141.7
 2.440  0.4963  149.3   3.965   60.5  0.1193   48.6  0.1976 -142.2
 2.460  0.4973  148.8   3.934   60.2  0.1201   48.5  0.1977 -142.8
 2.480  0.4982  148.3   3.903   59.8  0.1209   48.4  0.1979 -143.3
 2.500  0.4992  147.9   3.872   59.5  0.1216   48.3  0.1980 -143.8
 2.520  0.5003  147.4   3.841   59.2  0.1224   48.2  0.1981 -144.3
 2.540  0.5014  147.0   3.810   58.8  0.1232   48.0  0.1983 -144.8
 2.560  0.5025  146.5   3.780   58.5  0.1240   47.9  0.1985 -145.4
 2.580  0.5036  146.1   3.749   58.2  0.1247   47.8  0.1987 -145.9
 2.600  0.5048  145.6   3.719   57.8  0.1255   47.7  0.1989 -146.4
 2.620  0.5056  145.2   3.692   57.5  0.1263   47.6  0.1992 -146.9
 2.640  0.5065  144.8   3.665   57.2  0.1270   47.4  0.1995 -147.4
 2.660  0.5073  144.4   3.638   56.9  0.1278   47.3  0.1998 -147.9
 2.680  0.5082  143.9   3.612   56.5  0.1285   47.2  0.2002 -148.4
 2.700  0.5091  143.5   3.585   56.2  0.1293   47.1  0.2005 -148.9
 2.720  0.5101  143.1   3.559   55.9  0.1301   47.0  0.2009 -149.4
 2.740  0.5110  142.7   3.532   55.5  0.1308   46.8  0.2013 -149.8
 2.760  0.5120  142.3   3.506   55.2  0.1316   46.7  0.2017 -150.3
 2.780  0.5131  141.9   3.480   54.9  0.1323   46.6  0.2021 -150.8
 2.800  0.5141  141.5   3.454   54.5  0.1331   46.5  0.2025 -151.3
 2.820  0.5150  141.1   3.430   54.2  0.1338   46.4  0.2029 -151.8
 2.840  0.5159  140.7   3.406   53.9  0.1346   46.2  0.2034 -152.2
 2.860  0.5169  140.3   3.382   53.6  0.1353   46.1  0.2038 -152.7
 2.880  0.5179  139.9   3.359   53.3  0.1361   46.0  0.2043 -153.1
 2.900  0.5188  139.5   3.335   53.0  0.1368   45.8  0.2048 -153.6
 2.920  0.5199  139.1   3.312   52.6  0.1376   45.7  0.2053 -154.0
 2.940  0.5209  138.8   3.288   52.3  0.1383   45.6  0.2058 -154.5
 2.960  0.5220  138.4   3.265   52.0  0.1391   45.4  0.2063 -154.9
 2.980  0.5231  138.0   3.242   51.6  0.1398   45.3  0.2069 -155.4
 3.000  0.5242  137.6   3.219   51.3  0.1406   45.2  0.2074 -155.8
 3.100  0.5282  135.7   3.121   50.0  0.1441   44.4  0.2101 -158.0
 3.200  0.5328  133.9   3.025   48.5  0.1476   43.7  0.2130 -160.1
 3.300  0.5379  132.0   2.931   47.0  0.1512   42.9  0.2163 -162.2
 3.400  0.5435  130.2   2.839   45.4  0.1548   42.3  0.2198 -164.2
 3.500  0.5497  128.5   2.750   43.7  0.1584   41.6  0.2236 -166.1
 3.600  0.5552  126.8   2.675   42.4  0.1616   40.8  0.2271 -168.3
 3.700  0.5613  125.2   2.601   41.1  0.1648   40.0  0.2309 -170.4
 3.800  0.5677  123.6   2.529   39.6  0.1680   39.3  0.2350 -172.4
 3.900  0.5746  122.0   2.459   38.1  0.1712   38.6  0.2394 -174.4
 4.000  0.5819  120.5   2.390   36.5  0.1745   37.9  0.2441 -176.3
 4.100  0.5874  119.2   2.331   35.3  0.1774   37.2  0.2492 -178.2
 4.200  0.5932  117.9   2.273   34.1  0.1803   36.5  0.2545  179.9
 4.300  0.5994  116.6   2.216   32.7  0.1832   35.8  0.2601  178.1
 4.400  0.6058  115.3   2.160   31.4  0.1862   35.1  0.2659  176.4
 4.500  0.6125  114.1   2.106   29.9  0.1892   34.5  0.2720  174.8
 4.600  0.6164  112.9   2.060   28.8  0.1920   33.8  0.2764  173.5
 4.700  0.6205  111.7   2.015   27.6  0.1949   33.2  0.2809  172.2
 4.800  0.6250  110.5   1.970   26.4  0.1977   32.6  0.2856  170.9
 4.900  0.6297  109.3   1.927   25.1  0.2006   32.0  0.2904  169.7
 5.000  0.6346  108.2   1.884   23.8  0.2035   31.4  0.2953  168.5
 5.100  0.6376  107.2   1.848   22.8  0.2066   30.7  0.2984  167.5
 5.200  0.6409  106.2   1.813   21.7  0.2097   30.0  0.3015  166.6
 5.300  0.6443  105.2   1.778   20.6  0.2129   29.4  0.3048  165.7
 5.400  0.6479  104.3   1.744   19.4  0.2161   28.7  0.3081  164.8
 5.500  0.6517  103.3   1.711   18.2  0.2193   28.1  0.3115  163.9
 5.600  0.6539  102.5   1.683   17.1  0.2222   27.3  0.3151  163.0
 5.700  0.6563  101.6   1.655   16.0  0.2251   26.6  0.3188  162.1
 5.800  0.6588  100.8   1.628   14.9  0.2280   25.9  0.3226  161.3
 5.900  0.6614  100.0   1.602   13.7  0.2310   25.2  0.3264  160.4
 6.000  0.6642   99.2   1.576   12.5  0.2340   24.5  0.3303  159.6
 6.100  0.6647   98.4   1.552   11.5  0.2365   23.8  0.3330  159.0
 6.200  0.6654   97.6   1.528   10.5  0.2391   23.1  0.3357  158.5
 6.300  0.6662   96.8   1.504    9.4  0.2418   22.4  0.3384  158.0
 6.400  0.6671   96.0   1.481    8.3  0.2444   21.7  0.3412  157.4
 6.500  0.6681   95.2   1.459    7.2  0.2471   21.0  0.3440  156.9
 6.600  0.6676   94.3   1.440    6.2  0.2500   20.4  0.3439  156.5
 6.800  0.6672   92.4   1.404    4.2  0.2559   19.1  0.3437  155.8
 7.000  0.6675   90.5   1.370    2.0  0.2619   17.9  0.3435  155.0
 7.200  0.6694   88.3   1.341   -0.1  0.2683   16.3  0.3433  153.5
 7.400  0.6722   86.1   1.314   -2.3  0.2750   14.7  0.3434  152.0
 7.600  0.6763   83.7   1.287   -4.6  0.2813   13.1  0.3452  150.1
 7.800  0.6819   81.2   1.260   -7.0  0.2874   11.2  0.3490  147.8
 8.000  0.6888   78.7   1.236   -9.6  0.2937    9.5  0.3533  145.5
 8.200  0.6946   76.0   1.204  -12.0  0.2979    7.4  0.3577  142.6
 8.400  0.7018   73.4   1.174  -14.5  0.3026    5.4  0.3629  139.8
 8.600  0.7113   70.9   1.143  -16.9  0.3055    3.4  0.3694  136.3
 8.800  0.7228   68.6   1.111  -19.2  0.3068    1.3  0.3778  132.1
 9.000  0.7354   66.3   1.080  -21.6  0.3085   -0.7  0.3881  128.2
 9.200  0.7516   64.4   1.045  -23.5  0.3076   -2.3  0.4044  123.5
 9.400  0.7685   62.6   1.011  -25.5  0.3069   -3.8  0.4231  119.2
 9.600  0.7835   60.9   0.977  -27.2  0.3061   -5.1  0.4426  115.5
 9.800  0.7964   59.4   0.944  -28.8  0.3050   -6.1  0.4625  112.2
10.000  0.8098   58.0   0.911  -30.4  0.3040   -7.1  0.4837  109.2
!
!  f       NFmin   Gammaopt  rn/50
! GHz       dB    MAG  ANG    -
 0.450      1.15  0.02 -171   0.12
 0.900      1.13  0.05   97   0.15
 1.900      1.29  0.14 -157   0.12
 3.500      1.26  0.38 -127   0.14
!
! (c) 2016  Infineon Technologies AG, Munich
