! Infineon Technologies  Discrete & RF Semiconductors
! BFP460
! VCE =  3.0 V,  IC =  6.0 mA
! Common Emitter S-Parameters:                            Jan 2016
# GHz  S  MA  R  50
!  f         S11            S21            S12            S22
! GHz     MAG   ANG      MAG   ANG      MAG   ANG      MAG   ANG
 0.030  0.8505   -6.4  19.061  175.5  0.0059   85.2  0.9860   -4.5
 0.035  0.8495   -7.3  19.038  174.7  0.0068   84.9  0.9850   -5.1
 0.040  0.8488   -8.3  19.020  173.8  0.0077   84.7  0.9841   -5.8
 0.045  0.8483   -9.3  18.946  173.0  0.0086   84.3  0.9828   -6.3
 0.050  0.8480  -10.4  18.876  172.1  0.0095   83.9  0.9815   -6.9
 0.055  0.8461  -11.5  18.850  171.6  0.0106   83.1  0.9802   -7.6
 0.060  0.8445  -12.7  18.825  171.0  0.0117   82.4  0.9791   -8.3
 0.065  0.8427  -13.8  18.869  170.1  0.0126   82.0  0.9776   -9.0
 0.070  0.8413  -14.9  18.918  169.3  0.0135   81.6  0.9763   -9.7
 0.075  0.8429  -15.8  18.856  168.9  0.0144   81.4  0.9745  -10.4
 0.080  0.8448  -16.7  18.795  168.4  0.0153   81.2  0.9729  -11.1
 0.085  0.8422  -17.8  18.759  167.7  0.0163   80.4  0.9706  -11.8
 0.090  0.8399  -19.0  18.727  166.9  0.0173   79.7  0.9684  -12.5
 0.095  0.8382  -20.0  18.632  166.2  0.0181   79.3  0.9662  -13.1
 0.100  0.8368  -21.1  18.539  165.5  0.0189   78.9  0.9642  -13.8
 0.105  0.8353  -22.1  18.513  164.9  0.0198   78.4  0.9616  -14.5
 0.110  0.8340  -23.1  18.490  164.2  0.0208   77.9  0.9592  -15.2
 0.115  0.8316  -24.1  18.452  163.5  0.0217   77.2  0.9566  -15.8
 0.120  0.8295  -25.2  18.416  162.8  0.0226   76.5  0.9541  -16.5
 0.125  0.8285  -26.2  18.355  162.2  0.0234   76.0  0.9513  -17.1
 0.130  0.8277  -27.2  18.296  161.6  0.0243   75.5  0.9487  -17.8
 0.135  0.8244  -28.2  18.257  160.9  0.0251   75.0  0.9458  -18.4
 0.140  0.8213  -29.2  18.222  160.1  0.0259   74.5  0.9430  -19.0
 0.145  0.8192  -30.1  18.131  159.4  0.0267   74.0  0.9398  -19.6
 0.150  0.8173  -31.1  18.042  158.7  0.0276   73.5  0.9368  -20.3
 0.155  0.8141  -32.0  17.968  158.1  0.0284   72.9  0.9329  -20.9
 0.160  0.8110  -33.0  17.897  157.5  0.0292   72.4  0.9291  -21.5
 0.165  0.8082  -34.0  17.827  156.9  0.0300   71.9  0.9254  -22.1
 0.170  0.8057  -34.9  17.760  156.3  0.0308   71.4  0.9218  -22.7
 0.175  0.8033  -35.9  17.694  155.7  0.0316   70.9  0.9183  -23.3
 0.180  0.8012  -36.9  17.631  155.0  0.0324   70.5  0.9149  -24.0
 0.185  0.7993  -37.8  17.569  154.4  0.0332   70.0  0.9116  -24.6
 0.190  0.7977  -38.8  17.510  153.8  0.0340   69.6  0.9084  -25.2
 0.195  0.7963  -39.8  17.453  153.1  0.0348   69.3  0.9053  -25.9
 0.200  0.7951  -40.8  17.398  152.5  0.0356   68.9  0.9024  -26.5
 0.220  0.7824  -44.4  17.068  150.2  0.0384   67.0  0.8860  -28.7
 0.240  0.7730  -48.1  16.767  147.8  0.0412   65.3  0.8710  -30.9
 0.260  0.7632  -51.7  16.452  145.6  0.0438   63.7  0.8551  -33.1
 0.280  0.7525  -55.0  16.117  143.4  0.0462   62.1  0.8381  -35.2
 0.300  0.7445  -58.5  15.805  141.2  0.0487   60.7  0.8223  -37.3
 0.320  0.7321  -61.7  15.460  139.3  0.0508   59.2  0.8052  -39.1
 0.340  0.7220  -64.9  15.133  137.3  0.0529   57.8  0.7890  -41.0
 0.360  0.7119  -68.0  14.808  135.4  0.0549   56.6  0.7728  -42.8
 0.380  0.7016  -71.0  14.482  133.6  0.0567   55.4  0.7564  -44.5
 0.400  0.6932  -74.0  14.171  131.7  0.0586   54.3  0.7408  -46.3
 0.420  0.6823  -76.7  13.849  130.1  0.0602   53.2  0.7252  -47.8
 0.440  0.6729  -79.6  13.537  128.5  0.0618   52.1  0.7102  -49.4
 0.450  0.6689  -81.0  13.386  127.6  0.0626   51.6  0.7029  -50.2
 0.460  0.6639  -82.2  13.236  126.9  0.0633   51.1  0.6954  -50.9
 0.480  0.6550  -84.8  12.942  125.4  0.0647   50.3  0.6808  -52.3
 0.500  0.6473  -87.4  12.657  123.9  0.0661   49.4  0.6666  -53.7
 0.520  0.6378  -89.7  12.382  122.7  0.0672   48.6  0.6532  -54.8
 0.540  0.6293  -92.0  12.112  121.4  0.0683   47.9  0.6400  -56.0
 0.560  0.6220  -94.4  11.849  120.1  0.0695   47.2  0.6272  -57.2
 0.580  0.6157  -96.8  11.593  118.7  0.0706   46.5  0.6146  -58.5
 0.600  0.6105  -99.3  11.344  117.2  0.0718   45.8  0.6023  -59.8
 0.620  0.6030 -101.3  11.109  116.2  0.0727   45.2  0.5910  -60.8
 0.640  0.5963 -103.3  10.878  115.1  0.0736   44.7  0.5798  -61.8
 0.660  0.5904 -105.4  10.651  113.9  0.0745   44.1  0.5688  -62.8
 0.680  0.5852 -107.5  10.428  112.7  0.0754   43.6  0.5580  -63.9
 0.700  0.5808 -109.6  10.210  111.5  0.0763   43.1  0.5474  -65.0
 0.720  0.5751 -111.4  10.013  110.6  0.0770   42.7  0.5379  -65.8
 0.740  0.5700 -113.2   9.818  109.7  0.0778   42.2  0.5286  -66.7
 0.760  0.5654 -115.0   9.625  108.7  0.0785   41.8  0.5194  -67.6
 0.780  0.5614 -116.8   9.436  107.7  0.0793   41.4  0.5103  -68.5
 0.800  0.5580 -118.7   9.249  106.7  0.0800   41.0  0.5014  -69.5
 0.820  0.5537 -120.3   9.085  105.9  0.0807   40.7  0.4935  -70.2
 0.840  0.5499 -121.9   8.923  105.1  0.0813   40.4  0.4857  -71.0
 0.860  0.5465 -123.5   8.762  104.2  0.0820   40.1  0.4780  -71.8
 0.880  0.5435 -125.1   8.604  103.3  0.0826   39.8  0.4704  -72.6
 0.900  0.5410 -126.8   8.448  102.4  0.0833   39.5  0.4629  -73.4
 0.920  0.5375 -128.2   8.307  101.7  0.0839   39.3  0.4563  -74.0
 0.940  0.5343 -129.7   8.167  101.0  0.0845   39.1  0.4497  -74.7
 0.960  0.5315 -131.2   8.028  100.2  0.0851   38.8  0.4432  -75.4
 0.980  0.5290 -132.7   7.891   99.4  0.0857   38.6  0.4367  -76.1
 1.000  0.5269 -134.2   7.756   98.6  0.0863   38.4  0.4303  -76.8
 1.020  0.5242 -135.5   7.634   97.9  0.0868   38.2  0.4248  -77.4
 1.040  0.5217 -136.8   7.513   97.3  0.0873   38.1  0.4193  -78.0
 1.060  0.5195 -138.1   7.393   96.6  0.0879   37.9  0.4138  -78.6
 1.080  0.5175 -139.5   7.275   95.8  0.0884   37.8  0.4084  -79.2
 1.100  0.5159 -140.8   7.157   95.1  0.0889   37.6  0.4031  -79.9
 1.120  0.5140 -142.0   7.053   94.5  0.0894   37.5  0.3983  -80.5
 1.140  0.5122 -143.2   6.949   93.9  0.0899   37.4  0.3936  -81.0
 1.160  0.5107 -144.4   6.847   93.2  0.0905   37.2  0.3889  -81.6
 1.180  0.5094 -145.6   6.745   92.6  0.0910   37.1  0.3842  -82.2
 1.200  0.5084 -146.8   6.644   91.9  0.0915   37.0  0.3796  -82.8
 1.220  0.5069 -147.9   6.553   91.4  0.0920   36.9  0.3756  -83.3
 1.240  0.5055 -149.0   6.462   90.8  0.0925   36.8  0.3717  -83.8
 1.260  0.5043 -150.1   6.371   90.2  0.0931   36.7  0.3677  -84.3
 1.280  0.5034 -151.3   6.282   89.6  0.0936   36.6  0.3639  -84.9
 1.300  0.5026 -152.4   6.193   89.0  0.0941   36.5  0.3600  -85.4
 1.320  0.5014 -153.4   6.113   88.5  0.0946   36.4  0.3564  -85.9
 1.340  0.5003 -154.4   6.033   87.9  0.0951   36.4  0.3528  -86.4
 1.360  0.4994 -155.4   5.954   87.4  0.0955   36.3  0.3492  -86.9
 1.380  0.4987 -156.4   5.876   86.8  0.0960   36.3  0.3457  -87.4
 1.400  0.4981 -157.4   5.798   86.2  0.0965   36.2  0.3422  -87.9
 1.420  0.4973 -158.4   5.727   85.7  0.0970   36.1  0.3392  -88.4
 1.440  0.4967 -159.4   5.657   85.2  0.0975   36.1  0.3362  -88.8
 1.460  0.4962 -160.4   5.588   84.6  0.0980   36.0  0.3332  -89.3
 1.480  0.4959 -161.4   5.519   84.1  0.0985   36.0  0.3303  -89.8
 1.500  0.4957 -162.4   5.450   83.5  0.0990   35.9  0.3274  -90.3
 1.520  0.4950 -163.3   5.387   83.0  0.0995   35.9  0.3247  -90.7
 1.540  0.4945 -164.2   5.325   82.5  0.1000   35.8  0.3219  -91.2
 1.560  0.4941 -165.1   5.263   82.0  0.1004   35.8  0.3192  -91.7
 1.580  0.4938 -166.0   5.201   81.5  0.1009   35.7  0.3166  -92.1
 1.600  0.4936 -166.9   5.140   81.0  0.1014   35.7  0.3139  -92.6
 1.620  0.4932 -167.7   5.085   80.5  0.1019   35.7  0.3116  -93.0
 1.640  0.4929 -168.5   5.029   80.1  0.1024   35.6  0.3093  -93.4
 1.660  0.4926 -169.4   4.975   79.6  0.1028   35.6  0.3071  -93.8
 1.680  0.4925 -170.2   4.920   79.1  0.1033   35.5  0.3048  -94.3
 1.700  0.4925 -171.0   4.866   78.6  0.1038   35.5  0.3026  -94.7
 1.720  0.4924 -171.8   4.815   78.2  0.1043   35.5  0.3005  -95.1
 1.740  0.4924 -172.6   4.765   77.7  0.1048   35.4  0.2985  -95.6
 1.760  0.4926 -173.5   4.714   77.2  0.1053   35.4  0.2965  -96.0
 1.780  0.4928 -174.3   4.665   76.8  0.1058   35.3  0.2945  -96.4
 1.800  0.4931 -175.1   4.615   76.3  0.1063   35.3  0.2925  -96.9
 1.820  0.4929 -175.8   4.570   75.9  0.1068   35.3  0.2906  -97.3
 1.840  0.4928 -176.6   4.526   75.4  0.1073   35.3  0.2888  -97.7
 1.860  0.4927 -177.3   4.482   75.0  0.1079   35.2  0.2869  -98.1
 1.880  0.4928 -178.1   4.438   74.6  0.1084   35.2  0.2851  -98.6
 1.900  0.4929 -178.8   4.394   74.1  0.1089   35.2  0.2833  -99.0
 1.920  0.4931 -179.6   4.353   73.7  0.1094   35.2  0.2816  -99.4
 1.940  0.4933  179.7   4.312   73.2  0.1099   35.1  0.2800  -99.9
 1.960  0.4937  178.9   4.271   72.7  0.1103   35.1  0.2784 -100.3
 1.980  0.4941  178.2   4.230   72.3  0.1108   35.0  0.2768 -100.7
 2.000  0.4946  177.4   4.190   71.8  0.1113   35.0  0.2752 -101.2
 2.020  0.4948  176.7   4.153   71.4  0.1118   35.0  0.2737 -101.6
 2.040  0.4950  176.0   4.117   71.0  0.1123   34.9  0.2723 -102.0
 2.060  0.4953  175.3   4.080   70.6  0.1129   34.9  0.2708 -102.5
 2.080  0.4957  174.6   4.044   70.2  0.1134   34.9  0.2694 -102.9
 2.100  0.4961  173.9   4.008   69.8  0.1139   34.8  0.2680 -103.3
 2.120  0.4966  173.2   3.972   69.4  0.1144   34.8  0.2666 -103.8
 2.140  0.4972  172.6   3.936   68.9  0.1149   34.8  0.2652 -104.2
 2.160  0.4979  171.9   3.901   68.5  0.1155   34.8  0.2639 -104.7
 2.180  0.4986  171.2   3.866   68.1  0.1160   34.7  0.2625 -105.1
 2.200  0.4994  170.5   3.831   67.6  0.1165   34.7  0.2612 -105.6
 2.220  0.4998  169.9   3.800   67.2  0.1170   34.7  0.2600 -106.0
 2.240  0.5003  169.2   3.769   66.8  0.1175   34.6  0.2588 -106.5
 2.260  0.5009  168.6   3.738   66.4  0.1180   34.6  0.2576 -106.9
 2.280  0.5015  168.0   3.708   66.0  0.1185   34.6  0.2565 -107.4
 2.300  0.5022  167.4   3.677   65.6  0.1190   34.5  0.2553 -107.8
 2.320  0.5030  166.8   3.647   65.2  0.1196   34.5  0.2542 -108.3
 2.340  0.5038  166.1   3.617   64.8  0.1201   34.5  0.2531 -108.8
 2.360  0.5046  165.5   3.587   64.4  0.1206   34.5  0.2520 -109.2
 2.380  0.5055  164.9   3.557   63.9  0.1211   34.4  0.2510 -109.7
 2.400  0.5065  164.3   3.528   63.5  0.1216   34.4  0.2499 -110.2
 2.420  0.5071  163.7   3.501   63.1  0.1221   34.3  0.2490 -110.7
 2.440  0.5078  163.1   3.474   62.8  0.1226   34.3  0.2481 -111.2
 2.460  0.5085  162.5   3.447   62.4  0.1231   34.2  0.2472 -111.6
 2.480  0.5092  162.0   3.421   62.0  0.1236   34.2  0.2463 -112.1
 2.500  0.5100  161.4   3.395   61.6  0.1241   34.1  0.2454 -112.6
 2.520  0.5109  160.8   3.368   61.2  0.1247   34.1  0.2446 -113.1
 2.540  0.5118  160.2   3.342   60.8  0.1252   34.0  0.2438 -113.6
 2.560  0.5128  159.6   3.316   60.4  0.1257   34.0  0.2430 -114.1
 2.580  0.5138  159.1   3.291   60.0  0.1262   33.9  0.2422 -114.6
 2.600  0.5149  158.5   3.265   59.6  0.1267   33.9  0.2414 -115.1
 2.620  0.5155  157.9   3.242   59.2  0.1272   33.8  0.2408 -115.6
 2.640  0.5161  157.4   3.219   58.9  0.1277   33.8  0.2401 -116.1
 2.660  0.5168  156.8   3.195   58.5  0.1282   33.7  0.2395 -116.6
 2.680  0.5175  156.3   3.173   58.1  0.1287   33.7  0.2389 -117.1
 2.700  0.5183  155.7   3.150   57.8  0.1292   33.6  0.2384 -117.6
 2.720  0.5191  155.2   3.127   57.4  0.1298   33.6  0.2378 -118.1
 2.740  0.5199  154.6   3.105   57.0  0.1303   33.5  0.2373 -118.6
 2.760  0.5208  154.1   3.082   56.6  0.1308   33.5  0.2368 -119.1
 2.780  0.5218  153.5   3.060   56.2  0.1313   33.4  0.2363 -119.6
 2.800  0.5228  153.0   3.038   55.8  0.1318   33.4  0.2358 -120.1
 2.820  0.5236  152.5   3.017   55.5  0.1323   33.3  0.2354 -120.6
 2.840  0.5244  152.0   2.997   55.1  0.1328   33.3  0.2350 -121.1
 2.860  0.5253  151.5   2.977   54.8  0.1333   33.2  0.2346 -121.6
 2.880  0.5263  151.0   2.957   54.4  0.1338   33.2  0.2342 -122.1
 2.900  0.5272  150.5   2.937   54.1  0.1343   33.1  0.2339 -122.6
 2.920  0.5282  150.0   2.917   53.7  0.1349   33.1  0.2335 -123.1
 2.940  0.5293  149.6   2.897   53.3  0.1354   33.0  0.2332 -123.6
 2.960  0.5303  149.1   2.877   53.0  0.1359   33.0  0.2329 -124.1
 2.980  0.5314  148.6   2.857   52.6  0.1364   32.9  0.2327 -124.6
 3.000  0.5326  148.1   2.838   52.2  0.1369   32.9  0.2324 -125.1
 3.100  0.5360  145.8   2.752   50.7  0.1394   32.5  0.2314 -127.4
 3.200  0.5403  143.5   2.668   49.1  0.1420   32.2  0.2308 -129.8
 3.300  0.5455  141.2   2.587   47.4  0.1445   31.8  0.2306 -132.2
 3.400  0.5515  139.0   2.507   45.5  0.1471   31.5  0.2308 -134.5
 3.500  0.5583  136.8   2.431   43.6  0.1496   31.2  0.2314 -136.9
 3.600  0.5632  134.8   2.365   42.2  0.1520   30.8  0.2316 -139.4
 3.700  0.5687  132.8   2.301   40.7  0.1544   30.4  0.2322 -141.8
 3.800  0.5749  130.9   2.238   39.1  0.1568   30.0  0.2333 -144.3
 3.900  0.5817  129.0   2.177   37.4  0.1593   29.7  0.2348 -146.7
 4.000  0.5891  127.2   2.118   35.6  0.1617   29.3  0.2367 -149.1
 4.100  0.5943  125.6   2.066   34.2  0.1640   28.9  0.2392 -151.5
 4.200  0.6000  124.0   2.014   32.8  0.1663   28.6  0.2422 -153.8
 4.300  0.6061  122.5   1.964   31.3  0.1686   28.2  0.2456 -156.1
 4.400  0.6126  121.0   1.916   29.8  0.1709   27.8  0.2493 -158.3
 4.500  0.6196  119.5   1.869   28.1  0.1732   27.5  0.2534 -160.5
 4.600  0.6234  118.1   1.827   26.9  0.1756   27.2  0.2570 -162.2
 4.700  0.6275  116.8   1.787   25.6  0.1779   26.9  0.2608 -163.9
 4.800  0.6320  115.4   1.747   24.3  0.1803   26.6  0.2648 -165.5
 4.900  0.6368  114.1   1.708   22.9  0.1827   26.3  0.2691 -167.1
 5.000  0.6420  112.8   1.670   21.4  0.1851   26.0  0.2735 -168.6
 5.100  0.6451  111.7   1.638   20.3  0.1878   25.6  0.2768 -169.8
 5.200  0.6484  110.6   1.606   19.1  0.1906   25.2  0.2803 -171.0
 5.300  0.6520  109.5   1.575   17.9  0.1934   24.8  0.2838 -172.2
 5.400  0.6558  108.5   1.545   16.6  0.1961   24.4  0.2875 -173.3
 5.500  0.6598  107.4   1.515   15.3  0.1989   24.0  0.2913 -174.4
 5.600  0.6624  106.5   1.489   14.2  0.2016   23.5  0.2954 -175.6
 5.700  0.6651  105.6   1.464   13.0  0.2044   23.0  0.2997 -176.8
 5.800  0.6680  104.7   1.439   11.8  0.2071   22.5  0.3041 -177.9
 5.900  0.6711  103.8   1.415   10.6  0.2099   22.0  0.3086 -179.0
 6.000  0.6743  102.9   1.392    9.3  0.2127   21.5  0.3132  179.9
 6.100  0.6750  102.0   1.370    8.2  0.2152   21.0  0.3172  179.1
 6.200  0.6759  101.1   1.348    7.1  0.2176   20.5  0.3212  178.2
 6.300  0.6769  100.3   1.327    6.0  0.2202   20.0  0.3253  177.4
 6.400  0.6781   99.4   1.306    4.8  0.2227   19.5  0.3294  176.7
 6.500  0.6795   98.5   1.286    3.6  0.2252   19.0  0.3336  175.9
 6.600  0.6792   97.5   1.269    2.6  0.2280   18.5  0.3352  175.4
 6.800  0.6794   95.5   1.235    0.4  0.2338   17.6  0.3383  174.4
 7.000  0.6803   93.5   1.203   -1.8  0.2396   16.7  0.3416  173.5
 7.200  0.6827   91.2   1.176   -3.9  0.2461   15.5  0.3433  171.9
 7.400  0.6863   88.8   1.151   -6.2  0.2527   14.3  0.3453  170.3
 7.600  0.6911   86.3   1.126   -8.5  0.2592   12.9  0.3482  168.2
 7.800  0.6974   83.6   1.103  -11.0  0.2656   11.4  0.3523  165.6
 8.000  0.7052   81.0   1.081  -13.6  0.2723    9.9  0.3571  163.1
 8.200  0.7110   78.2   1.052  -16.0  0.2774    8.0  0.3610  160.0
 8.400  0.7184   75.4   1.025  -18.5  0.2828    6.2  0.3660  156.9
 8.600  0.7278   72.7   0.997  -20.9  0.2867    4.3  0.3710  153.2
 8.800  0.7390   70.2   0.968  -23.1  0.2890    2.4  0.3770  148.7
 9.000  0.7515   67.7   0.941  -25.5  0.2917    0.5  0.3851  144.5
 9.200  0.7670   65.7   0.910  -27.4  0.2920   -1.0  0.3982  139.2
 9.400  0.7835   63.7   0.880  -29.4  0.2925   -2.5  0.4145  134.2
 9.600  0.7978   62.0   0.851  -31.2  0.2927   -3.7  0.4328  129.8
 9.800  0.8098   60.3   0.821  -32.8  0.2925   -4.7  0.4526  125.8
10.000  0.8225   58.7   0.792  -34.5  0.2924   -5.7  0.4744  122.2
!
!  f       NFmin   Gammaopt  rn/50
! GHz       dB    MAG  ANG    -
 0.450      0.83  0.28   16   0.15
 0.900      0.84  0.26   37   0.16
 1.900      1.07  0.14  103   0.12
 3.500      1.18  0.31 -149   0.11
!
! (c) 2016  Infineon Technologies AG, Munich
