! Infineon Technologies  Discrete & RF Semiconductors
! BFP460
! VCE =  4.0 V,  IC =  20 mA
! Common Emitter S-Parameters:                            Jan 2016
# GHz  S  MA  R  50
!  f         S11            S21            S12            S22
! GHz     MAG   ANG      MAG   ANG      MAG   ANG      MAG   ANG
 0.030  0.6151  -13.4  44.486  171.3  0.0050   81.0  0.9470   -8.5
 0.035  0.6136  -15.6  44.252  169.9  0.0057   80.7  0.9440   -9.8
 0.040  0.6130  -17.8  44.047  168.4  0.0065   80.5  0.9415  -11.2
 0.045  0.6094  -20.0  43.696  167.0  0.0073   79.2  0.9377  -12.5
 0.050  0.6066  -22.2  43.371  165.6  0.0082   78.2  0.9343  -13.8
 0.055  0.6059  -24.3  43.133  164.5  0.0088   77.4  0.9293  -15.2
 0.060  0.6060  -26.5  42.913  163.3  0.0094   76.7  0.9248  -16.6
 0.065  0.6036  -29.0  42.749  162.0  0.0101   75.8  0.9193  -17.9
 0.070  0.6023  -31.5  42.608  160.6  0.0109   75.1  0.9143  -19.3
 0.075  0.6024  -33.4  42.265  159.6  0.0117   74.7  0.9082  -20.6
 0.080  0.6031  -35.2  41.936  158.5  0.0126   74.3  0.9026  -22.0
 0.085  0.5992  -37.4  41.588  157.3  0.0131   73.6  0.8956  -23.2
 0.090  0.5961  -39.6  41.259  156.0  0.0136   72.9  0.8890  -24.5
 0.095  0.5931  -41.4  40.816  155.0  0.0143   72.0  0.8819  -25.7
 0.100  0.5907  -43.3  40.386  153.9  0.0150   71.1  0.8752  -26.9
 0.105  0.5903  -45.3  40.076  152.8  0.0156   70.5  0.8675  -28.1
 0.110  0.5906  -47.4  39.781  151.7  0.0162   70.0  0.8602  -29.4
 0.115  0.5865  -49.3  39.403  150.6  0.0168   69.4  0.8523  -30.5
 0.120  0.5831  -51.2  39.041  149.4  0.0175   68.8  0.8448  -31.7
 0.125  0.5796  -53.0  38.656  148.5  0.0180   68.1  0.8367  -32.8
 0.130  0.5767  -54.9  38.281  147.5  0.0186   67.5  0.8289  -33.9
 0.135  0.5725  -56.8  37.922  146.4  0.0191   66.8  0.8209  -35.0
 0.140  0.5689  -58.7  37.576  145.3  0.0197   66.1  0.8132  -36.1
 0.145  0.5664  -60.4  37.125  144.3  0.0202   65.5  0.8050  -37.1
 0.150  0.5644  -62.1  36.685  143.3  0.0207   65.0  0.7971  -38.2
 0.155  0.5601  -63.6  36.276  142.5  0.0211   64.5  0.7882  -39.1
 0.160  0.5562  -65.1  35.874  141.7  0.0216   64.0  0.7796  -39.9
 0.165  0.5527  -66.7  35.478  140.9  0.0220   63.5  0.7711  -40.8
 0.170  0.5496  -68.2  35.090  140.1  0.0224   63.0  0.7628  -41.7
 0.175  0.5469  -69.8  34.709  139.3  0.0229   62.6  0.7547  -42.7
 0.180  0.5446  -71.4  34.336  138.4  0.0233   62.2  0.7468  -43.6
 0.185  0.5427  -73.0  33.970  137.5  0.0238   61.7  0.7391  -44.6
 0.190  0.5413  -74.6  33.613  136.6  0.0242   61.4  0.7316  -45.6
 0.195  0.5403  -76.3  33.264  135.7  0.0247   61.0  0.7243  -46.6
 0.200  0.5398  -77.9  32.924  134.8  0.0251   60.6  0.7173  -47.6
 0.220  0.5284  -83.1  31.461  132.2  0.0265   59.2  0.6867  -50.5
 0.240  0.5216  -88.6  30.070  129.3  0.0280   57.9  0.6580  -53.6
 0.260  0.5154  -93.4  28.771  126.8  0.0293   56.8  0.6311  -56.5
 0.280  0.5085  -97.8  27.536  124.5  0.0304   55.7  0.6053  -59.0
 0.300  0.5046 -102.3  26.347  122.1  0.0316   54.8  0.5807  -61.8
 0.320  0.4976 -106.1  25.272  120.3  0.0326   54.3  0.5585  -63.8
 0.340  0.4928 -109.9  24.225  118.3  0.0335   53.8  0.5371  -66.0
 0.360  0.4884 -113.5  23.259  116.6  0.0344   53.4  0.5173  -68.1
 0.380  0.4838 -116.7  22.365  115.0  0.0353   53.0  0.4990  -69.9
 0.400  0.4808 -119.9  21.489  113.3  0.0362   52.7  0.4812  -71.9
 0.420  0.4770 -122.7  20.716  112.0  0.0370   52.5  0.4656  -73.5
 0.440  0.4743 -125.5  19.955  110.6  0.0378   52.3  0.4503  -75.1
 0.450  0.4734 -126.9  19.579  109.9  0.0382   52.2  0.4428  -76.0
 0.460  0.4716 -128.1  19.253  109.3  0.0386   52.2  0.4362  -76.7
 0.480  0.4687 -130.5  18.606  108.2  0.0394   52.1  0.4231  -78.1
 0.500  0.4666 -132.9  17.968  106.9  0.0402   52.1  0.4103  -79.6
 0.520  0.4640 -134.9  17.439  106.0  0.0409   52.1  0.3997  -80.7
 0.540  0.4620 -136.9  16.914  105.1  0.0417   52.1  0.3892  -81.9
 0.560  0.4606 -139.0  16.394  104.1  0.0424   52.2  0.3790  -83.2
 0.580  0.4597 -141.0  15.879  103.0  0.0432   52.2  0.3689  -84.5
 0.600  0.4595 -143.1  15.370  101.9  0.0439   52.2  0.3590  -85.9
 0.620  0.4579 -144.7  14.970  101.2  0.0446   52.3  0.3511  -86.9
 0.640  0.4567 -146.3  14.572  100.4  0.0454   52.4  0.3434  -87.9
 0.660  0.4558 -147.9  14.177   99.6  0.0461   52.4  0.3357  -89.0
 0.680  0.4553 -149.6  13.785   98.7  0.0469   52.5  0.3282  -90.1
 0.700  0.4552 -151.2  13.397   97.8  0.0476   52.6  0.3208  -91.3
 0.720  0.4541 -152.6  13.085   97.2  0.0484   52.7  0.3149  -92.1
 0.740  0.4533 -153.9  12.775   96.5  0.0491   52.9  0.3090  -93.0
 0.760  0.4527 -155.3  12.466   95.8  0.0499   53.0  0.3032  -93.9
 0.780  0.4524 -156.6  12.160   95.1  0.0506   53.1  0.2975  -94.8
 0.800  0.4523 -158.0  11.855   94.3  0.0514   53.2  0.2919  -95.8
 0.820  0.4518 -159.1  11.610   93.8  0.0522   53.3  0.2873  -96.6
 0.840  0.4514 -160.3  11.365   93.2  0.0530   53.4  0.2828  -97.4
 0.860  0.4513 -161.4  11.122   92.6  0.0537   53.5  0.2784  -98.2
 0.880  0.4513 -162.6  10.880   92.0  0.0545   53.6  0.2740  -99.1
 0.900  0.4515 -163.7  10.640   91.3  0.0553   53.7  0.2697 -100.0
 0.920  0.4512 -164.7  10.438   90.8  0.0561   53.8  0.2661 -100.7
 0.940  0.4511 -165.7  10.236   90.2  0.0569   53.9  0.2626 -101.4
 0.960  0.4511 -166.7  10.036   89.7  0.0576   53.9  0.2591 -102.2
 0.980  0.4512 -167.7   9.836   89.1  0.0584   54.0  0.2556 -102.9
 1.000  0.4515 -168.7   9.638   88.5  0.0592   54.1  0.2522 -103.7
 1.020  0.4513 -169.6   9.470   88.0  0.0600   54.2  0.2494 -104.4
 1.040  0.4513 -170.5   9.303   87.6  0.0608   54.3  0.2467 -105.1
 1.060  0.4513 -171.4   9.137   87.1  0.0615   54.3  0.2439 -105.8
 1.080  0.4515 -172.3   8.971   86.5  0.0623   54.4  0.2412 -106.5
 1.100  0.4518 -173.2   8.806   86.0  0.0631   54.5  0.2386 -107.2
 1.120  0.4518 -174.0   8.665   85.6  0.0639   54.5  0.2363 -107.8
 1.140  0.4519 -174.8   8.524   85.1  0.0647   54.6  0.2340 -108.4
 1.160  0.4521 -175.7   8.384   84.7  0.0655   54.6  0.2318 -109.0
 1.180  0.4523 -176.5   8.245   84.2  0.0663   54.7  0.2296 -109.7
 1.200  0.4527 -177.3   8.106   83.7  0.0671   54.7  0.2274 -110.3
 1.220  0.4529 -178.1   7.985   83.3  0.0679   54.7  0.2256 -110.9
 1.240  0.4531 -178.8   7.864   82.8  0.0687   54.7  0.2238 -111.5
 1.260  0.4534 -179.6   7.744   82.4  0.0696   54.8  0.2221 -112.1
 1.280  0.4538  179.7   7.624   81.9  0.0704   54.8  0.2204 -112.7
 1.300  0.4543  178.9   7.505   81.4  0.0712   54.8  0.2187 -113.3
 1.320  0.4545  178.2   7.401   81.0  0.0720   54.8  0.2171 -113.9
 1.340  0.4547  177.5   7.298   80.6  0.0728   54.8  0.2156 -114.4
 1.360  0.4550  176.9   7.195   80.2  0.0737   54.8  0.2141 -115.0
 1.380  0.4554  176.2   7.093   79.7  0.0745   54.8  0.2126 -115.6
 1.400  0.4558  175.5   6.991   79.3  0.0753   54.8  0.2111 -116.2
 1.420  0.4561  174.8   6.900   78.9  0.0761   54.8  0.2099 -116.7
 1.440  0.4565  174.2   6.810   78.5  0.0769   54.8  0.2088 -117.2
 1.460  0.4570  173.5   6.719   78.1  0.0778   54.7  0.2077 -117.7
 1.480  0.4575  172.9   6.630   77.7  0.0786   54.7  0.2066 -118.2
 1.500  0.4581  172.2   6.540   77.3  0.0794   54.7  0.2055 -118.7
 1.520  0.4584  171.6   6.460   76.9  0.0802   54.7  0.2045 -119.2
 1.540  0.4588  171.0   6.380   76.6  0.0810   54.7  0.2034 -119.8
 1.560  0.4592  170.3   6.300   76.2  0.0819   54.6  0.2024 -120.3
 1.580  0.4597  169.7   6.221   75.8  0.0827   54.6  0.2015 -120.8
 1.600  0.4602  169.1   6.142   75.4  0.0835   54.6  0.2005 -121.4
 1.620  0.4605  168.5   6.072   75.0  0.0843   54.6  0.1997 -121.9
 1.640  0.4609  167.9   6.003   74.7  0.0852   54.5  0.1989 -122.3
 1.660  0.4613  167.4   5.934   74.3  0.0860   54.5  0.1982 -122.8
 1.680  0.4618  166.8   5.865   73.9  0.0869   54.4  0.1974 -123.3
 1.700  0.4623  166.2   5.797   73.5  0.0877   54.4  0.1967 -123.8
 1.720  0.4627  165.7   5.734   73.1  0.0885   54.3  0.1961 -124.3
 1.740  0.4632  165.1   5.670   72.8  0.0893   54.2  0.1954 -124.8
 1.760  0.4637  164.6   5.607   72.4  0.0902   54.2  0.1948 -125.3
 1.780  0.4642  164.0   5.544   72.0  0.0910   54.1  0.1942 -125.8
 1.800  0.4648  163.5   5.482   71.6  0.0918   54.0  0.1936 -126.3
 1.820  0.4653  163.0   5.427   71.3  0.0926   53.9  0.1931 -126.8
 1.840  0.4659  162.4   5.371   70.9  0.0935   53.9  0.1925 -127.3
 1.860  0.4665  161.9   5.316   70.5  0.0943   53.8  0.1920 -127.7
 1.880  0.4671  161.3   5.262   70.2  0.0952   53.8  0.1915 -128.2
 1.900  0.4678  160.8   5.207   69.8  0.0960   53.7  0.1910 -128.7
 1.920  0.4684  160.2   5.156   69.5  0.0968   53.6  0.1906 -129.2
 1.940  0.4691  159.7   5.105   69.1  0.0976   53.5  0.1902 -129.7
 1.960  0.4698  159.1   5.055   68.7  0.0985   53.4  0.1898 -130.1
 1.980  0.4706  158.6   5.004   68.4  0.0993   53.3  0.1895 -130.6
 2.000  0.4714  158.0   4.954   68.0  0.1001   53.2  0.1891 -131.1
 2.020  0.4721  157.5   4.909   67.7  0.1009   53.1  0.1888 -131.6
 2.040  0.4728  157.0   4.864   67.4  0.1017   53.0  0.1885 -132.1
 2.060  0.4736  156.5   4.819   67.0  0.1026   52.9  0.1883 -132.6
 2.080  0.4744  156.0   4.775   66.7  0.1034   52.8  0.1880 -133.0
 2.100  0.4753  155.5   4.730   66.3  0.1042   52.7  0.1878 -133.5
 2.120  0.4761  155.0   4.686   66.0  0.1050   52.6  0.1876 -134.0
 2.140  0.4771  154.6   4.642   65.6  0.1058   52.5  0.1873 -134.5
 2.160  0.4780  154.1   4.598   65.3  0.1067   52.4  0.1871 -135.0
 2.180  0.4790  153.6   4.554   64.9  0.1075   52.3  0.1870 -135.5
 2.200  0.4800  153.1   4.511   64.5  0.1083   52.2  0.1868 -136.0
 2.220  0.4807  152.6   4.474   64.2  0.1091   52.1  0.1867 -136.5
 2.240  0.4815  152.2   4.436   63.9  0.1099   52.0  0.1866 -137.0
 2.260  0.4823  151.7   4.399   63.5  0.1108   51.9  0.1865 -137.5
 2.280  0.4831  151.3   4.362   63.2  0.1116   51.7  0.1865 -138.0
 2.300  0.4840  150.8   4.325   62.9  0.1124   51.6  0.1864 -138.5
 2.320  0.4849  150.4   4.288   62.5  0.1132   51.5  0.1864 -139.1
 2.340  0.4858  149.9   4.252   62.2  0.1140   51.4  0.1864 -139.6
 2.360  0.4867  149.5   4.215   61.8  0.1149   51.3  0.1864 -140.1
 2.380  0.4877  149.0   4.179   61.5  0.1157   51.2  0.1864 -140.6
 2.400  0.4887  148.6   4.143   61.1  0.1165   51.1  0.1864 -141.1
 2.420  0.4895  148.2   4.111   60.8  0.1173   51.0  0.1865 -141.6
 2.440  0.4904  147.7   4.078   60.5  0.1181   50.8  0.1867 -142.1
 2.460  0.4913  147.3   4.046   60.2  0.1189   50.7  0.1869 -142.7
 2.480  0.4922  146.9   4.014   59.8  0.1197   50.6  0.1871 -143.2
 2.500  0.4932  146.4   3.982   59.5  0.1205   50.4  0.1873 -143.7
 2.520  0.4941  146.0   3.950   59.2  0.1213   50.3  0.1875 -144.2
 2.540  0.4951  145.6   3.918   58.8  0.1221   50.2  0.1877 -144.8
 2.560  0.4962  145.1   3.887   58.5  0.1229   50.0  0.1880 -145.3
 2.580  0.4972  144.7   3.855   58.2  0.1237   49.9  0.1882 -145.8
 2.600  0.4983  144.3   3.824   57.8  0.1245   49.8  0.1885 -146.3
 2.620  0.4991  143.9   3.796   57.5  0.1253   49.7  0.1888 -146.8
 2.640  0.4999  143.5   3.768   57.2  0.1260   49.5  0.1892 -147.3
 2.660  0.5007  143.1   3.741   56.9  0.1268   49.4  0.1896 -147.8
 2.680  0.5016  142.6   3.713   56.5  0.1276   49.2  0.1900 -148.3
 2.700  0.5025  142.2   3.685   56.2  0.1283   49.1  0.1904 -148.8
 2.720  0.5034  141.8   3.658   55.9  0.1291   48.9  0.1908 -149.3
 2.740  0.5043  141.4   3.631   55.5  0.1299   48.8  0.1912 -149.8
 2.760  0.5053  141.0   3.604   55.2  0.1307   48.7  0.1917 -150.2
 2.780  0.5063  140.6   3.577   54.9  0.1314   48.5  0.1921 -150.7
 2.800  0.5073  140.2   3.550   54.5  0.1322   48.4  0.1926 -151.2
 2.820  0.5082  139.8   3.525   54.2  0.1330   48.3  0.1931 -151.7
 2.840  0.5091  139.4   3.501   53.9  0.1337   48.1  0.1936 -152.1
 2.860  0.5101  139.1   3.477   53.6  0.1345   48.0  0.1941 -152.6
 2.880  0.5111  138.7   3.452   53.3  0.1352   47.8  0.1946 -153.1
 2.900  0.5121  138.3   3.428   53.0  0.1360   47.7  0.1952 -153.5
 2.920  0.5131  138.0   3.404   52.7  0.1368   47.5  0.1957 -154.0
 2.940  0.5141  137.6   3.380   52.4  0.1375   47.4  0.1963 -154.4
 2.960  0.5152  137.2   3.356   52.1  0.1383   47.3  0.1969 -154.9
 2.980  0.5163  136.9   3.333   51.7  0.1390   47.1  0.1975 -155.4
 3.000  0.5174  136.5   3.309   51.4  0.1398   47.0  0.1981 -155.8
 3.100  0.5217  134.7   3.209   50.1  0.1434   46.2  0.2010 -158.0
 3.200  0.5266  132.9   3.110   48.7  0.1470   45.4  0.2041 -160.0
 3.300  0.5319  131.1   3.013   47.2  0.1506   44.6  0.2075 -162.1
 3.400  0.5378  129.4   2.919   45.6  0.1543   43.9  0.2112 -164.0
 3.500  0.5441  127.7   2.827   43.9  0.1580   43.2  0.2151 -165.9
 3.600  0.5495  126.1   2.750   42.7  0.1612   42.4  0.2188 -168.1
 3.700  0.5554  124.5   2.675   41.3  0.1645   41.5  0.2228 -170.2
 3.800  0.5617  123.0   2.601   39.9  0.1677   40.8  0.2272 -172.3
 3.900  0.5683  121.5   2.529   38.5  0.1711   40.0  0.2317 -174.2
 4.000  0.5754  120.0   2.458   36.9  0.1744   39.3  0.2366 -176.1
 4.100  0.5809  118.7   2.397   35.7  0.1773   38.5  0.2418 -178.1
 4.200  0.5868  117.4   2.337   34.4  0.1803   37.8  0.2473 -179.9
 4.300  0.5929  116.1   2.279   33.1  0.1833   37.1  0.2530  178.3
 4.400  0.5993  114.8   2.222   31.7  0.1863   36.4  0.2589  176.5
 4.500  0.6060  113.6   2.166   30.2  0.1893   35.7  0.2651  174.9
 4.600  0.6102  112.4   2.118   29.1  0.1922   35.0  0.2696  173.6
 4.700  0.6147  111.3   2.071   28.0  0.1951   34.4  0.2742  172.2
 4.800  0.6194  110.1   2.025   26.8  0.1980   33.7  0.2790  171.0
 4.900  0.6244  109.0   1.980   25.5  0.2010   33.1  0.2839  169.8
 5.000  0.6296  107.9   1.936   24.2  0.2040   32.5  0.2889  168.6
 5.100  0.6326  106.9   1.899   23.2  0.2071   31.8  0.2920  167.6
 5.200  0.6357  106.0   1.863   22.1  0.2103   31.1  0.2952  166.7
 5.300  0.6390  105.0   1.828   21.0  0.2135   30.4  0.2984  165.7
 5.400  0.6425  104.0   1.793   19.8  0.2167   29.7  0.3018  164.8
 5.500  0.6462  103.1   1.759   18.6  0.2199   29.1  0.3052  163.9
 5.600  0.6484  102.3   1.730   17.6  0.2228   28.3  0.3089  163.0
 5.700  0.6508  101.5   1.701   16.5  0.2257   27.6  0.3126  162.2
 5.800  0.6533  100.7   1.673   15.4  0.2287   26.8  0.3165  161.3
 5.900  0.6559   99.9   1.646   14.2  0.2317   26.1  0.3203  160.5
 6.000  0.6587   99.1   1.619   13.0  0.2347   25.4  0.3243  159.7
 6.100  0.6593   98.3   1.594   12.0  0.2373   24.7  0.3270  159.1
 6.200  0.6601   97.5   1.570   11.0  0.2399   24.0  0.3297  158.6
 6.300  0.6610   96.7   1.546    9.9  0.2425   23.3  0.3324  158.1
 6.400  0.6620   95.9   1.523    8.8  0.2452   22.6  0.3352  157.5
 6.500  0.6632   95.1   1.500    7.7  0.2479   21.9  0.3380  157.0
 6.600  0.6627   94.1   1.481    6.7  0.2508   21.2  0.3379  156.6
 6.800  0.6623   92.2   1.443    4.7  0.2567   19.9  0.3377  155.9
 7.000  0.6627   90.3   1.408    2.6  0.2628   18.6  0.3375  155.1
 7.200  0.6646   88.1   1.378    0.5  0.2692   17.0  0.3373  153.7
 7.400  0.6674   85.9   1.350   -1.8  0.2758   15.4  0.3372  152.2
 7.600  0.6715   83.5   1.322   -4.1  0.2821   13.8  0.3390  150.3
 7.800  0.6771   81.0   1.295   -6.5  0.2882   11.9  0.3427  148.0
 8.000  0.6840   78.6   1.270   -9.0  0.2945   10.2  0.3470  145.7
 8.200  0.6897   76.0   1.237  -11.4  0.2987    8.1  0.3514  142.8
 8.400  0.6968   73.4   1.206  -13.9  0.3033    6.0  0.3567  140.0
 8.600  0.7063   70.9   1.175  -16.3  0.3063    4.0  0.3631  136.5
 8.800  0.7181   68.6   1.141  -18.6  0.3077    1.9  0.3717  132.3
 9.000  0.7311   66.3   1.110  -21.0  0.3094   -0.1  0.3821  128.4
 9.200  0.7474   64.4   1.074  -22.9  0.3085   -1.7  0.3985  123.7
 9.400  0.7645   62.7   1.039  -24.9  0.3078   -3.2  0.4175  119.3
 9.600  0.7797   61.0   1.005  -26.7  0.3069   -4.5  0.4372  115.5
 9.800  0.7929   59.5   0.970  -28.2  0.3059   -5.5  0.4572  112.2
10.000  0.8066   58.0   0.937  -29.8  0.3049   -6.5  0.4786  109.2
!
!  f       NFmin   Gammaopt  rn/50
! GHz       dB    MAG  ANG    -
 0.450      1.24  0.07 -176   0.13
 0.900      1.26  0.04  175   0.15
 1.900      1.38  0.18 -150   0.12
 3.500      1.34  0.41 -125   0.15
!
! (c) 2016  Infineon Technologies AG, Munich
