! Infineon Technologies  Discrete & RF Semiconductors
! BFP460
! VCE =  2.5 V,  IC =  60 mA
! Common Emitter S-Parameters:                            Jan 2016
# GHz  S  MA  R  50
!  f         S11            S21            S12            S22
! GHz     MAG   ANG      MAG   ANG      MAG   ANG      MAG   ANG
 0.030  0.2931  -35.2  66.921  168.1  0.0042   84.3  0.8729  -12.0
 0.035  0.2952  -40.5  66.312  165.9  0.0048   82.7  0.8678  -14.3
 0.040  0.2997  -45.7  65.801  163.7  0.0055   81.5  0.8642  -16.7
 0.045  0.3030  -50.4  64.977  161.5  0.0060   79.3  0.8563  -18.9
 0.050  0.3083  -54.9  64.254  159.2  0.0066   77.5  0.8497  -21.2
 0.055  0.3118  -59.3  63.488  157.4  0.0072   76.5  0.8402  -23.4
 0.060  0.3171  -63.6  62.785  155.6  0.0079   75.7  0.8319  -25.6
 0.065  0.3237  -68.1  61.977  153.6  0.0084   74.1  0.8208  -27.6
 0.070  0.3322  -72.4  61.244  151.6  0.0089   72.7  0.8107  -29.7
 0.075  0.3382  -75.8  60.303  150.1  0.0093   71.9  0.7987  -31.6
 0.080  0.3454  -79.1  59.407  148.5  0.0098   71.1  0.7877  -33.6
 0.085  0.3500  -82.7  58.365  146.8  0.0102   70.5  0.7750  -35.4
 0.090  0.3560  -86.2  57.375  145.1  0.0107   70.0  0.7631  -37.3
 0.095  0.3592  -88.8  56.297  143.7  0.0111   69.2  0.7506  -39.0
 0.100  0.3631  -91.4  55.256  142.2  0.0115   68.4  0.7388  -40.8
 0.105  0.3697  -94.1  54.345  140.8  0.0119   67.8  0.7259  -42.4
 0.110  0.3770  -96.7  53.467  139.4  0.0123   67.2  0.7135  -44.0
 0.115  0.3804  -99.4  52.456  138.0  0.0126   66.3  0.7009  -45.5
 0.120  0.3846 -102.0  51.476  136.6  0.0130   65.5  0.6889  -47.1
 0.125  0.3871 -104.4  50.534  135.5  0.0133   65.1  0.6766  -48.5
 0.130  0.3902 -106.7  49.613  134.3  0.0137   64.8  0.6647  -49.9
 0.135  0.3938 -108.8  48.725  133.1  0.0140   64.2  0.6530  -51.2
 0.140  0.3980 -110.8  47.859  131.9  0.0143   63.7  0.6417  -52.6
 0.145  0.4013 -112.7  46.909  130.8  0.0146   63.4  0.6302  -53.9
 0.150  0.4050 -114.6  45.977  129.7  0.0150   63.2  0.6191  -55.2
 0.155  0.4061 -116.1  45.186  129.0  0.0153   62.9  0.6087  -56.1
 0.160  0.4075 -117.7  44.402  128.2  0.0155   62.7  0.5984  -57.0
 0.165  0.4092 -119.2  43.626  127.4  0.0158   62.5  0.5883  -58.0
 0.170  0.4111 -120.7  42.859  126.6  0.0160   62.2  0.5783  -59.0
 0.175  0.4134 -122.2  42.100  125.8  0.0163   62.0  0.5686  -60.0
 0.180  0.4159 -123.7  41.351  124.9  0.0166   61.8  0.5590  -61.1
 0.185  0.4187 -125.1  40.612  124.0  0.0168   61.6  0.5496  -62.2
 0.190  0.4218 -126.6  39.883  123.1  0.0171   61.4  0.5405  -63.3
 0.195  0.4251 -128.0  39.165  122.1  0.0173   61.2  0.5315  -64.5
 0.200  0.4287 -129.4  38.459  121.1  0.0176   61.0  0.5228  -65.7
 0.220  0.4331 -133.6  36.077  118.8  0.0185   60.8  0.4923  -68.6
 0.240  0.4399 -137.8  33.762  116.2  0.0194   60.6  0.4632  -72.0
 0.260  0.4455 -141.4  31.729  113.8  0.0203   60.5  0.4377  -75.0
 0.280  0.4493 -144.5  29.942  112.0  0.0212   60.6  0.4152  -77.5
 0.300  0.4544 -147.5  28.191  109.9  0.0220   60.7  0.3936  -80.4
 0.320  0.4566 -149.9  26.781  108.5  0.0229   61.0  0.3762  -82.4
 0.340  0.4597 -152.3  25.389  106.9  0.0238   61.2  0.3593  -84.6
 0.360  0.4620 -154.4  24.146  105.5  0.0246   61.4  0.3444  -86.7
 0.380  0.4635 -156.3  23.044  104.3  0.0255   61.7  0.3311  -88.5
 0.400  0.4655 -158.2  21.954  102.9  0.0263   61.9  0.3183  -90.5
 0.420  0.4669 -159.8  21.056  101.9  0.0272   62.2  0.3076  -92.1
 0.440  0.4687 -161.4  20.165  100.9  0.0281   62.5  0.2972  -93.7
 0.450  0.4697 -162.2  19.722  100.3  0.0285   62.6  0.2921  -94.6
 0.460  0.4702 -162.9  19.355   99.9  0.0289   62.8  0.2878  -95.3
 0.480  0.4713 -164.3  18.625   99.0  0.0298   63.1  0.2794  -96.8
 0.500  0.4727 -165.7  17.900   98.1  0.0307   63.4  0.2711  -98.3
 0.520  0.4733 -166.8  17.330   97.4  0.0316   63.6  0.2646  -99.5
 0.540  0.4740 -168.0  16.762   96.7  0.0325   63.8  0.2582 -100.7
 0.560  0.4750 -169.1  16.197   95.9  0.0333   64.0  0.2520 -102.0
 0.580  0.4761 -170.2  15.635   95.1  0.0342   64.2  0.2459 -103.3
 0.600  0.4774 -171.3  15.077   94.2  0.0351   64.4  0.2399 -104.7
 0.620  0.4780 -172.2  14.661   93.6  0.0360   64.6  0.2355 -105.7
 0.640  0.4787 -173.1  14.247   93.0  0.0369   64.7  0.2311 -106.8
 0.660  0.4796 -174.1  13.834   92.4  0.0379   64.8  0.2268 -107.9
 0.680  0.4806 -175.0  13.424   91.7  0.0388   65.0  0.2226 -109.1
 0.700  0.4817 -175.9  13.015   91.0  0.0397   65.1  0.2185 -110.3
 0.720  0.4822 -176.7  12.699   90.5  0.0406   65.2  0.2153 -111.2
 0.740  0.4828 -177.5  12.384   90.0  0.0415   65.3  0.2122 -112.1
 0.760  0.4835 -178.2  12.069   89.4  0.0425   65.4  0.2091 -113.0
 0.780  0.4842 -179.0  11.757   88.8  0.0434   65.4  0.2061 -114.0
 0.800  0.4851 -179.8  11.445   88.2  0.0443   65.5  0.2032 -115.0
 0.820  0.4856  179.5  11.199   87.8  0.0452   65.5  0.2009 -115.8
 0.840  0.4861  178.8  10.953   87.3  0.0461   65.6  0.1987 -116.6
 0.860  0.4867  178.1  10.708   86.8  0.0471   65.6  0.1965 -117.5
 0.880  0.4874  177.4  10.463   86.3  0.0480   65.7  0.1944 -118.3
 0.900  0.4881  176.7  10.220   85.8  0.0489   65.7  0.1923 -119.2
 0.920  0.4884  176.1  10.021   85.4  0.0498   65.7  0.1906 -119.9
 0.940  0.4887  175.5   9.822   84.9  0.0507   65.7  0.1889 -120.6
 0.960  0.4891  174.8   9.624   84.5  0.0517   65.7  0.1873 -121.4
 0.980  0.4896  174.2   9.427   84.0  0.0526   65.7  0.1857 -122.1
 1.000  0.4901  173.6   9.230   83.5  0.0535   65.7  0.1841 -122.9
 1.020  0.4904  173.0   9.065   83.1  0.0544   65.7  0.1829 -123.6
 1.040  0.4908  172.4   8.900   82.7  0.0554   65.7  0.1817 -124.2
 1.060  0.4912  171.8   8.736   82.3  0.0563   65.6  0.1806 -124.9
 1.080  0.4917  171.2   8.572   81.9  0.0573   65.6  0.1795 -125.6
 1.100  0.4922  170.6   8.409   81.4  0.0582   65.6  0.1784 -126.3
 1.120  0.4926  170.1   8.271   81.0  0.0591   65.5  0.1775 -126.9
 1.140  0.4931  169.5   8.134   80.6  0.0601   65.5  0.1766 -127.5
 1.160  0.4936  169.0   7.997   80.2  0.0610   65.4  0.1757 -128.1
 1.180  0.4941  168.4   7.860   79.8  0.0620   65.4  0.1748 -128.7
 1.200  0.4947  167.9   7.724   79.4  0.0629   65.3  0.1740 -129.3
 1.220  0.4952  167.4   7.607   79.0  0.0638   65.2  0.1734 -129.8
 1.240  0.4957  166.9   7.490   78.6  0.0648   65.1  0.1728 -130.4
 1.260  0.4963  166.4   7.373   78.2  0.0657   65.1  0.1723 -130.9
 1.280  0.4969  165.9   7.257   77.8  0.0667   65.0  0.1717 -131.5
 1.300  0.4975  165.4   7.141   77.4  0.0676   64.9  0.1712 -132.0
 1.320  0.4978  164.9   7.041   77.0  0.0685   64.8  0.1707 -132.5
 1.340  0.4981  164.4   6.940   76.7  0.0694   64.7  0.1701 -133.0
 1.360  0.4985  164.0   6.841   76.3  0.0704   64.7  0.1696 -133.6
 1.380  0.4989  163.5   6.741   75.9  0.0713   64.6  0.1691 -134.1
 1.400  0.4993  163.0   6.642   75.5  0.0722   64.5  0.1686 -134.6
 1.420  0.4998  162.5   6.555   75.2  0.0731   64.4  0.1683 -135.0
 1.440  0.5004  162.0   6.468   74.8  0.0741   64.3  0.1681 -135.5
 1.460  0.5011  161.6   6.382   74.4  0.0750   64.1  0.1679 -135.9
 1.480  0.5017  161.1   6.296   74.1  0.0760   64.0  0.1676 -136.4
 1.500  0.5024  160.6   6.210   73.7  0.0769   63.9  0.1674 -136.8
 1.520  0.5029  160.1   6.133   73.4  0.0778   63.8  0.1672 -137.3
 1.540  0.5034  159.6   6.056   73.0  0.0787   63.7  0.1669 -137.7
 1.560  0.5039  159.2   5.979   72.7  0.0797   63.5  0.1667 -138.2
 1.580  0.5045  158.7   5.902   72.4  0.0806   63.4  0.1665 -138.6
 1.600  0.5051  158.2   5.826   72.0  0.0815   63.3  0.1663 -139.1
 1.620  0.5055  157.8   5.759   71.7  0.0824   63.2  0.1662 -139.5
 1.640  0.5060  157.4   5.692   71.3  0.0834   63.0  0.1661 -139.9
 1.660  0.5065  156.9   5.626   70.9  0.0843   62.9  0.1660 -140.4
 1.680  0.5070  156.5   5.559   70.6  0.0853   62.7  0.1660 -140.8
 1.700  0.5076  156.1   5.493   70.2  0.0862   62.6  0.1659 -141.2
 1.720  0.5081  155.7   5.432   69.9  0.0871   62.5  0.1659 -141.6
 1.740  0.5086  155.2   5.372   69.5  0.0880   62.3  0.1659 -142.0
 1.760  0.5092  154.8   5.311   69.2  0.0890   62.2  0.1659 -142.5
 1.780  0.5098  154.3   5.251   68.9  0.0899   62.0  0.1660 -142.9
 1.800  0.5104  153.9   5.191   68.5  0.0908   61.9  0.1660 -143.3
 1.820  0.5110  153.5   5.138   68.2  0.0917   61.8  0.1660 -143.7
 1.840  0.5116  153.0   5.085   67.8  0.0926   61.6  0.1661 -144.1
 1.860  0.5123  152.6   5.033   67.5  0.0936   61.5  0.1661 -144.5
 1.880  0.5130  152.1   4.980   67.2  0.0945   61.3  0.1661 -144.9
 1.900  0.5137  151.7   4.928   66.8  0.0954   61.2  0.1662 -145.3
 1.920  0.5143  151.3   4.879   66.5  0.0963   61.0  0.1663 -145.7
 1.940  0.5149  150.9   4.830   66.1  0.0972   60.9  0.1665 -146.1
 1.960  0.5155  150.5   4.782   65.7  0.0981   60.7  0.1667 -146.5
 1.980  0.5162  150.1   4.733   65.4  0.0990   60.6  0.1668 -146.9
 2.000  0.5169  149.7   4.685   65.0  0.0999   60.4  0.1670 -147.3
 2.020  0.5176  149.3   4.642   64.7  0.1008   60.2  0.1672 -147.7
 2.040  0.5183  148.9   4.599   64.4  0.1017   60.1  0.1675 -148.2
 2.060  0.5190  148.5   4.556   64.1  0.1026   59.9  0.1677 -148.6
 2.080  0.5198  148.1   4.514   63.8  0.1035   59.7  0.1680 -149.0
 2.100  0.5206  147.7   4.471   63.4  0.1044   59.6  0.1682 -149.4
 2.120  0.5214  147.3   4.429   63.1  0.1053   59.4  0.1685 -149.8
 2.140  0.5222  146.9   4.387   62.8  0.1062   59.3  0.1688 -150.3
 2.160  0.5231  146.5   4.345   62.4  0.1071   59.1  0.1691 -150.7
 2.180  0.5240  146.1   4.303   62.1  0.1080   58.9  0.1694 -151.1
 2.200  0.5249  145.7   4.261   61.7  0.1089   58.8  0.1697 -151.5
 2.220  0.5256  145.3   4.225   61.4  0.1098   58.6  0.1701 -151.9
 2.240  0.5263  144.9   4.189   61.1  0.1107   58.4  0.1704 -152.4
 2.260  0.5271  144.5   4.154   60.8  0.1115   58.3  0.1708 -152.8
 2.280  0.5279  144.2   4.118   60.5  0.1124   58.1  0.1712 -153.2
 2.300  0.5287  143.8   4.083   60.2  0.1133   57.9  0.1716 -153.6
 2.320  0.5295  143.4   4.048   59.8  0.1142   57.7  0.1720 -154.0
 2.340  0.5303  143.0   4.013   59.5  0.1150   57.6  0.1725 -154.5
 2.360  0.5312  142.7   3.978   59.2  0.1159   57.4  0.1729 -154.9
 2.380  0.5321  142.3   3.943   58.8  0.1168   57.3  0.1733 -155.3
 2.400  0.5330  141.9   3.908   58.5  0.1177   57.1  0.1738 -155.7
 2.420  0.5338  141.5   3.877   58.2  0.1186   56.9  0.1744 -156.1
 2.440  0.5347  141.1   3.846   57.9  0.1194   56.7  0.1749 -156.6
 2.460  0.5356  140.8   3.816   57.6  0.1203   56.5  0.1755 -157.0
 2.480  0.5365  140.4   3.785   57.3  0.1211   56.3  0.1761 -157.5
 2.500  0.5374  140.0   3.755   57.0  0.1220   56.2  0.1767 -157.9
 2.520  0.5384  139.7   3.725   56.6  0.1228   56.0  0.1773 -158.3
 2.540  0.5393  139.3   3.695   56.3  0.1237   55.8  0.1780 -158.7
 2.560  0.5403  138.9   3.665   56.0  0.1246   55.6  0.1786 -159.2
 2.580  0.5414  138.6   3.635   55.6  0.1254   55.5  0.1792 -159.6
 2.600  0.5424  138.2   3.605   55.3  0.1263   55.3  0.1799 -160.0
 2.620  0.5431  137.9   3.579   55.0  0.1271   55.1  0.1806 -160.4
 2.640  0.5439  137.5   3.552   54.7  0.1279   54.9  0.1814 -160.8
 2.660  0.5446  137.2   3.526   54.4  0.1288   54.7  0.1821 -161.2
 2.680  0.5454  136.8   3.500   54.1  0.1296   54.6  0.1828 -161.6
 2.700  0.5462  136.5   3.474   53.8  0.1304   54.4  0.1836 -162.0
 2.720  0.5470  136.1   3.448   53.5  0.1313   54.2  0.1844 -162.4
 2.740  0.5479  135.8   3.422   53.2  0.1321   54.0  0.1851 -162.8
 2.760  0.5487  135.5   3.396   52.9  0.1329   53.8  0.1859 -163.1
 2.780  0.5496  135.1   3.371   52.5  0.1338   53.7  0.1867 -163.5
 2.800  0.5505  134.8   3.345   52.2  0.1346   53.5  0.1875 -163.9
 2.820  0.5513  134.5   3.322   51.9  0.1354   53.3  0.1883 -164.3
 2.840  0.5522  134.1   3.299   51.6  0.1362   53.1  0.1891 -164.7
 2.860  0.5530  133.8   3.276   51.3  0.1370   52.9  0.1899 -165.0
 2.880  0.5539  133.5   3.253   51.1  0.1378   52.7  0.1908 -165.4
 2.900  0.5548  133.1   3.230   50.8  0.1386   52.5  0.1916 -165.8
 2.920  0.5557  132.8   3.207   50.5  0.1394   52.3  0.1924 -166.2
 2.940  0.5567  132.5   3.184   50.1  0.1403   52.1  0.1933 -166.5
 2.960  0.5576  132.2   3.162   49.8  0.1411   52.0  0.1942 -166.9
 2.980  0.5586  131.8   3.139   49.5  0.1419   51.8  0.1950 -167.2
 3.000  0.5596  131.5   3.117   49.2  0.1427   51.6  0.1959 -167.6
 3.100  0.5635  129.9   3.022   47.9  0.1465   50.6  0.2001 -169.4
 3.200  0.5678  128.3   2.928   46.6  0.1503   49.6  0.2044 -171.1
 3.300  0.5726  126.7   2.837   45.1  0.1541   48.7  0.2090 -172.7
 3.400  0.5778  125.2   2.747   43.6  0.1580   47.8  0.2137 -174.2
 3.500  0.5834  123.7   2.659   41.9  0.1619   47.0  0.2185 -175.7
 3.600  0.5885  122.2   2.586   40.7  0.1653   46.0  0.2233 -177.6
 3.700  0.5940  120.8   2.515   39.4  0.1687   45.1  0.2283 -179.3
 3.800  0.5998  119.4   2.445   38.0  0.1722   44.2  0.2336  179.0
 3.900  0.6060  118.0   2.377   36.5  0.1757   43.3  0.2390  177.3
 4.000  0.6126  116.6   2.310   35.0  0.1792   42.5  0.2446  175.8
 4.100  0.6178  115.4   2.253   33.8  0.1822   41.6  0.2506  174.1
 4.200  0.6233  114.2   2.196   32.6  0.1853   40.8  0.2569  172.5
 4.300  0.6290  113.0   2.141   31.4  0.1884   40.0  0.2633  171.0
 4.400  0.6350  111.8   2.087   30.0  0.1915   39.2  0.2699  169.6
 4.500  0.6413  110.7   2.034   28.6  0.1947   38.4  0.2767  168.2
 4.600  0.6451  109.6   1.989   27.5  0.1977   37.6  0.2816  167.0
 4.700  0.6491  108.5   1.946   26.4  0.2007   36.9  0.2866  165.9
 4.800  0.6534  107.5   1.903   25.2  0.2037   36.2  0.2917  164.8
 4.900  0.6579  106.4   1.860   24.0  0.2068   35.5  0.2969  163.8
 5.000  0.6626  105.4   1.819   22.7  0.2099   34.8  0.3022  162.8
 5.100  0.6652  104.5   1.785   21.7  0.2131   34.0  0.3054  161.9
 5.200  0.6679  103.5   1.751   20.7  0.2164   33.3  0.3088  161.1
 5.300  0.6708  102.6   1.718   19.6  0.2197   32.5  0.3121  160.2
 5.400  0.6739  101.7   1.686   18.5  0.2230   31.8  0.3156  159.4
 5.500  0.6772  100.8   1.654   17.3  0.2264   31.1  0.3191  158.6
 5.600  0.6791  100.0   1.627   16.3  0.2294   30.2  0.3228  157.8
 5.700  0.6811   99.3   1.600   15.2  0.2324   29.4  0.3266  157.0
 5.800  0.6832   98.5   1.574   14.1  0.2354   28.6  0.3304  156.3
 5.900  0.6854   97.8   1.548   13.0  0.2385   27.8  0.3343  155.5
 6.000  0.6878   97.0   1.523   11.8  0.2417   27.0  0.3383  154.8
 6.100  0.6882   96.2   1.500   10.8  0.2443   26.2  0.3409  154.3
 6.200  0.6887   95.4   1.477    9.8  0.2470   25.4  0.3435  153.8
 6.300  0.6893   94.7   1.454    8.8  0.2497   24.7  0.3462  153.3
 6.400  0.6901   93.9   1.432    7.7  0.2524   23.9  0.3489  152.8
 6.500  0.6910   93.1   1.411    6.6  0.2552   23.2  0.3516  152.3
 6.600  0.6904   92.2   1.393    5.6  0.2582   22.5  0.3514  151.9
 6.800  0.6897   90.3   1.359    3.6  0.2643   21.1  0.3509  151.2
 7.000  0.6898   88.5   1.327    1.5  0.2706   19.7  0.3505  150.5
 7.200  0.6913   86.3   1.299   -0.6  0.2772   18.0  0.3503  149.0
 7.400  0.6938   84.2   1.273   -2.7  0.2840   16.3  0.3503  147.5
 7.600  0.6975   81.8   1.246   -5.0  0.2904   14.5  0.3521  145.7
 7.800  0.7026   79.4   1.221   -7.4  0.2964   12.6  0.3561  143.4
 8.000  0.7091   76.9   1.198  -10.0  0.3027   10.8  0.3605  141.2
 8.200  0.7141   74.3   1.167  -12.3  0.3068    8.6  0.3651  138.4
 8.400  0.7206   71.8   1.138  -14.8  0.3113    6.4  0.3706  135.6
 8.600  0.7292   69.3   1.108  -17.2  0.3140    4.3  0.3775  132.2
 8.800  0.7398   67.0   1.076  -19.4  0.3151    2.2  0.3866  128.3
 9.000  0.7515   64.8   1.046  -21.8  0.3165    0.1  0.3975  124.5
 9.200  0.7668   63.0   1.012  -23.6  0.3153   -1.5  0.4143  120.0
 9.400  0.7829   61.2   0.978  -25.6  0.3143   -3.1  0.4335  115.9
 9.600  0.7971   59.6   0.946  -27.3  0.3132   -4.4  0.4532  112.3
 9.800  0.8095   58.1   0.914  -28.7  0.3118   -5.4  0.4731  109.2
10.000  0.8223   56.7   0.882  -30.3  0.3106   -6.4  0.4943  106.3
!
!  f       NFmin   Gammaopt  rn/50
! GHz       dB    MAG  ANG    -
 0.450      2.02  0.36 -170   0.13
 0.900      2.06  0.34 -160   0.14
 1.900      2.16  0.44 -139   0.17
 3.500      1.86  0.70 -115   0.32
!
! (c) 2016  Infineon Technologies AG, Munich
