! Infineon Technologies  Discrete & RF Semiconductors
! BFP460
! VCE =  2.0 V,  IC =  35 mA
! Common Emitter S-Parameters:                            Jan 2016
# GHz  S  MA  R  50
!  f         S11            S21            S12            S22
! GHz     MAG   ANG      MAG   ANG      MAG   ANG      MAG   ANG
 0.030  0.4432  -22.9  59.357  169.5  0.0047   82.8  0.9152  -11.4
 0.035  0.4415  -26.4  58.914  167.6  0.0054   81.9  0.9104  -13.4
 0.040  0.4414  -30.0  58.540  165.6  0.0062   81.2  0.9067  -15.5
 0.045  0.4393  -33.2  57.937  163.6  0.0068   79.2  0.9000  -17.5
 0.050  0.4387  -36.5  57.405  161.6  0.0074   77.6  0.8944  -19.5
 0.055  0.4382  -39.9  56.871  160.0  0.0081   76.7  0.8865  -21.4
 0.060  0.4392  -43.2  56.381  158.4  0.0089   76.0  0.8797  -23.4
 0.065  0.4408  -46.9  55.866  156.7  0.0096   75.0  0.8706  -25.3
 0.070  0.4442  -50.5  55.403  154.9  0.0103   74.1  0.8625  -27.2
 0.075  0.4453  -53.6  54.716  153.5  0.0108   72.8  0.8523  -29.0
 0.080  0.4477  -56.7  54.061  152.1  0.0114   71.7  0.8429  -30.8
 0.085  0.4467  -59.8  53.307  150.6  0.0120   71.1  0.8320  -32.5
 0.090  0.4470  -62.9  52.593  149.0  0.0126   70.5  0.8219  -34.2
 0.095  0.4469  -65.4  51.766  147.7  0.0131   69.5  0.8112  -35.8
 0.100  0.4476  -67.8  50.965  146.4  0.0137   68.6  0.8012  -37.5
 0.105  0.4484  -70.4  50.299  145.1  0.0141   68.1  0.7901  -39.0
 0.110  0.4501  -73.0  49.660  143.7  0.0145   67.6  0.7795  -40.6
 0.115  0.4497  -75.7  48.885  142.4  0.0150   66.8  0.7682  -42.1
 0.120  0.4503  -78.3  48.137  141.0  0.0155   66.0  0.7575  -43.6
 0.125  0.4491  -80.5  47.400  139.9  0.0159   65.3  0.7462  -45.0
 0.130  0.4486  -82.8  46.681  138.8  0.0164   64.7  0.7354  -46.4
 0.135  0.4491  -85.2  45.982  137.7  0.0168   64.1  0.7246  -47.7
 0.140  0.4503  -87.6  45.302  136.5  0.0172   63.5  0.7142  -49.1
 0.145  0.4495  -89.5  44.522  135.4  0.0176   63.0  0.7036  -50.3
 0.150  0.4492  -91.5  43.759  134.3  0.0180   62.5  0.6933  -51.6
 0.155  0.4477  -93.2  43.088  133.5  0.0183   62.1  0.6829  -52.6
 0.160  0.4467  -95.0  42.424  132.8  0.0186   61.7  0.6726  -53.5
 0.165  0.4460  -96.7  41.769  131.9  0.0190   61.4  0.6626  -54.6
 0.170  0.4458  -98.4  41.122  131.1  0.0193   61.0  0.6528  -55.6
 0.175  0.4459 -100.2  40.484  130.2  0.0196   60.7  0.6432  -56.7
 0.180  0.4465 -101.9  39.856  129.4  0.0199   60.4  0.6339  -57.8
 0.185  0.4475 -103.7  39.237  128.4  0.0202   60.1  0.6248  -59.0
 0.190  0.4489 -105.4  38.630  127.5  0.0206   59.8  0.6160  -60.1
 0.195  0.4507 -107.1  38.033  126.5  0.0209   59.5  0.6074  -61.4
 0.200  0.4529 -108.8  37.447  125.5  0.0212   59.2  0.5991  -62.6
 0.220  0.4509 -114.0  35.318  123.1  0.0222   58.4  0.5673  -65.8
 0.240  0.4525 -119.1  33.262  120.3  0.0233   57.7  0.5375  -69.4
 0.260  0.4544 -123.6  31.424  117.9  0.0243   57.3  0.5108  -72.6
 0.280  0.4552 -127.5  29.770  115.9  0.0252   57.0  0.4865  -75.4
 0.300  0.4581 -131.3  28.157  113.6  0.0262   56.8  0.4635  -78.5
 0.320  0.4574 -134.4  26.819  112.1  0.0270   56.8  0.4442  -80.7
 0.340  0.4580 -137.5  25.502  110.4  0.0279   56.8  0.4257  -83.2
 0.360  0.4584 -140.3  24.314  108.9  0.0287   56.8  0.4090  -85.5
 0.380  0.4584 -142.8  23.249  107.5  0.0296   56.9  0.3940  -87.6
 0.400  0.4593 -145.4  22.198  106.0  0.0304   56.9  0.3796  -89.8
 0.420  0.4599 -147.5  21.317  104.9  0.0312   57.1  0.3674  -91.6
 0.440  0.4611 -149.6  20.445  103.7  0.0321   57.3  0.3556  -93.4
 0.450  0.4619 -150.6  20.012  103.1  0.0325   57.4  0.3499  -94.4
 0.460  0.4617 -151.5  19.650  102.7  0.0329   57.5  0.3449  -95.2
 0.480  0.4616 -153.2  18.930  101.7  0.0338   57.8  0.3352  -96.8
 0.500  0.4619 -155.0  18.215  100.7  0.0346   58.0  0.3257  -98.5
 0.520  0.4617 -156.5  17.645  100.0  0.0355   58.2  0.3181  -99.8
 0.540  0.4619 -158.0  17.079   99.2  0.0363   58.5  0.3107 -101.2
 0.560  0.4624 -159.4  16.516   98.4  0.0372   58.7  0.3034 -102.7
 0.580  0.4631 -160.9  15.956   97.5  0.0380   58.9  0.2964 -104.2
 0.600  0.4642 -162.4  15.401   96.5  0.0389   59.1  0.2896 -105.8
 0.620  0.4643 -163.6  14.982   95.9  0.0398   59.3  0.2843 -106.9
 0.640  0.4646 -164.7  14.564   95.3  0.0406   59.5  0.2791 -108.1
 0.660  0.4651 -165.9  14.148   94.6  0.0415   59.7  0.2740 -109.3
 0.680  0.4658 -167.0  13.734   93.9  0.0423   59.8  0.2691 -110.6
 0.700  0.4667 -168.2  13.323   93.1  0.0432   60.0  0.2643 -111.9
 0.720  0.4669 -169.2  13.003   92.6  0.0441   60.1  0.2605 -112.9
 0.740  0.4673 -170.2  12.685   92.0  0.0450   60.2  0.2568 -113.9
 0.760  0.4678 -171.1  12.368   91.4  0.0459   60.3  0.2532 -115.0
 0.780  0.4684 -172.1  12.052   90.8  0.0468   60.4  0.2497 -116.1
 0.800  0.4692 -173.1  11.738   90.1  0.0477   60.5  0.2463 -117.2
 0.820  0.4695 -173.9  11.487   89.6  0.0486   60.6  0.2436 -118.1
 0.840  0.4699 -174.8  11.238   89.1  0.0495   60.7  0.2409 -119.0
 0.860  0.4705 -175.6  10.989   88.6  0.0504   60.8  0.2383 -119.9
 0.880  0.4711 -176.5  10.741   88.1  0.0513   60.9  0.2357 -120.8
 0.900  0.4718 -177.3  10.494   87.5  0.0522   61.0  0.2332 -121.8
 0.920  0.4719 -178.1  10.290   87.1  0.0531   61.1  0.2311 -122.6
 0.940  0.4722 -178.9  10.088   86.6  0.0540   61.1  0.2291 -123.4
 0.960  0.4725 -179.6   9.885   86.1  0.0550   61.2  0.2271 -124.2
 0.980  0.4729  179.6   9.684   85.6  0.0559   61.2  0.2252 -125.1
 1.000  0.4734  178.8   9.483   85.1  0.0568   61.3  0.2233 -125.9
 1.020  0.4738  178.1   9.314   84.7  0.0577   61.3  0.2218 -126.6
 1.040  0.4742  177.5   9.146   84.2  0.0586   61.3  0.2204 -127.4
 1.060  0.4747  176.8   8.978   83.8  0.0596   61.3  0.2189 -128.1
 1.080  0.4752  176.2   8.811   83.3  0.0605   61.3  0.2175 -128.8
 1.100  0.4758  175.5   8.644   82.8  0.0614   61.3  0.2162 -129.6
 1.120  0.4761  174.9   8.504   82.4  0.0623   61.3  0.2150 -130.3
 1.140  0.4764  174.2   8.364   82.0  0.0632   61.3  0.2139 -130.9
 1.160  0.4768  173.6   8.224   81.6  0.0642   61.3  0.2128 -131.6
 1.180  0.4772  172.9   8.085   81.2  0.0651   61.3  0.2117 -132.3
 1.200  0.4777  172.3   7.946   80.8  0.0660   61.3  0.2107 -133.0
 1.220  0.4781  171.7   7.825   80.4  0.0669   61.3  0.2099 -133.6
 1.240  0.4785  171.1   7.705   80.0  0.0678   61.2  0.2091 -134.1
 1.260  0.4790  170.6   7.585   79.6  0.0688   61.2  0.2084 -134.7
 1.280  0.4795  170.0   7.466   79.2  0.0697   61.1  0.2076 -135.3
 1.300  0.4801  169.4   7.347   78.8  0.0706   61.1  0.2069 -135.9
 1.320  0.4804  168.9   7.244   78.4  0.0715   61.0  0.2062 -136.5
 1.340  0.4807  168.3   7.142   78.0  0.0725   61.0  0.2055 -137.0
 1.360  0.4811  167.8   7.039   77.6  0.0734   60.9  0.2049 -137.6
 1.380  0.4815  167.2   6.937   77.2  0.0744   60.9  0.2042 -138.1
 1.400  0.4819  166.7   6.836   76.8  0.0753   60.8  0.2036 -138.7
 1.420  0.4824  166.2   6.747   76.5  0.0762   60.7  0.2032 -139.2
 1.440  0.4829  165.6   6.658   76.1  0.0772   60.6  0.2028 -139.7
 1.460  0.4835  165.1   6.569   75.7  0.0781   60.6  0.2024 -140.2
 1.480  0.4841  164.5   6.480   75.4  0.0791   60.5  0.2020 -140.7
 1.500  0.4848  164.0   6.392   75.0  0.0800   60.4  0.2016 -141.2
 1.520  0.4852  163.5   6.313   74.7  0.0809   60.3  0.2013 -141.7
 1.540  0.4857  163.0   6.234   74.3  0.0818   60.2  0.2010 -142.2
 1.560  0.4862  162.4   6.155   73.9  0.0828   60.1  0.2007 -142.7
 1.580  0.4868  161.9   6.077   73.6  0.0837   60.0  0.2004 -143.2
 1.600  0.4874  161.4   5.999   73.2  0.0846   59.9  0.2001 -143.7
 1.620  0.4879  160.9   5.930   72.9  0.0855   59.8  0.1999 -144.1
 1.640  0.4884  160.4   5.862   72.5  0.0864   59.7  0.1997 -144.6
 1.660  0.4889  160.0   5.794   72.1  0.0874   59.6  0.1995 -145.0
 1.680  0.4895  159.5   5.726   71.8  0.0883   59.5  0.1993 -145.5
 1.700  0.4901  159.0   5.658   71.4  0.0892   59.4  0.1991 -145.9
 1.720  0.4904  158.5   5.595   71.1  0.0901   59.3  0.1990 -146.3
 1.740  0.4908  158.1   5.533   70.7  0.0911   59.2  0.1989 -146.8
 1.760  0.4912  157.6   5.471   70.4  0.0920   59.0  0.1989 -147.2
 1.780  0.4916  157.2   5.409   70.1  0.0930   58.9  0.1988 -147.7
 1.800  0.4921  156.7   5.347   69.7  0.0939   58.8  0.1988 -148.1
 1.820  0.4929  156.2   5.293   69.4  0.0948   58.7  0.1987 -148.5
 1.840  0.4937  155.8   5.238   69.0  0.0957   58.6  0.1987 -148.9
 1.860  0.4945  155.3   5.184   68.7  0.0966   58.4  0.1986 -149.4
 1.880  0.4954  154.9   5.131   68.4  0.0975   58.3  0.1986 -149.8
 1.900  0.4963  154.4   5.077   68.0  0.0984   58.2  0.1986 -150.2
 1.920  0.4969  153.9   5.027   67.7  0.0993   58.1  0.1987 -150.6
 1.940  0.4974  153.5   4.977   67.3  0.1002   57.9  0.1988 -151.0
 1.960  0.4981  153.0   4.927   66.9  0.1012   57.8  0.1989 -151.5
 1.980  0.4987  152.6   4.877   66.6  0.1021   57.6  0.1990 -151.9
 2.000  0.4994  152.1   4.828   66.2  0.1030   57.5  0.1991 -152.3
 2.020  0.5000  151.7   4.784   65.9  0.1039   57.3  0.1993 -152.7
 2.040  0.5007  151.2   4.740   65.6  0.1048   57.2  0.1994 -153.2
 2.060  0.5013  150.8   4.696   65.3  0.1057   57.0  0.1996 -153.6
 2.080  0.5020  150.4   4.652   65.0  0.1066   56.9  0.1998 -154.0
 2.100  0.5027  149.9   4.608   64.6  0.1075   56.7  0.2001 -154.5
 2.120  0.5035  149.5   4.565   64.3  0.1085   56.6  0.2003 -154.9
 2.140  0.5043  149.1   4.521   64.0  0.1094   56.4  0.2005 -155.3
 2.160  0.5051  148.6   4.478   63.6  0.1103   56.3  0.2008 -155.7
 2.180  0.5059  148.2   4.435   63.3  0.1112   56.1  0.2010 -156.2
 2.200  0.5068  147.8   4.392   62.9  0.1121   56.0  0.2013 -156.6
 2.220  0.5075  147.4   4.355   62.6  0.1130   55.8  0.2016 -157.0
 2.240  0.5083  147.0   4.319   62.3  0.1139   55.7  0.2020 -157.4
 2.260  0.5091  146.6   4.282   62.0  0.1147   55.5  0.2024 -157.8
 2.280  0.5099  146.2   4.246   61.6  0.1156   55.4  0.2027 -158.3
 2.300  0.5107  145.8   4.209   61.3  0.1165   55.2  0.2031 -158.7
 2.320  0.5115  145.4   4.173   61.0  0.1174   55.1  0.2035 -159.1
 2.340  0.5124  145.0   4.137   60.7  0.1183   54.9  0.2039 -159.5
 2.360  0.5133  144.6   4.101   60.3  0.1191   54.8  0.2043 -159.9
 2.380  0.5142  144.2   4.066   60.0  0.1200   54.6  0.2048 -160.3
 2.400  0.5152  143.8   4.030   59.6  0.1209   54.5  0.2052 -160.7
 2.420  0.5161  143.4   3.998   59.3  0.1218   54.3  0.2057 -161.1
 2.440  0.5170  143.0   3.966   59.0  0.1226   54.1  0.2063 -161.6
 2.460  0.5179  142.6   3.935   58.7  0.1235   54.0  0.2068 -162.0
 2.480  0.5189  142.2   3.903   58.4  0.1243   53.8  0.2074 -162.4
 2.500  0.5198  141.8   3.872   58.1  0.1252   53.6  0.2080 -162.8
 2.520  0.5209  141.4   3.841   57.7  0.1260   53.5  0.2085 -163.2
 2.540  0.5219  141.1   3.810   57.4  0.1269   53.3  0.2091 -163.7
 2.560  0.5229  140.7   3.779   57.1  0.1278   53.1  0.2098 -164.1
 2.580  0.5240  140.3   3.748   56.7  0.1286   53.0  0.2104 -164.5
 2.600  0.5251  139.9   3.717   56.4  0.1295   52.8  0.2110 -164.9
 2.620  0.5259  139.5   3.690   56.1  0.1303   52.6  0.2117 -165.3
 2.640  0.5267  139.2   3.663   55.8  0.1311   52.4  0.2124 -165.7
 2.660  0.5275  138.8   3.636   55.5  0.1320   52.2  0.2131 -166.1
 2.680  0.5283  138.4   3.609   55.2  0.1328   52.1  0.2138 -166.5
 2.700  0.5292  138.1   3.582   54.9  0.1336   51.9  0.2146 -166.8
 2.720  0.5301  137.7   3.556   54.6  0.1345   51.7  0.2153 -167.2
 2.740  0.5310  137.4   3.529   54.3  0.1353   51.5  0.2161 -167.6
 2.760  0.5319  137.0   3.503   54.0  0.1361   51.3  0.2168 -168.0
 2.780  0.5328  136.7   3.476   53.6  0.1370   51.2  0.2176 -168.3
 2.800  0.5338  136.3   3.450   53.3  0.1378   51.0  0.2184 -168.7
 2.820  0.5346  136.0   3.426   53.0  0.1386   50.8  0.2192 -169.1
 2.840  0.5355  135.6   3.402   52.7  0.1394   50.7  0.2200 -169.4
 2.860  0.5363  135.3   3.379   52.4  0.1402   50.5  0.2207 -169.8
 2.880  0.5372  134.9   3.355   52.2  0.1411   50.3  0.2215 -170.1
 2.900  0.5381  134.6   3.331   51.9  0.1419   50.2  0.2223 -170.5
 2.920  0.5390  134.2   3.308   51.6  0.1427   50.0  0.2232 -170.8
 2.940  0.5400  133.9   3.285   51.2  0.1435   49.9  0.2240 -171.2
 2.960  0.5409  133.6   3.261   50.9  0.1444   49.7  0.2248 -171.5
 2.980  0.5419  133.2   3.238   50.6  0.1452   49.6  0.2257 -171.9
 3.000  0.5429  132.9   3.215   50.3  0.1460   49.4  0.2265 -172.2
 3.100  0.5472  131.2   3.117   49.0  0.1498   48.4  0.2305 -173.9
 3.200  0.5520  129.5   3.021   47.7  0.1536   47.4  0.2348 -175.5
 3.300  0.5573  127.9   2.926   46.2  0.1575   46.5  0.2392 -177.1
 3.400  0.5630  126.3   2.833   44.7  0.1614   45.6  0.2437 -178.6
 3.500  0.5692  124.7   2.743   43.0  0.1653   44.8  0.2485  179.9
 3.600  0.5743  123.2   2.668   41.8  0.1687   43.9  0.2533  178.1
 3.700  0.5798  121.7   2.594   40.5  0.1721   43.0  0.2583  176.4
 3.800  0.5856  120.3   2.522   39.1  0.1755   42.1  0.2635  174.8
 3.900  0.5918  118.9   2.451   37.6  0.1790   41.3  0.2689  173.2
 4.000  0.5984  117.5   2.382   36.1  0.1825   40.5  0.2745  171.7
 4.100  0.6037  116.3   2.322   34.9  0.1855   39.6  0.2804  170.1
 4.200  0.6093  115.0   2.264   33.7  0.1885   38.8  0.2865  168.6
 4.300  0.6152  113.8   2.206   32.5  0.1916   38.0  0.2927  167.1
 4.400  0.6214  112.7   2.150   31.1  0.1947   37.2  0.2992  165.7
 4.500  0.6278  111.5   2.095   29.7  0.1979   36.4  0.3058  164.4
 4.600  0.6317  110.4   2.049   28.6  0.2008   35.7  0.3104  163.3
 4.700  0.6359  109.3   2.004   27.5  0.2038   34.9  0.3151  162.2
 4.800  0.6404  108.2   1.960   26.4  0.2067   34.2  0.3199  161.1
 4.900  0.6450  107.1   1.917   25.2  0.2098   33.6  0.3249  160.1
 5.000  0.6499  106.0   1.874   23.9  0.2128   32.9  0.3299  159.1
 5.100  0.6526  105.1   1.839   22.9  0.2160   32.1  0.3328  158.2
 5.200  0.6554  104.1   1.804   21.9  0.2192   31.4  0.3358  157.4
 5.300  0.6584  103.2   1.769   20.8  0.2225   30.6  0.3389  156.5
 5.400  0.6616  102.3   1.736   19.7  0.2258   29.9  0.3420  155.7
 5.500  0.6649  101.4   1.703   18.5  0.2292   29.2  0.3452  154.9
 5.600  0.6667  100.6   1.675   17.5  0.2321   28.4  0.3486  154.1
 5.700  0.6686   99.8   1.648   16.4  0.2351   27.5  0.3520  153.3
 5.800  0.6707   99.0   1.621   15.3  0.2381   26.7  0.3555  152.5
 5.900  0.6729   98.3   1.595   14.2  0.2412   26.0  0.3591  151.7
 6.000  0.6752   97.5   1.570   13.0  0.2443   25.2  0.3627  151.0
 6.100  0.6757   96.7   1.546   12.0  0.2469   24.4  0.3648  150.5
 6.200  0.6763   95.9   1.523   11.1  0.2495   23.7  0.3670  150.0
 6.300  0.6770   95.1   1.500   10.0  0.2522   22.9  0.3692  149.5
 6.400  0.6779   94.3   1.477    9.0  0.2549   22.2  0.3714  149.1
 6.500  0.6789   93.5   1.455    7.9  0.2576   21.5  0.3736  148.6
 6.600  0.6783   92.6   1.437    6.9  0.2606   20.8  0.3729  148.2
 6.800  0.6775   90.7   1.402    5.0  0.2666   19.4  0.3716  147.3
 7.000  0.6775   88.8   1.369    2.9  0.2728   18.0  0.3703  146.5
 7.200  0.6791   86.6   1.340    0.8  0.2793   16.3  0.3696  145.0
 7.400  0.6817   84.5   1.314   -1.4  0.2860   14.7  0.3691  143.5
 7.600  0.6856   82.2   1.287   -3.7  0.2923   12.9  0.3707  141.7
 7.800  0.6908   79.7   1.261   -6.1  0.2982   11.0  0.3744  139.4
 8.000  0.6973   77.3   1.237   -8.6  0.3045    9.1  0.3787  137.2
 8.200  0.7023   74.7   1.205  -11.0  0.3084    6.9  0.3832  134.4
 8.400  0.7088   72.1   1.176  -13.5  0.3127    4.8  0.3887  131.7
 8.600  0.7177   69.6   1.145  -15.9  0.3152    2.7  0.3957  128.4
 8.800  0.7289   67.4   1.113  -18.2  0.3161    0.6  0.4050  124.6
 9.000  0.7411   65.2   1.082  -20.6  0.3173   -1.5  0.4160  120.9
 9.200  0.7569   63.3   1.046  -22.4  0.3158   -3.1  0.4331  116.6
 9.400  0.7735   61.6   1.012  -24.4  0.3146   -4.7  0.4525  112.7
 9.600  0.7882   60.0   0.978  -26.1  0.3133   -6.0  0.4721  109.3
 9.800  0.8011   58.5   0.945  -27.5  0.3117   -6.9  0.4915  106.3
10.000  0.8144   57.1   0.913  -29.0  0.3102   -7.9  0.5121  103.5
!
!  f       NFmin   Gammaopt  rn/50
! GHz       dB    MAG  ANG    -
 0.100      1.54  0.20 -179   0.12
 0.450      1.56  0.23 -168   0.12
 0.900      1.59  0.20 -163   0.13
 1.900      1.71  0.31 -143   0.14
 3.500      1.58  0.54 -119   0.20
!
! (c) 2016  Infineon Technologies AG, Munich
