! Infineon Technologies  Discrete & RF Semiconductors
! BFP460
! VCE =  2.5 V,  IC =  30 mA
! Common Emitter S-Parameters:                            Jan 2016
# GHz  S  MA  R  50
!  f         S11            S21            S12            S22
! GHz     MAG   ANG      MAG   ANG      MAG   ANG      MAG   ANG
 0.030  0.4973  -19.3  55.661  170.0  0.0048   84.9  0.9309  -10.5
 0.035  0.4952  -22.4  55.282  168.2  0.0055   83.0  0.9267  -12.3
 0.040  0.4946  -25.6  54.957  166.4  0.0062   81.5  0.9235  -14.2
 0.045  0.4930  -28.5  54.430  164.6  0.0069   80.7  0.9175  -16.0
 0.050  0.4928  -31.5  53.960  162.7  0.0076   80.1  0.9124  -17.8
 0.055  0.4923  -34.5  53.525  161.3  0.0082   78.3  0.9051  -19.5
 0.060  0.4932  -37.4  53.124  159.8  0.0089   76.8  0.8986  -21.3
 0.065  0.4903  -40.6  52.722  158.2  0.0096   75.9  0.8908  -23.0
 0.070  0.4889  -43.9  52.363  156.5  0.0104   75.2  0.8839  -24.8
 0.075  0.4889  -46.4  51.787  155.2  0.0110   73.9  0.8749  -26.4
 0.080  0.4899  -48.9  51.238  153.9  0.0116   72.8  0.8666  -28.1
 0.085  0.4879  -51.9  50.608  152.5  0.0122   72.0  0.8567  -29.7
 0.090  0.4873  -54.9  50.010  151.0  0.0128   71.3  0.8474  -31.3
 0.095  0.4863  -57.1  49.301  149.7  0.0134   70.4  0.8377  -32.8
 0.100  0.4860  -59.4  48.618  148.4  0.0140   69.6  0.8285  -34.3
 0.105  0.4862  -61.9  48.059  147.2  0.0145   68.8  0.8180  -35.7
 0.110  0.4873  -64.4  47.522  145.9  0.0150   68.1  0.8081  -37.2
 0.115  0.4847  -66.8  46.868  144.7  0.0155   67.4  0.7978  -38.6
 0.120  0.4830  -69.3  46.237  143.4  0.0160   66.8  0.7879  -40.0
 0.125  0.4808  -71.4  45.597  142.3  0.0164   66.2  0.7773  -41.3
 0.130  0.4792  -73.6  44.974  141.2  0.0169   65.6  0.7672  -42.6
 0.135  0.4784  -75.8  44.371  140.1  0.0174   65.0  0.7569  -43.9
 0.140  0.4784  -78.1  43.786  138.9  0.0179   64.4  0.7470  -45.2
 0.145  0.4768  -80.0  43.097  137.8  0.0183   63.7  0.7368  -46.4
 0.150  0.4757  -82.0  42.423  136.7  0.0187   63.1  0.7269  -47.6
 0.155  0.4731  -83.7  41.818  135.9  0.0190   62.6  0.7167  -48.5
 0.160  0.4709  -85.4  41.221  135.1  0.0194   62.2  0.7067  -49.5
 0.165  0.4691  -87.1  40.632  134.3  0.0197   61.8  0.6969  -50.5
 0.170  0.4677  -88.9  40.052  133.5  0.0201   61.4  0.6872  -51.5
 0.175  0.4668  -90.6  39.480  132.6  0.0204   61.0  0.6779  -52.5
 0.180  0.4663  -92.4  38.918  131.7  0.0208   60.6  0.6687  -53.6
 0.185  0.4663  -94.1  38.366  130.8  0.0211   60.2  0.6598  -54.6
 0.190  0.4667  -95.9  37.823  129.9  0.0215   59.9  0.6511  -55.8
 0.195  0.4675  -97.7  37.291  128.9  0.0218   59.5  0.6427  -56.9
 0.200  0.4688  -99.4  36.770  127.9  0.0222   59.2  0.6345  -58.1
 0.220  0.4639 -104.8  34.793  125.4  0.0233   58.3  0.6021  -61.2
 0.240  0.4632 -110.2  32.891  122.6  0.0244   57.6  0.5717  -64.6
 0.260  0.4627 -114.9  31.171  120.1  0.0255   57.0  0.5442  -67.8
 0.280  0.4610 -119.1  29.601  118.0  0.0264   56.5  0.5190  -70.5
 0.300  0.4617 -123.2  28.075  115.7  0.0273   56.1  0.4950  -73.5
 0.320  0.4596 -126.6  26.783  114.1  0.0282   55.9  0.4744  -75.7
 0.340  0.4591 -130.0  25.514  112.3  0.0291   55.7  0.4545  -78.0
 0.360  0.4584 -133.1  24.365  110.7  0.0299   55.6  0.4366  -80.2
 0.380  0.4570 -135.8  23.327  109.3  0.0308   55.6  0.4205  -82.2
 0.400  0.4566 -138.6  22.304  107.8  0.0316   55.6  0.4049  -84.3
 0.420  0.4563 -141.0  21.439  106.7  0.0324   55.7  0.3915  -86.0
 0.440  0.4567 -143.3  20.582  105.4  0.0333   55.8  0.3786  -87.8
 0.450  0.4572 -144.5  20.158  104.8  0.0337   55.9  0.3722  -88.7
 0.460  0.4567 -145.5  19.798  104.3  0.0341   56.0  0.3667  -89.4
 0.480  0.4562 -147.4  19.083  103.3  0.0349   56.2  0.3559  -91.0
 0.500  0.4562 -149.4  18.375  102.2  0.0357   56.4  0.3454  -92.6
 0.520  0.4556 -151.0  17.808  101.4  0.0365   56.6  0.3369  -93.8
 0.540  0.4554 -152.7  17.244  100.6  0.0373   56.8  0.3285  -95.2
 0.560  0.4555 -154.3  16.685   99.7  0.0382   57.0  0.3203  -96.5
 0.580  0.4560 -156.0  16.129   98.8  0.0390   57.1  0.3123  -98.0
 0.600  0.4569 -157.6  15.578   97.8  0.0398   57.3  0.3045  -99.5
 0.620  0.4567 -158.9  15.157   97.2  0.0406   57.5  0.2985 -100.6
 0.640  0.4567 -160.2  14.739   96.5  0.0415   57.6  0.2925 -101.8
 0.660  0.4569 -161.5  14.322   95.8  0.0423   57.7  0.2867 -103.0
 0.680  0.4574 -162.8  13.908   95.0  0.0432   57.9  0.2810 -104.2
 0.700  0.4581 -164.1  13.497   94.2  0.0440   58.0  0.2755 -105.5
 0.720  0.4580 -165.2  13.176   93.6  0.0448   58.2  0.2711 -106.5
 0.740  0.4581 -166.3  12.855   93.1  0.0457   58.3  0.2668 -107.4
 0.760  0.4583 -167.3  12.537   92.4  0.0465   58.4  0.2625 -108.5
 0.780  0.4587 -168.4  12.220   91.8  0.0474   58.6  0.2584 -109.5
 0.800  0.4592 -169.5  11.904   91.1  0.0482   58.7  0.2543 -110.6
 0.820  0.4594 -170.4  11.651   90.6  0.0491   58.8  0.2510 -111.5
 0.840  0.4597 -171.3  11.399   90.1  0.0500   58.9  0.2478 -112.3
 0.860  0.4601 -172.3  11.148   89.6  0.0508   59.0  0.2447 -113.2
 0.880  0.4606 -173.2  10.898   89.0  0.0517   59.1  0.2416 -114.2
 0.900  0.4613 -174.1  10.649   88.4  0.0526   59.2  0.2386 -115.1
 0.920  0.4614 -174.9  10.443   87.9  0.0535   59.3  0.2361 -115.9
 0.940  0.4615 -175.7  10.238   87.5  0.0544   59.4  0.2337 -116.7
 0.960  0.4618 -176.5  10.034   87.0  0.0552   59.4  0.2313 -117.5
 0.980  0.4622 -177.3   9.831   86.4  0.0561   59.5  0.2289 -118.3
 1.000  0.4626 -178.1   9.628   85.9  0.0570   59.6  0.2266 -119.2
 1.020  0.4629 -178.8   9.458   85.5  0.0579   59.6  0.2248 -119.9
 1.040  0.4632 -179.6   9.288   85.0  0.0588   59.6  0.2230 -120.6
 1.060  0.4637  179.7   9.119   84.6  0.0596   59.7  0.2213 -121.3
 1.080  0.4642  178.9   8.950   84.1  0.0605   59.7  0.2196 -122.1
 1.100  0.4648  178.2   8.782   83.6  0.0614   59.7  0.2179 -122.8
 1.120  0.4650  177.5   8.640   83.2  0.0623   59.7  0.2164 -123.5
 1.140  0.4653  176.8   8.497   82.8  0.0632   59.7  0.2150 -124.2
 1.160  0.4656  176.2   8.356   82.4  0.0641   59.7  0.2135 -124.9
 1.180  0.4660  175.5   8.215   81.9  0.0650   59.7  0.2122 -125.6
 1.200  0.4665  174.8   8.074   81.5  0.0659   59.7  0.2108 -126.3
 1.220  0.4669  174.2   7.952   81.1  0.0668   59.7  0.2097 -126.9
 1.240  0.4673  173.6   7.831   80.7  0.0677   59.7  0.2087 -127.4
 1.260  0.4678  172.9   7.710   80.3  0.0686   59.6  0.2077 -128.0
 1.280  0.4683  172.3   7.590   79.8  0.0695   59.6  0.2067 -128.6
 1.300  0.4689  171.7   7.470   79.4  0.0704   59.6  0.2057 -129.2
 1.320  0.4692  171.1   7.366   79.0  0.0713   59.6  0.2048 -129.8
 1.340  0.4696  170.5   7.261   78.7  0.0722   59.6  0.2039 -130.3
 1.360  0.4700  170.0   7.158   78.3  0.0731   59.5  0.2030 -130.9
 1.380  0.4705  169.4   7.054   77.9  0.0740   59.5  0.2021 -131.5
 1.400  0.4710  168.8   6.951   77.5  0.0749   59.5  0.2013 -132.1
 1.420  0.4715  168.2   6.860   77.1  0.0758   59.4  0.2007 -132.6
 1.440  0.4720  167.6   6.770   76.8  0.0767   59.3  0.2001 -133.1
 1.460  0.4726  167.1   6.680   76.4  0.0776   59.3  0.1995 -133.7
 1.480  0.4732  166.5   6.590   76.0  0.0785   59.2  0.1989 -134.2
 1.500  0.4739  165.9   6.500   75.6  0.0794   59.1  0.1984 -134.7
 1.520  0.4743  165.4   6.420   75.3  0.0803   59.0  0.1979 -135.2
 1.540  0.4747  164.8   6.340   74.9  0.0812   59.0  0.1974 -135.7
 1.560  0.4752  164.3   6.260   74.5  0.0821   58.9  0.1969 -136.3
 1.580  0.4757  163.7   6.180   74.2  0.0830   58.9  0.1964 -136.8
 1.600  0.4763  163.2   6.101   73.8  0.0839   58.8  0.1960 -137.3
 1.620  0.4768  162.7   6.031   73.4  0.0848   58.7  0.1956 -137.8
 1.640  0.4773  162.2   5.962   73.1  0.0857   58.6  0.1952 -138.2
 1.660  0.4778  161.8   5.893   72.7  0.0866   58.5  0.1949 -138.7
 1.680  0.4784  161.3   5.824   72.3  0.0875   58.4  0.1945 -139.1
 1.700  0.4790  160.8   5.755   71.9  0.0884   58.3  0.1942 -139.6
 1.720  0.4795  160.3   5.692   71.6  0.0893   58.2  0.1940 -140.1
 1.740  0.4800  159.8   5.629   71.2  0.0902   58.1  0.1938 -140.5
 1.760  0.4806  159.4   5.567   70.9  0.0912   58.0  0.1936 -141.0
 1.780  0.4812  158.9   5.504   70.6  0.0921   57.9  0.1935 -141.4
 1.800  0.4818  158.4   5.442   70.2  0.0930   57.8  0.1933 -141.9
 1.820  0.4824  157.9   5.386   69.9  0.0939   57.7  0.1931 -142.4
 1.840  0.4830  157.4   5.330   69.5  0.0948   57.6  0.1930 -142.8
 1.860  0.4837  156.8   5.275   69.1  0.0957   57.4  0.1928 -143.3
 1.880  0.4844  156.3   5.219   68.8  0.0966   57.3  0.1927 -143.7
 1.900  0.4852  155.8   5.164   68.4  0.0975   57.2  0.1926 -144.2
 1.920  0.4857  155.3   5.113   68.1  0.0984   57.1  0.1926 -144.6
 1.940  0.4863  154.8   5.063   67.7  0.0993   57.0  0.1925 -145.1
 1.960  0.4868  154.4   5.013   67.4  0.1001   56.8  0.1925 -145.5
 1.980  0.4875  153.9   4.963   67.1  0.1010   56.7  0.1925 -146.0
 2.000  0.4881  153.4   4.913   66.7  0.1019   56.6  0.1925 -146.4
 2.020  0.4888  153.0   4.868   66.4  0.1028   56.4  0.1926 -146.9
 2.040  0.4896  152.5   4.823   66.1  0.1037   56.3  0.1926 -147.3
 2.060  0.4903  152.1   4.778   65.7  0.1046   56.2  0.1927 -147.8
 2.080  0.4911  151.7   4.734   65.4  0.1055   56.0  0.1928 -148.2
 2.100  0.4920  151.2   4.689   65.1  0.1063   55.9  0.1930 -148.7
 2.120  0.4928  150.8   4.645   64.7  0.1072   55.7  0.1931 -149.1
 2.140  0.4937  150.4   4.601   64.4  0.1081   55.6  0.1932 -149.6
 2.160  0.4946  149.9   4.557   64.0  0.1090   55.5  0.1934 -150.0
 2.180  0.4955  149.5   4.514   63.7  0.1099   55.3  0.1935 -150.5
 2.200  0.4965  149.1   4.470   63.3  0.1108   55.2  0.1937 -150.9
 2.220  0.4972  148.7   4.433   63.0  0.1117   55.1  0.1939 -151.4
 2.240  0.4980  148.2   4.395   62.7  0.1125   54.9  0.1942 -151.8
 2.260  0.4988  147.8   4.358   62.4  0.1134   54.8  0.1944 -152.3
 2.280  0.4996  147.4   4.322   62.0  0.1142   54.6  0.1947 -152.7
 2.300  0.5005  147.0   4.285   61.7  0.1151   54.5  0.1949 -153.2
 2.320  0.5013  146.6   4.248   61.4  0.1160   54.3  0.1952 -153.6
 2.340  0.5022  146.1   4.212   61.1  0.1168   54.2  0.1955 -154.1
 2.360  0.5032  145.7   4.175   60.7  0.1177   54.1  0.1958 -154.5
 2.380  0.5041  145.3   4.139   60.4  0.1185   53.9  0.1962 -155.0
 2.400  0.5051  144.9   4.103   60.0  0.1194   53.8  0.1965 -155.4
 2.420  0.5059  144.5   4.071   59.7  0.1202   53.6  0.1969 -155.8
 2.440  0.5068  144.1   4.038   59.4  0.1211   53.5  0.1974 -156.3
 2.460  0.5076  143.7   4.006   59.1  0.1219   53.3  0.1978 -156.7
 2.480  0.5085  143.3   3.974   58.8  0.1228   53.1  0.1983 -157.2
 2.500  0.5094  142.9   3.942   58.5  0.1236   53.0  0.1988 -157.6
 2.520  0.5103  142.5   3.910   58.1  0.1245   52.8  0.1993 -158.1
 2.540  0.5113  142.2   3.878   57.8  0.1253   52.7  0.1998 -158.5
 2.560  0.5123  141.8   3.847   57.5  0.1262   52.5  0.2003 -158.9
 2.580  0.5133  141.4   3.815   57.1  0.1270   52.4  0.2009 -159.4
 2.600  0.5143  141.0   3.784   56.8  0.1279   52.2  0.2014 -159.8
 2.620  0.5151  140.6   3.756   56.5  0.1287   52.0  0.2020 -160.2
 2.640  0.5159  140.2   3.729   56.2  0.1295   51.9  0.2027 -160.6
 2.660  0.5167  139.8   3.702   55.9  0.1303   51.7  0.2034 -161.1
 2.680  0.5175  139.5   3.674   55.6  0.1312   51.5  0.2040 -161.5
 2.700  0.5184  139.1   3.647   55.3  0.1320   51.4  0.2047 -161.9
 2.720  0.5193  138.7   3.620   55.0  0.1328   51.2  0.2054 -162.3
 2.740  0.5202  138.3   3.593   54.7  0.1336   51.1  0.2061 -162.7
 2.760  0.5212  137.9   3.566   54.4  0.1345   50.9  0.2068 -163.1
 2.780  0.5221  137.6   3.540   54.0  0.1353   50.8  0.2076 -163.5
 2.800  0.5231  137.2   3.513   53.7  0.1361   50.6  0.2083 -163.9
 2.820  0.5240  136.8   3.489   53.4  0.1369   50.4  0.2090 -164.3
 2.840  0.5250  136.5   3.464   53.1  0.1377   50.2  0.2097 -164.7
 2.860  0.5260  136.1   3.440   52.8  0.1385   50.1  0.2104 -165.1
 2.880  0.5270  135.8   3.416   52.6  0.1393   49.9  0.2111 -165.5
 2.900  0.5280  135.4   3.392   52.3  0.1401   49.7  0.2119 -165.9
 2.920  0.5290  135.1   3.368   52.0  0.1409   49.6  0.2126 -166.3
 2.940  0.5301  134.7   3.344   51.6  0.1417   49.4  0.2134 -166.7
 2.960  0.5312  134.4   3.320   51.3  0.1425   49.2  0.2141 -167.0
 2.980  0.5323  134.0   3.297   51.0  0.1433   49.1  0.2149 -167.4
 3.000  0.5334  133.7   3.273   50.7  0.1441   48.9  0.2157 -167.8
 3.100  0.5375  132.0   3.173   49.4  0.1478   48.0  0.2195 -169.6
 3.200  0.5421  130.3   3.075   48.0  0.1516   47.1  0.2235 -171.4
 3.300  0.5472  128.6   2.979   46.5  0.1554   46.2  0.2278 -173.1
 3.400  0.5527  127.0   2.886   45.0  0.1592   45.4  0.2322 -174.7
 3.500  0.5587  125.4   2.794   43.3  0.1631   44.6  0.2368 -176.3
 3.600  0.5641  123.9   2.718   42.1  0.1664   43.7  0.2413 -178.2
 3.700  0.5698  122.4   2.643   40.8  0.1698   42.8  0.2461 -180.0
 3.800  0.5759  121.0   2.570   39.4  0.1732   41.9  0.2511  178.3
 3.900  0.5824  119.6   2.498   37.9  0.1767   41.1  0.2564  176.6
 4.000  0.5892  118.2   2.428   36.4  0.1802   40.3  0.2618  175.0
 4.100  0.5945  116.9   2.368   35.2  0.1832   39.5  0.2676  173.3
 4.200  0.6001  115.6   2.308   34.0  0.1862   38.7  0.2736  171.7
 4.300  0.6060  114.4   2.250   32.8  0.1893   37.9  0.2798  170.1
 4.400  0.6122  113.2   2.193   31.4  0.1924   37.1  0.2862  168.6
 4.500  0.6186  112.0   2.137   30.0  0.1955   36.4  0.2928  167.2
 4.600  0.6227  110.9   2.090   28.9  0.1984   35.7  0.2974  166.0
 4.700  0.6270  109.8   2.044   27.8  0.2014   34.9  0.3021  164.9
 4.800  0.6316  108.7   1.998   26.6  0.2043   34.2  0.3070  163.7
 4.900  0.6364  107.6   1.954   25.4  0.2074   33.6  0.3119  162.6
 5.000  0.6414  106.5   1.910   24.1  0.2104   32.9  0.3170  161.6
 5.100  0.6441  105.5   1.874   23.1  0.2136   32.1  0.3200  160.7
 5.200  0.6470  104.6   1.839   22.1  0.2168   31.4  0.3230  159.8
 5.300  0.6501  103.6   1.804   21.0  0.2200   30.7  0.3261  159.0
 5.400  0.6534  102.6   1.770   19.9  0.2233   30.0  0.3293  158.1
 5.500  0.6568  101.7   1.737   18.7  0.2266   29.3  0.3325  157.3
 5.600  0.6590  100.9   1.708   17.7  0.2295   28.5  0.3360  156.5
 5.700  0.6614  100.2   1.680   16.6  0.2325   27.6  0.3395  155.6
 5.800  0.6638   99.4   1.652   15.5  0.2355   26.8  0.3431  154.8
 5.900  0.6664   98.6   1.625   14.4  0.2386   26.1  0.3468  154.1
 6.000  0.6691   97.9   1.599   13.2  0.2417   25.3  0.3505  153.3
 6.100  0.6696   97.1   1.575   12.2  0.2443   24.5  0.3528  152.8
 6.200  0.6702   96.3   1.551   11.2  0.2469   23.8  0.3551  152.3
 6.300  0.6710   95.4   1.527   10.1  0.2496   23.0  0.3574  151.8
 6.400  0.6719   94.6   1.504    9.0  0.2523   22.3  0.3598  151.3
 6.500  0.6730   93.8   1.482    7.9  0.2550   21.6  0.3622  150.8
 6.600  0.6724   92.9   1.463    7.0  0.2579   20.9  0.3617  150.4
 6.800  0.6716   91.0   1.427    5.0  0.2639   19.5  0.3606  149.6
 7.000  0.6715   89.2   1.393    3.0  0.2701   18.2  0.3597  148.8
 7.200  0.6731   87.0   1.364    0.9  0.2766   16.5  0.3591  147.3
 7.400  0.6756   84.9   1.337   -1.4  0.2833   15.0  0.3587  145.8
 7.600  0.6794   82.5   1.310   -3.7  0.2896   13.2  0.3603  144.0
 7.800  0.6848   80.0   1.283   -6.1  0.2955   11.3  0.3641  141.7
 8.000  0.6914   77.6   1.259   -8.7  0.3018    9.4  0.3684  139.5
 8.200  0.6970   75.0   1.226  -11.0  0.3058    7.2  0.3729  136.7
 8.400  0.7040   72.4   1.195  -13.5  0.3102    5.1  0.3783  133.9
 8.600  0.7130   69.9   1.164  -15.9  0.3128    3.1  0.3852  130.6
 8.800  0.7240   67.7   1.131  -18.2  0.3138    1.0  0.3944  126.6
 9.000  0.7360   65.5   1.100  -20.6  0.3152   -1.1  0.4053  122.9
 9.200  0.7524   63.6   1.064  -22.4  0.3139   -2.7  0.4223  118.5
 9.400  0.7695   61.9   1.029  -24.4  0.3128   -4.3  0.4416  114.4
 9.600  0.7845   60.2   0.995  -26.1  0.3117   -5.6  0.4613  110.9
 9.800  0.7972   58.7   0.961  -27.6  0.3102   -6.5  0.4810  107.8
10.000  0.8105   57.3   0.928  -29.2  0.3089   -7.5  0.5019  105.0
!
!  f       NFmin   Gammaopt  rn/50
! GHz       dB    MAG  ANG    -
 0.450      1.47  0.19 -172   0.12
 0.900      1.49  0.17 -164   0.13
 1.900      1.61  0.28 -144   0.13
 3.500      1.51  0.49 -120   0.18
!
! (c) 2016  Infineon Technologies AG, Munich
