! Infineon Technologies  Discrete & RF Semiconductors
! BFP460
! VCE =  3.0 V,  IC =  30 mA
! Common Emitter S-Parameters:                            Jan 2016
# GHz  S  MA  R  50
!  f         S11            S21            S12            S22
! GHz     MAG   ANG      MAG   ANG      MAG   ANG      MAG   ANG
 0.030  0.5028  -18.5  55.481  169.7  0.0046   84.0  0.9345  -10.4
 0.035  0.5013  -21.6  55.101  168.0  0.0053   82.7  0.9304  -12.2
 0.040  0.5012  -24.7  54.772  166.2  0.0061   81.8  0.9273  -14.0
 0.045  0.4999  -27.5  54.217  164.6  0.0068   81.0  0.9212  -15.6
 0.050  0.4999  -30.4  53.706  162.9  0.0075   80.3  0.9158  -17.2
 0.055  0.4987  -33.5  53.285  161.5  0.0083   78.3  0.9093  -18.9
 0.060  0.4989  -36.6  52.898  160.0  0.0092   76.7  0.9037  -20.7
 0.065  0.4948  -39.7  52.498  158.4  0.0097   75.8  0.8955  -22.4
 0.070  0.4922  -42.8  52.142  156.7  0.0103   75.0  0.8881  -24.1
 0.075  0.4945  -45.2  51.586  155.5  0.0109   74.2  0.8793  -25.7
 0.080  0.4977  -47.5  51.055  154.2  0.0115   73.4  0.8712  -27.3
 0.085  0.4952  -50.4  50.444  152.8  0.0120   72.7  0.8615  -28.8
 0.090  0.4940  -53.3  49.865  151.3  0.0126   72.0  0.8524  -30.4
 0.095  0.4916  -55.6  49.171  150.1  0.0132   71.0  0.8428  -31.9
 0.100  0.4899  -57.9  48.501  148.8  0.0139   70.1  0.8337  -33.4
 0.105  0.4899  -60.4  47.957  147.6  0.0144   69.4  0.8234  -34.8
 0.110  0.4907  -62.8  47.435  146.3  0.0149   68.7  0.8135  -36.2
 0.115  0.4888  -65.1  46.797  145.1  0.0154   67.9  0.8033  -37.5
 0.120  0.4877  -67.5  46.182  143.8  0.0159   67.1  0.7936  -38.9
 0.125  0.4856  -69.6  45.562  142.7  0.0163   66.4  0.7833  -40.2
 0.130  0.4841  -71.7  44.959  141.6  0.0167   65.7  0.7734  -41.5
 0.135  0.4828  -73.9  44.367  140.5  0.0171   65.2  0.7633  -42.7
 0.140  0.4823  -76.1  43.793  139.3  0.0176   64.8  0.7535  -44.0
 0.145  0.4797  -78.1  43.119  138.3  0.0180   64.1  0.7433  -45.2
 0.150  0.4777  -80.1  42.460  137.2  0.0185   63.5  0.7335  -46.4
 0.155  0.4749  -81.8  41.865  136.4  0.0188   63.0  0.7234  -47.3
 0.160  0.4725  -83.5  41.277  135.6  0.0192   62.6  0.7134  -48.2
 0.165  0.4706  -85.2  40.698  134.8  0.0195   62.2  0.7036  -49.2
 0.170  0.4690  -87.0  40.127  134.0  0.0199   61.8  0.6941  -50.2
 0.175  0.4680  -88.7  39.566  133.1  0.0202   61.4  0.6847  -51.2
 0.180  0.4673  -90.5  39.013  132.2  0.0206   61.0  0.6755  -52.2
 0.185  0.4671  -92.2  38.470  131.3  0.0209   60.6  0.6666  -53.2
 0.190  0.4673  -94.0  37.937  130.4  0.0213   60.3  0.6579  -54.3
 0.195  0.4680  -95.8  37.415  129.4  0.0216   59.9  0.6495  -55.5
 0.200  0.4691  -97.5  36.904  128.4  0.0220   59.6  0.6413  -56.6
 0.220  0.4642 -102.8  34.945  125.9  0.0231   58.6  0.6089  -59.6
 0.240  0.4632 -108.1  33.060  123.1  0.0242   57.7  0.5784  -63.0
 0.260  0.4621 -112.9  31.355  120.6  0.0253   57.1  0.5508  -66.0
 0.280  0.4597 -117.1  29.793  118.5  0.0262   56.6  0.5252  -68.7
 0.300  0.4598 -121.4  28.276  116.2  0.0272   56.2  0.5009  -71.6
 0.320  0.4575 -124.9  26.985  114.6  0.0281   56.0  0.4800  -73.7
 0.340  0.4569 -128.4  25.717  112.8  0.0290   55.8  0.4597  -76.0
 0.360  0.4560 -131.5  24.569  111.1  0.0298   55.7  0.4415  -78.1
 0.380  0.4545 -134.3  23.529  109.7  0.0307   55.7  0.4251  -80.0
 0.400  0.4541 -137.1  22.505  108.2  0.0315   55.7  0.4092  -82.1
 0.420  0.4536 -139.5  21.636  107.0  0.0323   55.8  0.3955  -83.7
 0.440  0.4540 -141.8  20.777  105.8  0.0331   55.9  0.3821  -85.5
 0.450  0.4544 -143.0  20.351  105.1  0.0335   55.9  0.3756  -86.4
 0.460  0.4537 -144.0  19.991  104.6  0.0339   56.0  0.3700  -87.1
 0.480  0.4527 -146.0  19.274  103.7  0.0347   56.1  0.3588  -88.6
 0.500  0.4522 -148.0  18.563  102.6  0.0355   56.3  0.3480  -90.2
 0.520  0.4515 -149.7  17.991  101.8  0.0363   56.5  0.3392  -91.4
 0.540  0.4512 -151.4  17.423  101.0  0.0371   56.6  0.3306  -92.6
 0.560  0.4512 -153.0  16.858  100.1  0.0380   56.8  0.3222  -94.0
 0.580  0.4517 -154.7  16.298   99.1  0.0388   57.0  0.3139  -95.3
 0.600  0.4525 -156.4  15.743   98.1  0.0396   57.1  0.3058  -96.8
 0.620  0.4522 -157.7  15.319   97.4  0.0404   57.3  0.2995  -97.8
 0.640  0.4521 -159.1  14.897   96.7  0.0412   57.4  0.2933  -98.9
 0.660  0.4522 -160.4  14.477   96.0  0.0421   57.6  0.2873 -100.1
 0.680  0.4526 -161.8  14.060   95.2  0.0429   57.8  0.2813 -101.3
 0.700  0.4533 -163.1  13.646   94.4  0.0437   57.9  0.2755 -102.5
 0.720  0.4533 -164.2  13.321   93.8  0.0445   58.1  0.2709 -103.4
 0.740  0.4534 -165.2  12.997   93.3  0.0454   58.2  0.2664 -104.4
 0.760  0.4537 -166.3  12.675   92.6  0.0462   58.3  0.2619 -105.4
 0.780  0.4541 -167.3  12.354   92.0  0.0471   58.5  0.2576 -106.4
 0.800  0.4547 -168.4  12.035   91.3  0.0479   58.6  0.2533 -107.5
 0.820  0.4548 -169.4  11.780   90.8  0.0488   58.7  0.2499 -108.3
 0.840  0.4550 -170.3  11.526   90.3  0.0496   58.8  0.2466 -109.2
 0.860  0.4554 -171.3  11.273   89.8  0.0505   58.9  0.2433 -110.0
 0.880  0.4559 -172.2  11.021   89.2  0.0513   59.0  0.2401 -110.9
 0.900  0.4565 -173.2  10.770   88.6  0.0522   59.1  0.2369 -111.8
 0.920  0.4565 -174.0  10.562   88.1  0.0531   59.2  0.2343 -112.6
 0.940  0.4566 -174.9  10.355   87.7  0.0539   59.3  0.2317 -113.3
 0.960  0.4569 -175.7  10.149   87.2  0.0548   59.3  0.2291 -114.1
 0.980  0.4572 -176.6   9.944   86.6  0.0556   59.4  0.2266 -115.0
 1.000  0.4576 -177.4   9.739   86.1  0.0565   59.5  0.2242 -115.8
 1.020  0.4577 -178.1   9.567   85.7  0.0574   59.5  0.2222 -116.5
 1.040  0.4579 -178.9   9.396   85.2  0.0583   59.5  0.2203 -117.2
 1.060  0.4582 -179.6   9.225   84.8  0.0591   59.6  0.2184 -117.9
 1.080  0.4585  179.6   9.055   84.3  0.0600   59.6  0.2165 -118.7
 1.100  0.4589  178.9   8.885   83.8  0.0609   59.6  0.2147 -119.4
 1.120  0.4591  178.2   8.741   83.4  0.0618   59.6  0.2131 -120.1
 1.140  0.4595  177.5   8.598   83.0  0.0627   59.6  0.2115 -120.7
 1.160  0.4598  176.8   8.455   82.6  0.0635   59.7  0.2100 -121.4
 1.180  0.4603  176.1   8.312   82.1  0.0644   59.7  0.2085 -122.1
 1.200  0.4608  175.4   8.170   81.7  0.0653   59.7  0.2070 -122.8
 1.220  0.4612  174.8   8.047   81.3  0.0662   59.7  0.2059 -123.4
 1.240  0.4616  174.2   7.924   80.9  0.0671   59.7  0.2048 -123.9
 1.260  0.4621  173.5   7.802   80.5  0.0680   59.6  0.2037 -124.5
 1.280  0.4627  172.9   7.680   80.0  0.0689   59.6  0.2026 -125.1
 1.300  0.4633  172.3   7.558   79.6  0.0698   59.6  0.2016 -125.7
 1.320  0.4636  171.7   7.453   79.2  0.0707   59.6  0.2006 -126.3
 1.340  0.4639  171.1   7.347   78.9  0.0716   59.5  0.1996 -126.8
 1.360  0.4642  170.5   7.243   78.5  0.0724   59.5  0.1986 -127.4
 1.380  0.4646  169.9   7.138   78.1  0.0733   59.4  0.1976 -128.0
 1.400  0.4651  169.3   7.034   77.7  0.0742   59.4  0.1967 -128.6
 1.420  0.4656  168.7   6.942   77.3  0.0751   59.3  0.1960 -129.1
 1.440  0.4661  168.1   6.850   76.9  0.0760   59.3  0.1954 -129.6
 1.460  0.4667  167.6   6.759   76.5  0.0769   59.2  0.1947 -130.1
 1.480  0.4673  167.0   6.668   76.1  0.0778   59.2  0.1941 -130.7
 1.500  0.4680  166.4   6.577   75.7  0.0787   59.1  0.1935 -131.2
 1.520  0.4685  165.8   6.496   75.4  0.0796   59.0  0.1929 -131.7
 1.540  0.4690  165.3   6.415   75.0  0.0805   59.0  0.1923 -132.2
 1.560  0.4696  164.7   6.335   74.6  0.0813   58.9  0.1918 -132.8
 1.580  0.4702  164.2   6.255   74.3  0.0822   58.9  0.1912 -133.3
 1.600  0.4709  163.6   6.175   73.9  0.0831   58.8  0.1907 -133.8
 1.620  0.4713  163.1   6.105   73.6  0.0840   58.7  0.1903 -134.3
 1.640  0.4717  162.6   6.034   73.2  0.0849   58.6  0.1899 -134.7
 1.660  0.4722  162.2   5.964   72.8  0.0858   58.5  0.1895 -135.2
 1.680  0.4727  161.7   5.895   72.5  0.0867   58.4  0.1892 -135.6
 1.700  0.4732  161.2   5.825   72.1  0.0876   58.3  0.1888 -136.1
 1.720  0.4736  160.7   5.761   71.8  0.0885   58.2  0.1885 -136.6
 1.740  0.4740  160.2   5.697   71.4  0.0894   58.1  0.1882 -137.0
 1.760  0.4745  159.7   5.633   71.0  0.0903   58.0  0.1880 -137.5
 1.780  0.4750  159.2   5.569   70.7  0.0912   57.9  0.1877 -137.9
 1.800  0.4755  158.7   5.506   70.3  0.0921   57.8  0.1875 -138.4
 1.820  0.4762  158.2   5.450   70.0  0.0930   57.7  0.1873 -138.9
 1.840  0.4770  157.7   5.395   69.7  0.0939   57.6  0.1871 -139.3
 1.860  0.4777  157.3   5.339   69.4  0.0947   57.5  0.1869 -139.8
 1.880  0.4786  156.8   5.284   69.0  0.0956   57.4  0.1867 -140.2
 1.900  0.4794  156.3   5.229   68.7  0.0965   57.3  0.1865 -140.7
 1.920  0.4800  155.8   5.177   68.4  0.0974   57.2  0.1864 -141.2
 1.940  0.4807  155.3   5.126   68.0  0.0983   57.1  0.1863 -141.6
 1.960  0.4814  154.9   5.075   67.6  0.0991   56.9  0.1862 -142.1
 1.980  0.4821  154.4   5.024   67.3  0.1000   56.8  0.1862 -142.5
 2.000  0.4829  153.9   4.973   66.9  0.1009   56.7  0.1861 -143.0
 2.020  0.4836  153.4   4.927   66.6  0.1018   56.5  0.1861 -143.5
 2.040  0.4843  153.0   4.882   66.3  0.1027   56.4  0.1861 -143.9
 2.060  0.4850  152.5   4.836   65.9  0.1035   56.3  0.1862 -144.4
 2.080  0.4858  152.1   4.791   65.6  0.1044   56.1  0.1862 -144.8
 2.100  0.4866  151.6   4.746   65.3  0.1053   56.0  0.1863 -145.3
 2.120  0.4874  151.2   4.701   64.9  0.1062   55.8  0.1864 -145.8
 2.140  0.4883  150.7   4.656   64.6  0.1071   55.7  0.1865 -146.2
 2.160  0.4891  150.3   4.612   64.2  0.1079   55.6  0.1866 -146.7
 2.180  0.4901  149.8   4.567   63.9  0.1088   55.4  0.1867 -147.1
 2.200  0.4910  149.4   4.523   63.5  0.1097   55.3  0.1868 -147.6
 2.220  0.4917  149.0   4.485   63.2  0.1105   55.2  0.1870 -148.1
 2.240  0.4925  148.6   4.448   62.9  0.1114   55.0  0.1872 -148.5
 2.260  0.4933  148.2   4.411   62.6  0.1122   54.9  0.1874 -149.0
 2.280  0.4941  147.7   4.373   62.2  0.1131   54.7  0.1876 -149.5
 2.300  0.4949  147.3   4.336   61.9  0.1139   54.6  0.1878 -149.9
 2.320  0.4958  146.9   4.299   61.6  0.1148   54.4  0.1881 -150.4
 2.340  0.4967  146.5   4.262   61.2  0.1156   54.3  0.1884 -150.8
 2.360  0.4976  146.1   4.226   60.9  0.1165   54.2  0.1886 -151.3
 2.380  0.4985  145.7   4.189   60.6  0.1173   54.0  0.1889 -151.7
 2.400  0.4995  145.3   4.153   60.2  0.1182   53.9  0.1892 -152.2
 2.420  0.5004  144.9   4.120   59.9  0.1190   53.7  0.1896 -152.7
 2.440  0.5013  144.5   4.088   59.6  0.1199   53.6  0.1900 -153.1
 2.460  0.5022  144.1   4.055   59.3  0.1207   53.4  0.1904 -153.6
 2.480  0.5031  143.7   4.023   59.0  0.1215   53.2  0.1909 -154.1
 2.500  0.5041  143.3   3.990   58.7  0.1224   53.1  0.1913 -154.5
 2.520  0.5051  142.9   3.958   58.3  0.1232   52.9  0.1918 -155.0
 2.540  0.5061  142.5   3.926   58.0  0.1241   52.8  0.1923 -155.4
 2.560  0.5071  142.1   3.894   57.7  0.1249   52.6  0.1928 -155.9
 2.580  0.5082  141.7   3.863   57.3  0.1258   52.5  0.1933 -156.4
 2.600  0.5093  141.3   3.831   57.0  0.1266   52.3  0.1938 -156.8
 2.620  0.5100  140.9   3.803   56.7  0.1274   52.1  0.1944 -157.3
 2.640  0.5107  140.5   3.775   56.4  0.1282   52.0  0.1950 -157.7
 2.660  0.5115  140.1   3.747   56.1  0.1290   51.8  0.1956 -158.1
 2.680  0.5123  139.8   3.719   55.8  0.1298   51.6  0.1962 -158.6
 2.700  0.5131  139.4   3.692   55.5  0.1306   51.5  0.1969 -159.0
 2.720  0.5139  139.0   3.664   55.1  0.1314   51.3  0.1975 -159.5
 2.740  0.5147  138.6   3.637   54.8  0.1323   51.2  0.1982 -159.9
 2.760  0.5156  138.3   3.609   54.5  0.1331   51.0  0.1988 -160.3
 2.780  0.5165  137.9   3.582   54.1  0.1339   50.9  0.1995 -160.8
 2.800  0.5174  137.5   3.555   53.8  0.1347   50.7  0.2002 -161.2
 2.820  0.5184  137.1   3.531   53.5  0.1355   50.5  0.2009 -161.6
 2.840  0.5194  136.8   3.506   53.2  0.1363   50.4  0.2016 -162.0
 2.860  0.5204  136.4   3.482   52.9  0.1371   50.2  0.2023 -162.4
 2.880  0.5214  136.1   3.458   52.7  0.1379   50.0  0.2030 -162.8
 2.900  0.5225  135.7   3.434   52.4  0.1387   49.9  0.2037 -163.2
 2.920  0.5235  135.4   3.410   52.1  0.1395   49.7  0.2045 -163.6
 2.940  0.5246  135.0   3.386   51.7  0.1403   49.6  0.2052 -164.0
 2.960  0.5257  134.7   3.362   51.4  0.1411   49.4  0.2060 -164.3
 2.980  0.5269  134.3   3.339   51.1  0.1419   49.3  0.2067 -164.7
 3.000  0.5280  134.0   3.315   50.8  0.1427   49.1  0.2075 -165.1
 3.100  0.5322  132.3   3.214   49.5  0.1464   48.2  0.2112 -167.0
 3.200  0.5368  130.5   3.115   48.2  0.1501   47.3  0.2151 -168.9
 3.300  0.5420  128.9   3.017   46.7  0.1539   46.4  0.2192 -170.6
 3.400  0.5476  127.2   2.922   45.2  0.1577   45.6  0.2235 -172.4
 3.500  0.5536  125.6   2.829   43.5  0.1615   44.8  0.2280 -174.0
 3.600  0.5590  124.1   2.752   42.3  0.1648   43.9  0.2324 -175.9
 3.700  0.5648  122.6   2.676   41.0  0.1682   43.0  0.2371 -177.8
 3.800  0.5709  121.1   2.602   39.6  0.1716   42.2  0.2421 -179.6
 3.900  0.5774  119.7   2.529   38.1  0.1750   41.4  0.2472  178.7
 4.000  0.5843  118.3   2.458   36.6  0.1785   40.6  0.2526  177.0
 4.100  0.5898  117.0   2.397   35.4  0.1815   39.8  0.2583  175.2
 4.200  0.5956  115.8   2.337   34.2  0.1845   39.0  0.2642  173.5
 4.300  0.6017  114.6   2.278   32.9  0.1876   38.2  0.2704  171.9
 4.400  0.6081  113.4   2.220   31.5  0.1907   37.4  0.2767  170.4
 4.500  0.6147  112.2   2.164   30.1  0.1938   36.7  0.2833  168.9
 4.600  0.6188  111.1   2.117   29.0  0.1967   36.0  0.2879  167.7
 4.700  0.6231  110.0   2.070   27.9  0.1997   35.3  0.2927  166.5
 4.800  0.6276  108.9   2.024   26.7  0.2027   34.6  0.2975  165.4
 4.900  0.6324  107.8   1.979   25.5  0.2057   33.9  0.3025  164.3
 5.000  0.6374  106.7   1.935   24.2  0.2087   33.3  0.3076  163.2
 5.100  0.6403  105.7   1.899   23.2  0.2119   32.5  0.3106  162.3
 5.200  0.6433  104.8   1.863   22.2  0.2151   31.8  0.3138  161.4
 5.300  0.6465  103.9   1.827   21.1  0.2183   31.0  0.3170  160.5
 5.400  0.6499  102.9   1.793   20.0  0.2216   30.3  0.3203  159.6
 5.500  0.6535  102.0   1.759   18.8  0.2249   29.6  0.3236  158.8
 5.600  0.6556  101.2   1.730   17.8  0.2278   28.8  0.3271  158.0
 5.700  0.6577  100.4   1.701   16.7  0.2308   28.0  0.3308  157.1
 5.800  0.6600   99.6   1.673   15.6  0.2338   27.2  0.3344  156.3
 5.900  0.6625   98.9   1.646   14.5  0.2369   26.4  0.3382  155.6
 6.000  0.6650   98.1   1.619   13.3  0.2400   25.7  0.3420  154.8
 6.100  0.6655   97.3   1.594   12.3  0.2426   24.9  0.3444  154.3
 6.200  0.6662   96.5   1.570   11.3  0.2452   24.2  0.3468  153.8
 6.300  0.6670   95.7   1.547   10.2  0.2478   23.4  0.3492  153.3
 6.400  0.6679   94.9   1.524    9.1  0.2505   22.7  0.3517  152.8
 6.500  0.6690   94.1   1.501    8.0  0.2532   22.0  0.3542  152.3
 6.600  0.6684   93.2   1.482    7.0  0.2561   21.3  0.3537  151.9
 6.800  0.6677   91.3   1.445    5.1  0.2622   19.9  0.3528  151.1
 7.000  0.6677   89.5   1.410    3.0  0.2683   18.6  0.3520  150.3
 7.200  0.6695   87.3   1.380    0.9  0.2747   16.9  0.3515  148.9
 7.400  0.6723   85.2   1.352   -1.3  0.2814   15.4  0.3512  147.4
 7.600  0.6762   82.8   1.325   -3.6  0.2877   13.6  0.3529  145.5
 7.800  0.6815   80.3   1.298   -6.0  0.2937   11.7  0.3567  143.2
 8.000  0.6881   77.8   1.273   -8.6  0.3000    9.9  0.3610  141.0
 8.200  0.6936   75.2   1.240  -10.9  0.3040    7.7  0.3655  138.2
 8.400  0.7005   72.7   1.209  -13.4  0.3084    5.6  0.3709  135.4
 8.600  0.7098   70.2   1.178  -15.8  0.3112    3.6  0.3777  132.0
 8.800  0.7212   67.9   1.144  -18.1  0.3123    1.5  0.3868  128.0
 9.000  0.7337   65.7   1.113  -20.5  0.3138   -0.6  0.3977  124.2
 9.200  0.7499   63.8   1.076  -22.4  0.3126   -2.2  0.4146  119.7
 9.400  0.7668   62.1   1.040  -24.4  0.3116   -3.8  0.4339  115.6
 9.600  0.7819   60.5   1.006  -26.1  0.3105   -5.1  0.4536  112.0
 9.800  0.7950   59.0   0.972  -27.5  0.3091   -6.1  0.4734  108.9
10.000  0.8087   57.6   0.939  -29.1  0.3079   -7.1  0.4945  106.0
!
!  f       NFmin   Gammaopt  rn/50
! GHz       dB    MAG  ANG    -
 0.450      1.47  0.19 -172   0.12
 0.900      1.49  0.17 -164   0.13
 1.900      1.61  0.28 -144   0.13
 3.500      1.51  0.49 -120   0.18
!
! (c) 2016  Infineon Technologies AG, Munich
