! Infineon Technologies  Discrete & RF Semiconductors
! BFP460
! VCE =  2.0 V,  IC =  4.0 mA
! Common Emitter S-Parameters:                            Jan 2016
# GHz  S  MA  R  50
!  f         S11            S21            S12            S22
! GHz     MAG   ANG      MAG   ANG      MAG   ANG      MAG   ANG
 0.030  0.8949   -5.1  13.422  176.8  0.0063   87.4  0.9886   -3.4
 0.035  0.8931   -5.9  13.413  176.1  0.0073   86.6  0.9879   -3.9
 0.040  0.8914   -6.8  13.406  175.3  0.0084   86.0  0.9873   -4.5
 0.045  0.8910   -7.6  13.376  174.4  0.0093   85.2  0.9867   -5.0
 0.050  0.8908   -8.4  13.349  173.5  0.0103   84.6  0.9861   -5.6
 0.055  0.8896   -9.3  13.340  173.1  0.0113   84.6  0.9853   -6.1
 0.060  0.8887  -10.2  13.332  172.6  0.0124   84.6  0.9846   -6.7
 0.065  0.8862  -11.1  13.371  171.9  0.0135   83.7  0.9837   -7.2
 0.070  0.8839  -12.0  13.411  171.3  0.0147   82.9  0.9828   -7.8
 0.075  0.8871  -12.8  13.383  170.9  0.0157   82.7  0.9818   -8.3
 0.080  0.8904  -13.5  13.356  170.5  0.0168   82.5  0.9809   -8.9
 0.085  0.8892  -14.4  13.341  169.9  0.0178   82.2  0.9795   -9.4
 0.090  0.8883  -15.3  13.327  169.3  0.0188   81.9  0.9781  -10.0
 0.095  0.8868  -16.1  13.273  168.8  0.0198   81.1  0.9767  -10.5
 0.100  0.8855  -17.0  13.221  168.2  0.0208   80.4  0.9754  -11.1
 0.105  0.8846  -17.9  13.215  167.7  0.0218   79.9  0.9737  -11.6
 0.110  0.8840  -18.8  13.210  167.1  0.0229   79.4  0.9721  -12.2
 0.115  0.8823  -19.6  13.201  166.5  0.0239   79.0  0.9705  -12.7
 0.120  0.8808  -20.5  13.194  165.9  0.0249   78.7  0.9689  -13.3
 0.125  0.8792  -21.2  13.163  165.4  0.0258   78.2  0.9671  -13.8
 0.130  0.8778  -22.0  13.133  164.9  0.0268   77.8  0.9653  -14.3
 0.135  0.8760  -22.8  13.120  164.3  0.0278   77.3  0.9635  -14.8
 0.140  0.8743  -23.7  13.108  163.6  0.0288   76.9  0.9617  -15.4
 0.145  0.8724  -24.5  13.062  163.0  0.0297   76.3  0.9597  -15.9
 0.150  0.8707  -25.4  13.017  162.4  0.0306   75.8  0.9577  -16.5
 0.155  0.8684  -26.2  12.982  161.9  0.0315   75.3  0.9550  -17.0
 0.160  0.8662  -27.0  12.947  161.3  0.0324   74.8  0.9524  -17.5
 0.165  0.8643  -27.8  12.914  160.8  0.0334   74.3  0.9499  -18.0
 0.170  0.8624  -28.6  12.882  160.3  0.0343   73.9  0.9474  -18.5
 0.175  0.8608  -29.4  12.851  159.7  0.0352   73.5  0.9450  -19.0
 0.180  0.8593  -30.2  12.821  159.2  0.0362   73.1  0.9427  -19.5
 0.185  0.8580  -31.0  12.793  158.6  0.0371   72.7  0.9405  -20.0
 0.190  0.8569  -31.8  12.765  158.1  0.0380   72.4  0.9383  -20.6
 0.195  0.8559  -32.6  12.739  157.6  0.0390   72.0  0.9362  -21.1
 0.200  0.8551  -33.4  12.714  157.0  0.0399   71.7  0.9342  -21.6
 0.220  0.8455  -36.5  12.550  155.0  0.0433   69.9  0.9227  -23.5
 0.240  0.8385  -39.6  12.402  152.9  0.0467   68.3  0.9123  -25.4
 0.260  0.8307  -42.6  12.241  150.9  0.0499   66.7  0.9008  -27.3
 0.280  0.8218  -45.5  12.064  149.0  0.0530   65.2  0.8881  -29.2
 0.300  0.8151  -48.5  11.901  147.0  0.0561   63.8  0.8764  -31.1
 0.320  0.8048  -51.3  11.710  145.2  0.0589   62.3  0.8631  -32.8
 0.340  0.7966  -54.2  11.531  143.3  0.0617   60.9  0.8505  -34.5
 0.360  0.7877  -57.0  11.349  141.5  0.0643   59.5  0.8376  -36.2
 0.380  0.7779  -59.6  11.161  139.8  0.0667   58.2  0.8242  -37.8
 0.400  0.7697  -62.3  10.984  138.0  0.0692   57.0  0.8115  -39.4
 0.420  0.7596  -64.9  10.792  136.4  0.0714   55.7  0.7985  -40.8
 0.440  0.7511  -67.5  10.608  134.7  0.0736   54.6  0.7860  -42.3
 0.450  0.7474  -68.8  10.520  133.9  0.0747   54.0  0.7800  -43.1
 0.460  0.7426  -70.0  10.425  133.2  0.0757   53.5  0.7734  -43.7
 0.480  0.7338  -72.4  10.241  131.7  0.0776   52.5  0.7604  -45.0
 0.500  0.7264  -74.8  10.064  130.2  0.0796   51.5  0.7479  -46.4
 0.520  0.7162  -77.0   9.883  128.9  0.0812   50.5  0.7355  -47.6
 0.540  0.7071  -79.2   9.707  127.5  0.0828   49.6  0.7235  -48.8
 0.560  0.6992  -81.5   9.537  126.1  0.0844   48.6  0.7117  -50.0
 0.580  0.6923  -83.8   9.372  124.7  0.0860   47.8  0.7003  -51.3
 0.600  0.6866  -86.2   9.214  123.2  0.0877   46.9  0.6893  -52.6
 0.620  0.6782  -88.1   9.050  122.1  0.0889   46.1  0.6781  -53.6
 0.640  0.6705  -90.1   8.889  120.9  0.0902   45.3  0.6671  -54.6
 0.660  0.6637  -92.1   8.732  119.7  0.0914   44.6  0.6564  -55.7
 0.680  0.6577  -94.2   8.579  118.5  0.0927   43.8  0.6459  -56.8
 0.700  0.6526  -96.3   8.430  117.2  0.0940   43.1  0.6356  -57.9
 0.720  0.6457  -98.1   8.286  116.2  0.0950   42.5  0.6259  -58.8
 0.740  0.6395  -99.8   8.144  115.2  0.0960   41.8  0.6164  -59.7
 0.760  0.6339 -101.7   8.004  114.2  0.0970   41.2  0.6070  -60.6
 0.780  0.6290 -103.5   7.868  113.1  0.0980   40.6  0.5978  -61.5
 0.800  0.6247 -105.4   7.734  112.0  0.0990   40.0  0.5887  -62.5
 0.820  0.6191 -107.0   7.611  111.1  0.0998   39.5  0.5803  -63.3
 0.840  0.6140 -108.7   7.491  110.2  0.1006   39.0  0.5719  -64.1
 0.860  0.6095 -110.4   7.372  109.3  0.1014   38.5  0.5637  -64.9
 0.880  0.6055 -112.1   7.256  108.3  0.1023   38.1  0.5556  -65.7
 0.900  0.6020 -113.8   7.141  107.3  0.1031   37.6  0.5476  -66.6
 0.920  0.5973 -115.3   7.032  106.5  0.1038   37.2  0.5404  -67.3
 0.940  0.5931 -116.8   6.923  105.7  0.1045   36.7  0.5332  -68.0
 0.960  0.5892 -118.3   6.817  104.9  0.1052   36.3  0.5262  -68.7
 0.980  0.5858 -119.8   6.712  104.0  0.1059   35.9  0.5192  -69.4
 1.000  0.5828 -121.4   6.608  103.1  0.1066   35.5  0.5123  -70.2
 1.020  0.5790 -122.8   6.512  102.4  0.1072   35.2  0.5061  -70.8
 1.040  0.5755 -124.2   6.417  101.6  0.1077   34.8  0.4999  -71.5
 1.060  0.5724 -125.6   6.323  100.9  0.1083   34.5  0.4938  -72.1
 1.080  0.5696 -127.0   6.231  100.1  0.1089   34.1  0.4878  -72.8
 1.100  0.5672 -128.4   6.139   99.3  0.1095   33.8  0.4818  -73.5
 1.120  0.5641 -129.7   6.055   98.6  0.1100   33.5  0.4763  -74.1
 1.140  0.5613 -130.9   5.972   97.9  0.1105   33.2  0.4709  -74.7
 1.160  0.5588 -132.2   5.890   97.2  0.1111   33.0  0.4656  -75.3
 1.180  0.5566 -133.5   5.809   96.5  0.1116   32.7  0.4603  -75.9
 1.200  0.5546 -134.8   5.729   95.7  0.1121   32.4  0.4550  -76.5
 1.220  0.5523 -136.0   5.655   95.1  0.1126   32.2  0.4503  -77.0
 1.240  0.5502 -137.2   5.581   94.4  0.1130   31.9  0.4457  -77.6
 1.260  0.5484 -138.4   5.508   93.8  0.1135   31.7  0.4411  -78.1
 1.280  0.5468 -139.7   5.436   93.1  0.1139   31.4  0.4365  -78.7
 1.300  0.5455 -140.9   5.364   92.4  0.1144   31.2  0.4320  -79.3
 1.320  0.5435 -142.0   5.298   91.8  0.1148   31.0  0.4278  -79.8
 1.340  0.5417 -143.1   5.233   91.2  0.1152   30.8  0.4235  -80.3
 1.360  0.5401 -144.2   5.168   90.6  0.1157   30.6  0.4194  -80.8
 1.380  0.5387 -145.3   5.104   90.0  0.1161   30.4  0.4152  -81.3
 1.400  0.5375 -146.4   5.041   89.3  0.1165   30.2  0.4111  -81.8
 1.420  0.5361 -147.5   4.983   88.7  0.1169   30.0  0.4075  -82.3
 1.440  0.5348 -148.5   4.925   88.1  0.1173   29.8  0.4039  -82.7
 1.460  0.5338 -149.6   4.868   87.5  0.1177   29.7  0.4004  -83.2
 1.480  0.5329 -150.6   4.811   86.9  0.1181   29.5  0.3969  -83.7
 1.500  0.5322 -151.7   4.755   86.3  0.1185   29.3  0.3934  -84.2
 1.520  0.5308 -152.7   4.702   85.8  0.1189   29.2  0.3900  -84.7
 1.540  0.5296 -153.7   4.649   85.3  0.1192   29.0  0.3867  -85.1
 1.560  0.5285 -154.7   4.597   84.7  0.1196   28.9  0.3834  -85.6
 1.580  0.5276 -155.7   4.545   84.2  0.1199   28.7  0.3801  -86.1
 1.600  0.5268 -156.7   4.494   83.6  0.1203   28.6  0.3769  -86.6
 1.620  0.5260 -157.6   4.448   83.1  0.1207   28.5  0.3741  -87.0
 1.640  0.5253 -158.5   4.402   82.6  0.1210   28.4  0.3713  -87.5
 1.660  0.5248 -159.5   4.357   82.0  0.1214   28.2  0.3685  -87.9
 1.680  0.5244 -160.4   4.312   81.5  0.1217   28.1  0.3657  -88.3
 1.700  0.5241 -161.3   4.267   80.9  0.1221   28.0  0.3630  -88.8
 1.720  0.5236 -162.2   4.224   80.4  0.1225   27.9  0.3605  -89.2
 1.740  0.5232 -163.1   4.181   79.9  0.1228   27.8  0.3580  -89.7
 1.760  0.5229 -163.9   4.138   79.4  0.1232   27.7  0.3555  -90.1
 1.780  0.5227 -164.8   4.096   78.9  0.1235   27.6  0.3530  -90.5
 1.800  0.5227 -165.7   4.054   78.4  0.1239   27.5  0.3506  -91.0
 1.820  0.5222 -166.5   4.016   77.9  0.1242   27.4  0.3483  -91.4
 1.840  0.5218 -167.4   3.979   77.4  0.1245   27.3  0.3459  -91.8
 1.860  0.5216 -168.2   3.941   76.9  0.1249   27.2  0.3436  -92.2
 1.880  0.5214 -169.1   3.905   76.4  0.1252   27.1  0.3414  -92.7
 1.900  0.5214 -169.9   3.868   75.9  0.1255   27.0  0.3391  -93.1
 1.920  0.5213 -170.7   3.833   75.4  0.1258   26.9  0.3370  -93.5
 1.940  0.5213 -171.5   3.798   74.9  0.1262   26.8  0.3350  -93.9
 1.960  0.5214 -172.4   3.763   74.4  0.1265   26.8  0.3329  -94.3
 1.980  0.5216 -173.2   3.728   73.9  0.1269   26.7  0.3309  -94.8
 2.000  0.5219 -174.0   3.694   73.4  0.1272   26.6  0.3289  -95.2
 2.020  0.5217 -174.8   3.662   73.0  0.1275   26.5  0.3270  -95.6
 2.040  0.5216 -175.5   3.630   72.5  0.1279   26.4  0.3252  -96.0
 2.060  0.5216 -176.3   3.599   72.1  0.1282   26.4  0.3234  -96.4
 2.080  0.5216 -177.0   3.568   71.7  0.1286   26.3  0.3216  -96.9
 2.100  0.5218 -177.8   3.537   71.2  0.1289   26.2  0.3198  -97.3
 2.120  0.5221 -178.6   3.506   70.7  0.1292   26.1  0.3180  -97.7
 2.140  0.5224 -179.3   3.475   70.3  0.1296   26.0  0.3162  -98.2
 2.160  0.5228  179.9   3.445   69.8  0.1299   26.0  0.3145  -98.6
 2.180  0.5234  179.2   3.415   69.3  0.1303   25.9  0.3128  -99.0
 2.200  0.5240  178.4   3.385   68.8  0.1306   25.8  0.3111  -99.5
 2.220  0.5241  177.7   3.358   68.4  0.1309   25.7  0.3095  -99.9
 2.240  0.5243  177.0   3.332   68.0  0.1312   25.7  0.3079 -100.3
 2.260  0.5246  176.3   3.305   67.6  0.1316   25.6  0.3064 -100.8
 2.280  0.5250  175.6   3.279   67.1  0.1319   25.6  0.3048 -101.2
 2.300  0.5254  174.9   3.253   66.7  0.1322   25.5  0.3033 -101.6
 2.320  0.5259  174.2   3.227   66.2  0.1325   25.5  0.3018 -102.1
 2.340  0.5265  173.6   3.202   65.8  0.1328   25.4  0.3003 -102.5
 2.360  0.5272  172.9   3.176   65.3  0.1332   25.4  0.2989 -103.0
 2.380  0.5279  172.2   3.151   64.9  0.1335   25.3  0.2974 -103.4
 2.400  0.5287  171.5   3.126   64.4  0.1338   25.3  0.2960 -103.9
 2.420  0.5291  170.8   3.103   64.0  0.1341   25.2  0.2948 -104.3
 2.440  0.5296  170.2   3.079   63.6  0.1345   25.2  0.2935 -104.8
 2.460  0.5301  169.5   3.056   63.2  0.1348   25.1  0.2923 -105.2
 2.480  0.5307  168.8   3.033   62.8  0.1351   25.1  0.2911 -105.7
 2.500  0.5314  168.2   3.010   62.3  0.1354   25.0  0.2900 -106.2
 2.520  0.5321  167.5   2.988   61.9  0.1358   24.9  0.2888 -106.6
 2.540  0.5329  166.9   2.965   61.5  0.1361   24.9  0.2877 -107.1
 2.560  0.5338  166.2   2.943   61.0  0.1364   24.8  0.2866 -107.6
 2.580  0.5348  165.6   2.921   60.6  0.1368   24.8  0.2855 -108.0
 2.600  0.5358  164.9   2.899   60.1  0.1371   24.7  0.2844 -108.5
 2.620  0.5362  164.3   2.879   59.7  0.1374   24.6  0.2835 -109.0
 2.640  0.5366  163.7   2.858   59.3  0.1377   24.6  0.2825 -109.4
 2.660  0.5371  163.1   2.838   59.0  0.1380   24.5  0.2816 -109.9
 2.680  0.5377  162.5   2.818   58.6  0.1383   24.5  0.2807 -110.3
 2.700  0.5383  161.9   2.798   58.2  0.1386   24.4  0.2799 -110.8
 2.720  0.5389  161.3   2.779   57.8  0.1390   24.4  0.2790 -111.3
 2.740  0.5397  160.7   2.759   57.4  0.1393   24.3  0.2782 -111.8
 2.760  0.5404  160.1   2.739   56.9  0.1396   24.3  0.2774 -112.2
 2.780  0.5413  159.5   2.720   56.5  0.1399   24.2  0.2766 -112.7
 2.800  0.5422  158.9   2.701   56.1  0.1402   24.2  0.2758 -113.2
 2.820  0.5429  158.3   2.683   55.7  0.1405   24.2  0.2751 -113.7
 2.840  0.5436  157.8   2.665   55.4  0.1408   24.1  0.2744 -114.1
 2.860  0.5443  157.2   2.647   55.0  0.1412   24.1  0.2737 -114.6
 2.880  0.5452  156.7   2.629   54.6  0.1415   24.0  0.2730 -115.1
 2.900  0.5460  156.1   2.611   54.2  0.1418   24.0  0.2724 -115.6
 2.920  0.5469  155.6   2.594   53.8  0.1421   24.0  0.2717 -116.1
 2.940  0.5479  155.0   2.577   53.4  0.1424   23.9  0.2711 -116.5
 2.960  0.5489  154.5   2.559   53.0  0.1428   23.9  0.2705 -117.0
 2.980  0.5500  153.9   2.542   52.6  0.1431   23.8  0.2700 -117.5
 3.000  0.5511  153.4   2.525   52.2  0.1434   23.8  0.2694 -118.0
 3.100  0.5539  150.9   2.449   50.6  0.1450   23.6  0.2672 -120.2
 3.200  0.5577  148.4   2.375   48.9  0.1466   23.4  0.2654 -122.4
 3.300  0.5626  145.9   2.303   47.0  0.1483   23.2  0.2640 -124.7
 3.400  0.5685  143.5   2.234   45.1  0.1499   23.0  0.2630 -127.0
 3.500  0.5754  141.1   2.168   43.0  0.1515   22.8  0.2625 -129.3
 3.600  0.5798  138.9   2.109   41.5  0.1531   22.6  0.2616 -131.7
 3.700  0.5851  136.8   2.052   39.9  0.1548   22.4  0.2612 -134.0
 3.800  0.5911  134.7   1.996   38.2  0.1564   22.2  0.2612 -136.4
 3.900  0.5979  132.6   1.943   36.4  0.1581   22.0  0.2617 -138.7
 4.000  0.6055  130.6   1.891   34.5  0.1597   21.8  0.2626 -141.1
 4.100  0.6103  128.9   1.844   33.1  0.1614   21.6  0.2643 -143.4
 4.200  0.6156  127.1   1.798   31.6  0.1630   21.5  0.2665 -145.7
 4.300  0.6214  125.5   1.753   30.0  0.1647   21.3  0.2690 -148.0
 4.400  0.6278  123.8   1.710   28.3  0.1663   21.2  0.2720 -150.2
 4.500  0.6347  122.2   1.668   26.6  0.1680   21.0  0.2754 -152.4
 4.600  0.6383  120.7   1.631   25.3  0.1699   20.9  0.2788 -154.2
 4.700  0.6423  119.3   1.594   24.0  0.1718   20.8  0.2824 -155.9
 4.800  0.6468  117.9   1.559   22.6  0.1736   20.8  0.2863 -157.6
 4.900  0.6516  116.5   1.524   21.1  0.1755   20.7  0.2904 -159.3
 5.000  0.6568  115.1   1.491   19.6  0.1774   20.6  0.2948 -160.9
 5.100  0.6598  113.9   1.461   18.4  0.1798   20.4  0.2983 -162.2
 5.200  0.6630  112.7   1.432   17.2  0.1822   20.2  0.3020 -163.5
 5.300  0.6665  111.6   1.404   15.9  0.1847   20.0  0.3058 -164.8
 5.400  0.6703  110.4   1.377   14.6  0.1871   19.9  0.3097 -166.0
 5.500  0.6744  109.3   1.350   13.2  0.1895   19.7  0.3138 -167.2
 5.600  0.6771  108.3   1.327   12.0  0.1920   19.4  0.3182 -168.5
 5.700  0.6800  107.4   1.304   10.8  0.1946   19.0  0.3228 -169.8
 5.800  0.6831  106.4   1.282    9.6  0.1971   18.7  0.3276 -171.1
 5.900  0.6863  105.4   1.260    8.3  0.1996   18.4  0.3325 -172.3
 6.000  0.6898  104.5   1.239    7.0  0.2022   18.1  0.3375 -173.5
 6.100  0.6903  103.6   1.219    5.9  0.2046   17.7  0.3419 -174.5
 6.200  0.6910  102.6   1.200    4.8  0.2070   17.4  0.3463 -175.5
 6.300  0.6919  101.7   1.181    3.7  0.2094   17.1  0.3509 -176.4
 6.400  0.6929  100.7   1.162    2.5  0.2118   16.7  0.3556 -177.3
 6.500  0.6942   99.8   1.144    1.3  0.2142   16.4  0.3603 -178.2
 6.600  0.6941   98.8   1.128    0.3  0.2170   16.1  0.3625 -178.9
 6.800  0.6947   96.7   1.097   -1.9  0.2226   15.4  0.3669  179.9
 7.000  0.6961   94.7   1.068   -4.1  0.2283   14.8  0.3716  178.6
 7.200  0.6987   92.3   1.044   -6.2  0.2349   13.8  0.3742  176.8
 7.400  0.7026   89.9   1.021   -8.5  0.2416   12.9  0.3771  175.1
 7.600  0.7075   87.3   0.999  -10.8  0.2484   11.7  0.3806  172.8
 7.800  0.7139   84.5   0.977  -13.2  0.2552   10.4  0.3851  170.2
 8.000  0.7219   81.8   0.957  -15.7  0.2621    9.1  0.3904  167.6
 8.200  0.7273   78.8   0.931  -18.0  0.2677    7.3  0.3944  164.4
 8.400  0.7346   75.9   0.907  -20.5  0.2735    5.5  0.3996  161.2
 8.600  0.7437   73.2   0.882  -22.9  0.2779    3.8  0.4043  157.4
 8.800  0.7543   70.5   0.856  -25.1  0.2808    1.9  0.4096  153.0
 9.000  0.7665   68.0   0.832  -27.4  0.2841    0.1  0.4172  148.7
 9.200  0.7810   65.9   0.805  -29.3  0.2848   -1.3  0.4293  143.4
 9.400  0.7966   63.9   0.778  -31.3  0.2858   -2.8  0.4448  138.4
 9.600  0.8099   62.0   0.751  -33.0  0.2864   -4.0  0.4626  133.8
 9.800  0.8210   60.3   0.724  -34.5  0.2865   -4.9  0.4821  129.7
10.000  0.8327   58.7   0.698  -36.1  0.2868   -5.9  0.5039  126.0
!
!  f       NFmin   Gammaopt  rn/50
! GHz       dB    MAG  ANG    -
 0.100      0.73  0.43    1   0.18
 0.450      0.75  0.40   17   0.18
 0.900      0.77  0.41   35   0.18
 1.900      1.06  0.21   94   0.13
 3.500      1.30  0.35 -157   0.09
!
! (c) 2016  Infineon Technologies AG, Munich
