! Infineon Technologies  Discrete & RF Semiconductors
! BFP460
! VCE =  3.0 V,  IC =  8.0 mA
! Common Emitter S-Parameters:                            Jan 2016
# GHz  S  MA  R  50
!  f         S11            S21            S12            S22
! GHz     MAG   ANG      MAG   ANG      MAG   ANG      MAG   ANG
 0.030  0.8072   -7.6  24.089  174.7  0.0056   85.3  0.9806   -5.4
 0.035  0.8060   -8.8  24.044  173.7  0.0066   85.0  0.9793   -6.2
 0.040  0.8052  -10.1  24.007  172.7  0.0076   84.8  0.9781   -7.0
 0.045  0.8046  -11.2  23.898  171.8  0.0085   84.3  0.9765   -7.7
 0.050  0.8044  -12.4  23.795  170.8  0.0095   83.9  0.9750   -8.4
 0.055  0.8030  -13.9  23.749  170.1  0.0103   82.8  0.9730   -9.2
 0.060  0.8022  -15.4  23.707  169.4  0.0111   81.8  0.9713  -10.1
 0.065  0.8000  -16.7  23.736  168.4  0.0121   81.2  0.9691  -10.9
 0.070  0.7983  -18.0  23.771  167.5  0.0131   80.6  0.9671  -11.8
 0.075  0.7973  -19.2  23.678  166.9  0.0139   79.9  0.9645  -12.6
 0.080  0.7966  -20.4  23.587  166.3  0.0148   79.3  0.9622  -13.5
 0.085  0.7947  -21.6  23.511  165.4  0.0157   78.7  0.9591  -14.3
 0.090  0.7931  -22.9  23.440  164.5  0.0166   78.1  0.9562  -15.1
 0.095  0.7909  -24.0  23.305  163.8  0.0174   77.7  0.9532  -15.9
 0.100  0.7889  -25.1  23.174  163.1  0.0183   77.3  0.9503  -16.7
 0.105  0.7880  -26.3  23.115  162.4  0.0191   76.5  0.9467  -17.5
 0.110  0.7874  -27.6  23.060  161.6  0.0200   75.7  0.9432  -18.3
 0.115  0.7847  -28.9  22.979  160.8  0.0208   75.0  0.9398  -19.1
 0.120  0.7825  -30.2  22.904  159.9  0.0216   74.4  0.9365  -19.9
 0.125  0.7790  -31.3  22.804  159.2  0.0224   74.0  0.9324  -20.6
 0.130  0.7757  -32.4  22.707  158.5  0.0232   73.7  0.9284  -21.4
 0.135  0.7734  -33.6  22.626  157.7  0.0240   73.1  0.9245  -22.1
 0.140  0.7715  -34.8  22.550  156.9  0.0248   72.5  0.9208  -22.9
 0.145  0.7684  -36.0  22.408  156.1  0.0256   71.9  0.9166  -23.6
 0.150  0.7656  -37.2  22.271  155.3  0.0264   71.3  0.9125  -24.4
 0.155  0.7617  -38.3  22.147  154.6  0.0271   70.7  0.9073  -25.1
 0.160  0.7580  -39.4  22.026  154.0  0.0278   70.1  0.9023  -25.8
 0.165  0.7546  -40.5  21.908  153.3  0.0285   69.5  0.8974  -26.5
 0.170  0.7515  -41.6  21.794  152.6  0.0292   69.0  0.8926  -27.2
 0.175  0.7487  -42.7  21.682  151.9  0.0299   68.5  0.8880  -27.9
 0.180  0.7461  -43.8  21.574  151.2  0.0306   68.0  0.8835  -28.6
 0.185  0.7439  -45.0  21.469  150.5  0.0313   67.6  0.8791  -29.3
 0.190  0.7419  -46.1  21.367  149.8  0.0321   67.1  0.8749  -30.0
 0.195  0.7403  -47.2  21.269  149.0  0.0328   66.7  0.8708  -30.8
 0.200  0.7389  -48.4  21.174  148.3  0.0335   66.3  0.8669  -31.5
 0.220  0.7242  -52.5  20.650  145.8  0.0359   64.4  0.8462  -34.0
 0.240  0.7134  -56.7  20.167  143.2  0.0384   62.8  0.8272  -36.6
 0.260  0.7028  -60.7  19.674  140.8  0.0406   61.1  0.8078  -39.0
 0.280  0.6916  -64.4  19.162  138.6  0.0427   59.5  0.7874  -41.2
 0.300  0.6833  -68.2  18.680  136.3  0.0448   58.1  0.7683  -43.6
 0.320  0.6707  -71.6  18.175  134.3  0.0465   56.8  0.7484  -45.6
 0.340  0.6606  -75.2  17.693  132.2  0.0483   55.6  0.7295  -47.6
 0.360  0.6505  -78.5  17.225  130.2  0.0499   54.4  0.7110  -49.6
 0.380  0.6400  -81.7  16.762  128.5  0.0514   53.3  0.6929  -51.4
 0.400  0.6314  -84.9  16.316  126.6  0.0529   52.3  0.6754  -53.3
 0.420  0.6213  -87.8  15.880  125.0  0.0542   51.4  0.6585  -54.9
 0.440  0.6128  -90.8  15.456  123.4  0.0555   50.5  0.6422  -56.5
 0.450  0.6092  -92.3  15.249  122.5  0.0561   50.1  0.6342  -57.4
 0.460  0.6048  -93.6  15.051  121.8  0.0567   49.7  0.6265  -58.1
 0.480  0.5968  -96.2  14.661  120.4  0.0578   49.1  0.6114  -59.4
 0.500  0.5902  -98.9  14.280  118.9  0.0589   48.4  0.5967  -60.9
 0.520  0.5820 -101.2  13.932  117.7  0.0598   47.8  0.5832  -62.0
 0.540  0.5748 -103.5  13.589  116.5  0.0607   47.2  0.5700  -63.2
 0.560  0.5685 -105.9  13.253  115.3  0.0616   46.7  0.5571  -64.5
 0.580  0.5633 -108.4  12.924  113.9  0.0626   46.1  0.5444  -65.8
 0.600  0.5591 -110.9  12.602  112.5  0.0635   45.6  0.5320  -67.2
 0.620  0.5531 -112.8  12.317  111.6  0.0643   45.2  0.5211  -68.2
 0.640  0.5478 -114.8  12.036  110.6  0.0650   44.9  0.5103  -69.2
 0.660  0.5432 -116.9  11.758  109.5  0.0658   44.5  0.4998  -70.3
 0.680  0.5392 -118.9  11.484  108.4  0.0665   44.1  0.4894  -71.4
 0.700  0.5360 -121.0  11.215  107.3  0.0673   43.8  0.4792  -72.6
 0.720  0.5317 -122.7  10.981  106.5  0.0680   43.5  0.4704  -73.4
 0.740  0.5278 -124.5  10.750  105.6  0.0687   43.3  0.4617  -74.3
 0.760  0.5245 -126.3  10.522  104.7  0.0693   43.0  0.4532  -75.2
 0.780  0.5217 -128.1  10.297  103.7  0.0700   42.7  0.4447  -76.1
 0.800  0.5194 -129.9  10.074  102.7  0.0707   42.5  0.4364  -77.1
 0.820  0.5161 -131.4   9.884  102.0  0.0713   42.4  0.4292  -77.8
 0.840  0.5133 -132.9   9.695  101.3  0.0719   42.2  0.4222  -78.6
 0.860  0.5107 -134.5   9.508  100.5  0.0726   42.1  0.4152  -79.4
 0.880  0.5086 -136.0   9.323   99.7  0.0732   41.9  0.4082  -80.2
 0.900  0.5068 -137.6   9.139   98.9  0.0738   41.8  0.4014  -81.0
 0.920  0.5044 -139.0   8.979   98.2  0.0744   41.7  0.3955  -81.7
 0.940  0.5023 -140.3   8.820   97.5  0.0750   41.6  0.3896  -82.4
 0.960  0.5005 -141.7   8.662   96.8  0.0756   41.5  0.3838  -83.1
 0.980  0.4990 -143.1   8.506   96.1  0.0762   41.4  0.3781  -83.8
 1.000  0.4978 -144.5   8.351   95.3  0.0768   41.3  0.3724  -84.6
 1.020  0.4959 -145.7   8.214   94.7  0.0774   41.2  0.3676  -85.2
 1.040  0.4942 -146.9   8.078   94.1  0.0780   41.2  0.3628  -85.8
 1.060  0.4927 -148.1   7.943   93.5  0.0785   41.1  0.3581  -86.5
 1.080  0.4915 -149.4   7.808   92.9  0.0791   41.1  0.3534  -87.1
 1.100  0.4905 -150.6   7.675   92.2  0.0797   41.0  0.3488  -87.8
 1.120  0.4892 -151.7   7.558   91.6  0.0803   41.0  0.3447  -88.4
 1.140  0.4880 -152.8   7.442   91.1  0.0809   41.0  0.3406  -89.0
 1.160  0.4871 -153.9   7.327   90.5  0.0814   40.9  0.3365  -89.6
 1.180  0.4863 -155.1   7.213   89.8  0.0820   40.9  0.3325  -90.2
 1.200  0.4857 -156.2   7.099   89.2  0.0826   40.9  0.3285  -90.8
 1.220  0.4849 -157.2   6.999   88.7  0.0832   40.9  0.3251  -91.3
 1.240  0.4843 -158.2   6.899   88.2  0.0838   40.9  0.3217  -91.9
 1.260  0.4839 -159.3   6.800   87.6  0.0843   40.8  0.3184  -92.4
 1.280  0.4836 -160.3   6.701   87.1  0.0849   40.8  0.3151  -93.0
 1.300  0.4834 -161.3   6.603   86.5  0.0855   40.8  0.3118  -93.6
 1.320  0.4828 -162.2   6.515   86.0  0.0861   40.8  0.3088  -94.1
 1.340  0.4822 -163.1   6.428   85.5  0.0867   40.8  0.3057  -94.6
 1.360  0.4818 -164.1   6.341   85.0  0.0872   40.8  0.3027  -95.1
 1.380  0.4816 -165.0   6.255   84.4  0.0878   40.8  0.2997  -95.7
 1.400  0.4814 -165.9   6.169   83.9  0.0884   40.8  0.2968  -96.2
 1.420  0.4810 -166.8   6.092   83.4  0.0890   40.8  0.2944  -96.7
 1.440  0.4807 -167.7   6.015   83.0  0.0896   40.8  0.2919  -97.2
 1.460  0.4805 -168.7   5.939   82.5  0.0901   40.7  0.2895  -97.7
 1.480  0.4804 -169.6   5.863   82.0  0.0907   40.7  0.2872  -98.2
 1.500  0.4805 -170.5   5.788   81.5  0.0913   40.7  0.2848  -98.7
 1.520  0.4802 -171.3   5.719   81.0  0.0919   40.7  0.2826  -99.2
 1.540  0.4801 -172.1   5.651   80.6  0.0925   40.7  0.2803  -99.7
 1.560  0.4800 -173.0   5.583   80.1  0.0931   40.7  0.2781 -100.2
 1.580  0.4801 -173.8   5.516   79.6  0.0937   40.7  0.2760 -100.7
 1.600  0.4802 -174.6   5.449   79.1  0.0943   40.7  0.2738 -101.2
 1.620  0.4802 -175.3   5.389   78.7  0.0949   40.7  0.2719 -101.6
 1.640  0.4802 -176.1   5.330   78.2  0.0955   40.7  0.2701 -102.1
 1.660  0.4804 -176.8   5.270   77.8  0.0961   40.7  0.2682 -102.6
 1.680  0.4806 -177.6   5.212   77.4  0.0967   40.7  0.2664 -103.0
 1.700  0.4809 -178.3   5.153   76.9  0.0973   40.7  0.2646 -103.5
 1.720  0.4811 -179.0   5.098   76.5  0.0979   40.7  0.2630 -104.0
 1.740  0.4813 -179.8   5.044   76.1  0.0985   40.7  0.2613 -104.4
 1.760  0.4817  179.5   4.990   75.7  0.0991   40.6  0.2597 -104.9
 1.780  0.4821  178.7   4.936   75.2  0.0997   40.6  0.2582 -105.4
 1.800  0.4826  178.0   4.882   74.8  0.1003   40.6  0.2566 -105.9
 1.820  0.4827  177.3   4.834   74.4  0.1009   40.6  0.2551 -106.3
 1.840  0.4829  176.6   4.786   73.9  0.1015   40.6  0.2537 -106.8
 1.860  0.4832  176.0   4.738   73.5  0.1022   40.5  0.2522 -107.2
 1.880  0.4835  175.3   4.690   73.1  0.1028   40.5  0.2508 -107.6
 1.900  0.4839  174.6   4.643   72.6  0.1034   40.5  0.2494 -108.1
 1.920  0.4841  173.9   4.599   72.2  0.1040   40.5  0.2481 -108.6
 1.940  0.4843  173.2   4.555   71.8  0.1046   40.5  0.2468 -109.0
 1.960  0.4846  172.6   4.511   71.4  0.1053   40.4  0.2456 -109.5
 1.980  0.4850  171.9   4.467   70.9  0.1059   40.4  0.2443 -110.0
 2.000  0.4854  171.2   4.424   70.5  0.1065   40.4  0.2431 -110.5
 2.020  0.4858  170.6   4.385   70.1  0.1071   40.4  0.2420 -111.0
 2.040  0.4863  169.9   4.345   69.8  0.1077   40.3  0.2409 -111.4
 2.060  0.4869  169.3   4.306   69.4  0.1084   40.3  0.2398 -111.9
 2.080  0.4875  168.7   4.268   69.0  0.1090   40.2  0.2387 -112.3
 2.100  0.4882  168.0   4.229   68.6  0.1096   40.2  0.2377 -112.8
 2.120  0.4889  167.4   4.191   68.2  0.1102   40.2  0.2367 -113.3
 2.140  0.4897  166.8   4.152   67.8  0.1108   40.1  0.2357 -113.7
 2.160  0.4905  166.1   4.114   67.4  0.1115   40.1  0.2347 -114.2
 2.180  0.4914  165.5   4.077   66.9  0.1121   40.0  0.2337 -114.7
 2.200  0.4924  164.9   4.039   66.5  0.1127   40.0  0.2327 -115.2
 2.220  0.4929  164.3   4.006   66.1  0.1133   40.0  0.2318 -115.7
 2.240  0.4935  163.7   3.973   65.8  0.1140   39.9  0.2310 -116.2
 2.260  0.4942  163.1   3.940   65.4  0.1146   39.9  0.2301 -116.7
 2.280  0.4949  162.6   3.907   65.1  0.1152   39.8  0.2293 -117.2
 2.300  0.4956  162.0   3.875   64.7  0.1158   39.8  0.2285 -117.7
 2.320  0.4964  161.4   3.843   64.3  0.1165   39.8  0.2277 -118.2
 2.340  0.4973  160.8   3.810   63.9  0.1171   39.7  0.2269 -118.7
 2.360  0.4982  160.2   3.778   63.5  0.1177   39.7  0.2262 -119.2
 2.380  0.4991  159.7   3.747   63.1  0.1184   39.6  0.2254 -119.7
 2.400  0.5001  159.1   3.715   62.7  0.1190   39.6  0.2247 -120.2
 2.420  0.5008  158.6   3.686   62.3  0.1196   39.5  0.2241 -120.7
 2.440  0.5015  158.0   3.658   62.0  0.1202   39.5  0.2235 -121.2
 2.460  0.5022  157.5   3.629   61.6  0.1209   39.4  0.2230 -121.8
 2.480  0.5030  156.9   3.601   61.3  0.1215   39.4  0.2224 -122.3
 2.500  0.5039  156.4   3.573   60.9  0.1221   39.3  0.2219 -122.8
 2.520  0.5048  155.8   3.545   60.5  0.1227   39.2  0.2214 -123.4
 2.540  0.5057  155.3   3.517   60.1  0.1233   39.2  0.2209 -123.9
 2.560  0.5067  154.8   3.490   59.7  0.1240   39.1  0.2205 -124.4
 2.580  0.5077  154.2   3.462   59.3  0.1246   39.1  0.2200 -125.0
 2.600  0.5088  153.7   3.435   58.9  0.1252   39.0  0.2196 -125.5
 2.620  0.5096  153.2   3.410   58.6  0.1258   38.9  0.2193 -126.0
 2.640  0.5104  152.7   3.386   58.2  0.1264   38.9  0.2190 -126.5
 2.660  0.5113  152.2   3.361   57.9  0.1271   38.8  0.2187 -127.0
 2.680  0.5122  151.8   3.337   57.6  0.1277   38.7  0.2184 -127.6
 2.700  0.5131  151.3   3.313   57.2  0.1283   38.6  0.2182 -128.1
 2.720  0.5141  150.8   3.289   56.9  0.1289   38.6  0.2179 -128.6
 2.740  0.5151  150.3   3.265   56.5  0.1295   38.5  0.2177 -129.1
 2.760  0.5161  149.8   3.241   56.1  0.1302   38.4  0.2175 -129.7
 2.780  0.5172  149.4   3.218   55.8  0.1308   38.4  0.2174 -130.2
 2.800  0.5183  148.9   3.194   55.4  0.1314   38.3  0.2172 -130.7
 2.820  0.5191  148.4   3.172   55.1  0.1320   38.2  0.2171 -131.2
 2.840  0.5200  148.0   3.150   54.7  0.1326   38.1  0.2170 -131.7
 2.860  0.5209  147.5   3.129   54.4  0.1332   38.1  0.2169 -132.2
 2.880  0.5218  147.0   3.107   54.1  0.1338   38.0  0.2168 -132.7
 2.900  0.5227  146.6   3.086   53.7  0.1344   37.9  0.2168 -133.2
 2.920  0.5237  146.1   3.065   53.4  0.1350   37.8  0.2168 -133.8
 2.940  0.5247  145.7   3.044   53.0  0.1356   37.7  0.2167 -134.3
 2.960  0.5258  145.2   3.023   52.6  0.1362   37.7  0.2167 -134.8
 2.980  0.5269  144.8   3.002   52.3  0.1368   37.6  0.2168 -135.3
 3.000  0.5280  144.3   2.981   51.9  0.1374   37.5  0.2168 -135.8
 3.100  0.5317  142.1   2.891   50.5  0.1404   37.0  0.2171 -138.2
 3.200  0.5362  140.0   2.802   48.9  0.1433   36.5  0.2178 -140.6
 3.300  0.5414  137.9   2.716   47.3  0.1463   36.1  0.2188 -143.0
 3.400  0.5473  135.8   2.631   45.6  0.1493   35.6  0.2202 -145.3
 3.500  0.5539  133.8   2.550   43.7  0.1523   35.2  0.2220 -147.6
 3.600  0.5590  131.9   2.481   42.3  0.1551   34.7  0.2234 -150.1
 3.700  0.5647  130.1   2.413   40.9  0.1578   34.1  0.2252 -152.5
 3.800  0.5710  128.3   2.347   39.3  0.1606   33.6  0.2274 -154.9
 3.900  0.5778  126.5   2.283   37.7  0.1634   33.2  0.2300 -157.2
 4.000  0.5852  124.8   2.221   36.0  0.1662   32.7  0.2330 -159.5
 4.100  0.5905  123.3   2.166   34.7  0.1687   32.2  0.2365 -161.8
 4.200  0.5963  121.8   2.112   33.3  0.1713   31.7  0.2404 -164.0
 4.300  0.6024  120.3   2.059   31.9  0.1738   31.2  0.2447 -166.1
 4.400  0.6089  118.9   2.007   30.4  0.1764   30.7  0.2492 -168.2
 4.500  0.6158  117.5   1.957   28.8  0.1790   30.2  0.2541 -170.2
 4.600  0.6198  116.2   1.914   27.6  0.1816   29.8  0.2580 -171.8
 4.700  0.6240  114.9   1.872   26.4  0.1842   29.3  0.2621 -173.3
 4.800  0.6286  113.7   1.831   25.1  0.1868   28.9  0.2664 -174.8
 4.900  0.6335  112.4   1.790   23.7  0.1894   28.5  0.2708 -176.2
 5.000  0.6387  111.2   1.751   22.3  0.1920   28.1  0.2754 -177.6
 5.100  0.6417  110.1   1.717   21.2  0.1949   27.6  0.2786 -178.7
 5.200  0.6449  109.1   1.684   20.1  0.1978   27.1  0.2819 -179.8
 5.300  0.6483  108.0   1.651   18.9  0.2008   26.6  0.2854  179.1
 5.400  0.6520  107.0   1.619   17.7  0.2037   26.1  0.2889  178.1
 5.500  0.6558  106.0   1.588   16.4  0.2067   25.6  0.2925  177.1
 5.600  0.6581  105.1   1.561   15.3  0.2095   25.0  0.2965  176.0
 5.700  0.6606  104.2   1.535   14.1  0.2123   24.4  0.3006  175.0
 5.800  0.6633  103.3   1.510   12.9  0.2152   23.8  0.3048  174.0
 5.900  0.6661  102.4   1.485   11.7  0.2180   23.2  0.3090  173.0
 6.000  0.6691  101.5   1.461   10.4  0.2209   22.6  0.3134  172.0
 6.100  0.6698  100.7   1.438    9.4  0.2234   22.0  0.3169  171.3
 6.200  0.6707   99.8   1.415    8.3  0.2259   21.4  0.3204  170.6
 6.300  0.6717   99.0   1.393    7.2  0.2284   20.8  0.3239  169.9
 6.400  0.6728   98.1   1.372    6.1  0.2309   20.3  0.3276  169.3
 6.500  0.6741   97.3   1.351    4.9  0.2335   19.7  0.3312  168.6
 6.600  0.6738   96.3   1.333    3.9  0.2364   19.1  0.3321  168.2
 6.800  0.6738   94.4   1.299    1.9  0.2421   18.0  0.3340  167.4
 7.000  0.6746   92.4   1.266   -0.3  0.2480   17.0  0.3359  166.6
 7.200  0.6768   90.1   1.239   -2.5  0.2545   15.6  0.3368  165.1
 7.400  0.6800   87.8   1.213   -4.7  0.2611   14.3  0.3380  163.6
 7.600  0.6845   85.4   1.187   -7.1  0.2674   12.8  0.3404  161.6
 7.800  0.6905   82.8   1.162   -9.6  0.2737   11.2  0.3444  159.1
 8.000  0.6980   80.2   1.139  -12.2  0.2802    9.6  0.3490  156.7
 8.200  0.7039   77.4   1.109  -14.6  0.2849    7.6  0.3531  153.6
 8.400  0.7114   74.7   1.081  -17.1  0.2900    5.7  0.3581  150.7
 8.600  0.7210   72.0   1.052  -19.5  0.2935    3.8  0.3636  147.0
 8.800  0.7323   69.6   1.022  -21.8  0.2955    1.8  0.3705  142.6
 9.000  0.7449   67.2   0.994  -24.2  0.2978   -0.1  0.3794  138.4
 9.200  0.7607   65.2   0.962  -26.1  0.2976   -1.6  0.3938  133.3
 9.400  0.7774   63.3   0.930  -28.1  0.2976   -3.1  0.4111  128.5
 9.600  0.7919   61.6   0.899  -29.9  0.2974   -4.4  0.4300  124.3
 9.800  0.8042   60.0   0.868  -31.5  0.2969   -5.3  0.4499  120.7
10.000  0.8170   58.5   0.837  -33.1  0.2964   -6.3  0.4715  117.3
!
!  f       NFmin   Gammaopt  rn/50
! GHz       dB    MAG  ANG    -
 0.450      0.89  0.20   13   0.14
 1.900      1.10  0.09  121   0.12
 3.500      1.17  0.33 -142   0.11
!
! (c) 2016  Infineon Technologies AG, Munich
