! Infineon Technologies  Discrete & RF Semiconductors
! BFP460
! VCE =  1.5 V,  IC =  12 mA
! Common Emitter S-Parameters:                            Jan 2016
# GHz  S  MA  R  50
!  f         S11            S21            S12            S22
! GHz     MAG   ANG      MAG   ANG      MAG   ANG      MAG   ANG
 0.030  0.7234  -11.1  32.742  173.5  0.0060   84.5  0.9604   -7.4
 0.035  0.7210  -12.9  32.651  172.3  0.0070   83.8  0.9582   -8.6
 0.040  0.7193  -14.7  32.576  171.0  0.0080   83.2  0.9565   -9.9
 0.045  0.7167  -16.3  32.408  169.6  0.0090   82.4  0.9538  -11.1
 0.050  0.7147  -18.0  32.259  168.2  0.0100   81.7  0.9516  -12.4
 0.055  0.7127  -20.0  32.153  167.3  0.0109   80.8  0.9483  -13.6
 0.060  0.7116  -22.0  32.055  166.3  0.0119   80.0  0.9455  -14.8
 0.065  0.7092  -23.8  32.013  165.1  0.0127   78.8  0.9414  -16.0
 0.070  0.7076  -25.6  31.987  163.8  0.0136   77.7  0.9377  -17.3
 0.075  0.7077  -27.3  31.807  163.0  0.0145   77.1  0.9333  -18.4
 0.080  0.7083  -28.9  31.635  162.1  0.0154   76.6  0.9293  -19.6
 0.085  0.7047  -30.7  31.453  161.0  0.0163   75.9  0.9241  -20.8
 0.090  0.7019  -32.6  31.283  159.9  0.0173   75.3  0.9194  -22.0
 0.095  0.6996  -34.0  31.026  159.0  0.0181   74.5  0.9143  -23.1
 0.100  0.6978  -35.5  30.778  158.0  0.0189   73.8  0.9095  -24.3
 0.105  0.6957  -37.2  30.620  157.0  0.0197   73.0  0.9037  -25.4
 0.110  0.6943  -39.0  30.472  156.0  0.0205   72.2  0.8983  -26.5
 0.115  0.6907  -40.7  30.266  155.0  0.0213   71.5  0.8925  -27.6
 0.120  0.6878  -42.4  30.070  154.0  0.0221   70.8  0.8870  -28.7
 0.125  0.6837  -43.9  29.851  153.1  0.0229   70.1  0.8805  -29.7
 0.130  0.6802  -45.5  29.639  152.2  0.0237   69.4  0.8742  -30.8
 0.135  0.6768  -47.0  29.436  151.2  0.0244   68.8  0.8681  -31.8
 0.140  0.6738  -48.6  29.241  150.2  0.0251   68.3  0.8622  -32.9
 0.145  0.6709  -50.2  28.965  149.3  0.0258   67.7  0.8555  -33.9
 0.150  0.6686  -51.8  28.696  148.3  0.0265   67.1  0.8491  -35.0
 0.155  0.6639  -53.2  28.443  147.6  0.0271   66.4  0.8415  -35.9
 0.160  0.6595  -54.5  28.195  146.8  0.0277   65.8  0.8341  -36.8
 0.165  0.6556  -55.9  27.952  146.0  0.0283   65.2  0.8270  -37.7
 0.170  0.6520  -57.4  27.714  145.2  0.0289   64.6  0.8200  -38.6
 0.175  0.6489  -58.8  27.481  144.4  0.0295   64.0  0.8133  -39.5
 0.180  0.6461  -60.2  27.254  143.6  0.0301   63.5  0.8067  -40.5
 0.185  0.6438  -61.7  27.033  142.8  0.0307   62.9  0.8004  -41.4
 0.190  0.6419  -63.2  26.817  141.9  0.0314   62.4  0.7943  -42.4
 0.195  0.6404  -64.6  26.608  141.1  0.0320   62.0  0.7885  -43.4
 0.200  0.6393  -66.1  26.404  140.2  0.0326   61.5  0.7829  -44.4
 0.220  0.6250  -71.0  25.430  137.6  0.0346   59.7  0.7554  -47.5
 0.240  0.6154  -76.0  24.515  134.7  0.0366   58.0  0.7302  -50.8
 0.260  0.6062  -80.7  23.634  132.1  0.0384   56.6  0.7058  -53.8
 0.280  0.5963  -85.0  22.768  129.8  0.0400   55.2  0.6812  -56.6
 0.300  0.5898  -89.4  21.942  127.3  0.0416   54.0  0.6584  -59.5
 0.320  0.5797  -93.2  21.148  125.4  0.0429   53.0  0.6364  -61.9
 0.340  0.5723  -97.1  20.380  123.3  0.0442   52.0  0.6156  -64.4
 0.360  0.5653 -100.7  19.661  121.4  0.0455   51.1  0.5960  -66.7
 0.380  0.5581 -104.0  18.983  119.7  0.0466   50.3  0.5773  -68.8
 0.400  0.5528 -107.3  18.322  117.9  0.0477   49.6  0.5594  -71.1
 0.420  0.5464 -110.3  17.716  116.5  0.0487   49.0  0.5431  -72.9
 0.440  0.5414 -113.3  17.121  115.0  0.0496   48.5  0.5273  -74.9
 0.450  0.5395 -114.8  16.828  114.2  0.0501   48.2  0.5197  -75.9
 0.460  0.5367 -116.1  16.567  113.6  0.0505   48.0  0.5125  -76.7
 0.480  0.5318 -118.6  16.051  112.3  0.0514   47.7  0.4985  -78.4
 0.500  0.5280 -121.2  15.543  110.9  0.0523   47.3  0.4850  -80.2
 0.520  0.5233 -123.4  15.107  109.9  0.0531   47.1  0.4733  -81.6
 0.540  0.5193 -125.6  14.677  108.9  0.0539   46.8  0.4618  -83.0
 0.560  0.5162 -127.9  14.251  107.7  0.0546   46.6  0.4507  -84.5
 0.580  0.5139 -130.2  13.831  106.6  0.0554   46.4  0.4399  -86.1
 0.600  0.5124 -132.5  13.418  105.3  0.0562   46.2  0.4294  -87.7
 0.620  0.5092 -134.3  13.080  104.5  0.0569   46.1  0.4206  -88.9
 0.640  0.5066 -136.1  12.746  103.6  0.0577   46.0  0.4119  -90.1
 0.660  0.5044 -137.9  12.414  102.7  0.0584   45.9  0.4035  -91.4
 0.680  0.5028 -139.7  12.086  101.7  0.0592   45.8  0.3953  -92.8
 0.700  0.5016 -141.5  11.761  100.7  0.0599   45.7  0.3873  -94.2
 0.720  0.4998 -143.0  11.496  100.0  0.0606   45.7  0.3805  -95.2
 0.740  0.4983 -144.5  11.233   99.2  0.0613   45.7  0.3739  -96.3
 0.760  0.4972 -146.0  10.972   98.5  0.0620   45.6  0.3674  -97.4
 0.780  0.4965 -147.6  10.713   97.7  0.0627   45.6  0.3610  -98.6
 0.800  0.4961 -149.1  10.456   96.8  0.0634   45.6  0.3548  -99.8
 0.820  0.4948 -150.4  10.244   96.2  0.0641   45.7  0.3496 -100.7
 0.840  0.4937 -151.7  10.034   95.6  0.0648   45.7  0.3444 -101.7
 0.860  0.4929 -153.0   9.825   94.9  0.0655   45.8  0.3394 -102.7
 0.880  0.4924 -154.4   9.617   94.2  0.0662   45.8  0.3345 -103.7
 0.900  0.4921 -155.7   9.411   93.5  0.0669   45.9  0.3297 -104.8
 0.920  0.4911 -156.8   9.236   92.9  0.0676   45.9  0.3256 -105.7
 0.940  0.4904 -158.0   9.061   92.4  0.0683   45.9  0.3215 -106.5
 0.960  0.4898 -159.1   8.888   91.8  0.0691   46.0  0.3175 -107.4
 0.980  0.4894 -160.3   8.715   91.1  0.0698   46.0  0.3136 -108.4
 1.000  0.4892 -161.4   8.544   90.5  0.0705   46.0  0.3098 -109.3
 1.020  0.4886 -162.4   8.398   90.0  0.0712   46.0  0.3066 -110.1
 1.040  0.4881 -163.4   8.252   89.4  0.0719   46.1  0.3034 -110.9
 1.060  0.4878 -164.5   8.108   88.9  0.0727   46.1  0.3003 -111.7
 1.080  0.4877 -165.5   7.964   88.3  0.0734   46.2  0.2972 -112.5
 1.100  0.4877 -166.5   7.821   87.7  0.0741   46.2  0.2942 -113.4
 1.120  0.4874 -167.4   7.697   87.2  0.0748   46.3  0.2915 -114.1
 1.140  0.4872 -168.3   7.574   86.7  0.0755   46.3  0.2889 -114.9
 1.160  0.4872 -169.2   7.451   86.2  0.0763   46.4  0.2864 -115.6
 1.180  0.4872 -170.1   7.329   85.7  0.0770   46.4  0.2839 -116.4
 1.200  0.4874 -171.0   7.208   85.1  0.0777   46.5  0.2814 -117.2
 1.220  0.4874 -171.8   7.102   84.6  0.0784   46.5  0.2793 -117.9
 1.240  0.4874 -172.7   6.997   84.2  0.0792   46.6  0.2773 -118.5
 1.260  0.4876 -173.5   6.892   83.7  0.0799   46.6  0.2753 -119.2
 1.280  0.4878 -174.4   6.788   83.2  0.0807   46.7  0.2734 -119.9
 1.300  0.4882 -175.2   6.684   82.7  0.0814   46.7  0.2715 -120.6
 1.320  0.4881 -176.0   6.592   82.3  0.0822   46.7  0.2696 -121.2
 1.340  0.4881 -176.7   6.501   81.8  0.0829   46.7  0.2678 -121.9
 1.360  0.4882 -177.5   6.410   81.4  0.0837   46.8  0.2661 -122.6
 1.380  0.4884 -178.2   6.319   80.9  0.0844   46.8  0.2643 -123.2
 1.400  0.4887 -179.0   6.229   80.4  0.0852   46.8  0.2626 -123.9
 1.420  0.4889 -179.7   6.149   80.0  0.0860   46.8  0.2612 -124.5
 1.440  0.4891  179.5   6.070   79.6  0.0867   46.8  0.2599 -125.1
 1.460  0.4894  178.8   5.990   79.1  0.0875   46.8  0.2586 -125.7
 1.480  0.4898  178.0   5.911   78.7  0.0882   46.8  0.2573 -126.3
 1.500  0.4903  177.3   5.833   78.2  0.0890   46.8  0.2561 -126.9
 1.520  0.4904  176.6   5.762   77.8  0.0898   46.8  0.2549 -127.5
 1.540  0.4906  175.9   5.692   77.4  0.0905   46.8  0.2537 -128.1
 1.560  0.4909  175.2   5.622   77.0  0.0913   46.8  0.2525 -128.7
 1.580  0.4913  174.5   5.552   76.6  0.0920   46.8  0.2514 -129.3
 1.600  0.4917  173.8   5.483   76.2  0.0928   46.8  0.2503 -129.9
 1.620  0.4919  173.2   5.421   75.8  0.0936   46.8  0.2494 -130.4
 1.640  0.4922  172.6   5.359   75.4  0.0944   46.8  0.2484 -131.0
 1.660  0.4926  171.9   5.298   75.0  0.0951   46.7  0.2475 -131.5
 1.680  0.4930  171.3   5.237   74.5  0.0959   46.7  0.2467 -132.1
 1.700  0.4935  170.7   5.176   74.1  0.0967   46.7  0.2458 -132.6
 1.720  0.4939  170.1   5.120   73.7  0.0975   46.7  0.2450 -133.1
 1.740  0.4944  169.5   5.064   73.3  0.0983   46.7  0.2443 -133.7
 1.760  0.4949  168.9   5.009   72.9  0.0991   46.6  0.2436 -134.2
 1.780  0.4955  168.3   4.954   72.5  0.0999   46.6  0.2429 -134.8
 1.800  0.4961  167.7   4.899   72.1  0.1007   46.6  0.2422 -135.3
 1.820  0.4965  167.1   4.850   71.7  0.1015   46.5  0.2415 -135.8
 1.840  0.4969  166.5   4.800   71.4  0.1023   46.5  0.2409 -136.3
 1.860  0.4974  165.9   4.751   71.0  0.1030   46.4  0.2403 -136.9
 1.880  0.4979  165.3   4.703   70.6  0.1038   46.4  0.2397 -137.4
 1.900  0.4985  164.7   4.654   70.2  0.1046   46.3  0.2391 -137.9
 1.920  0.4991  164.1   4.609   69.8  0.1054   46.3  0.2386 -138.4
 1.940  0.4997  163.5   4.564   69.4  0.1062   46.2  0.2381 -138.9
 1.960  0.5003  163.0   4.520   69.0  0.1069   46.2  0.2377 -139.4
 1.980  0.5010  162.4   4.475   68.6  0.1077   46.1  0.2372 -139.9
 2.000  0.5018  161.8   4.431   68.2  0.1085   46.1  0.2368 -140.4
 2.020  0.5023  161.3   4.391   67.9  0.1093   46.0  0.2364 -140.9
 2.040  0.5028  160.7   4.351   67.5  0.1101   46.0  0.2361 -141.4
 2.060  0.5034  160.2   4.310   67.2  0.1108   45.9  0.2358 -141.9
 2.080  0.5040  159.7   4.271   66.8  0.1116   45.8  0.2355 -142.4
 2.100  0.5046  159.1   4.231   66.5  0.1124   45.7  0.2352 -142.9
 2.120  0.5053  158.6   4.191   66.1  0.1132   45.7  0.2349 -143.4
 2.140  0.5060  158.1   4.152   65.8  0.1140   45.6  0.2346 -144.0
 2.160  0.5068  157.5   4.113   65.4  0.1147   45.5  0.2344 -144.5
 2.180  0.5076  157.0   4.074   65.0  0.1155   45.5  0.2342 -145.0
 2.200  0.5085  156.5   4.035   64.6  0.1163   45.4  0.2340 -145.5
 2.220  0.5093  156.0   4.002   64.3  0.1171   45.3  0.2339 -146.0
 2.240  0.5101  155.5   3.968   63.9  0.1179   45.2  0.2338 -146.5
 2.260  0.5109  155.0   3.935   63.6  0.1186   45.1  0.2337 -147.0
 2.280  0.5118  154.5   3.902   63.2  0.1194   45.0  0.2336 -147.5
 2.300  0.5127  154.0   3.869   62.8  0.1202   44.9  0.2335 -148.0
 2.320  0.5137  153.5   3.837   62.5  0.1210   44.8  0.2335 -148.5
 2.340  0.5147  153.1   3.804   62.1  0.1218   44.8  0.2335 -149.0
 2.360  0.5157  152.6   3.772   61.7  0.1225   44.7  0.2335 -149.5
 2.380  0.5168  152.1   3.740   61.3  0.1233   44.6  0.2335 -150.0
 2.400  0.5179  151.6   3.708   60.9  0.1241   44.5  0.2335 -150.5
 2.420  0.5187  151.1   3.679   60.6  0.1249   44.4  0.2336 -151.0
 2.440  0.5195  150.6   3.650   60.3  0.1256   44.3  0.2338 -151.5
 2.460  0.5203  150.2   3.622   59.9  0.1264   44.2  0.2339 -152.0
 2.480  0.5212  149.7   3.593   59.6  0.1271   44.1  0.2341 -152.5
 2.500  0.5221  149.2   3.564   59.3  0.1279   44.0  0.2343 -153.0
 2.520  0.5230  148.8   3.536   58.9  0.1287   43.9  0.2345 -153.5
 2.540  0.5240  148.3   3.508   58.6  0.1294   43.8  0.2347 -153.9
 2.560  0.5250  147.8   3.480   58.2  0.1302   43.7  0.2350 -154.4
 2.580  0.5260  147.4   3.452   57.9  0.1309   43.6  0.2352 -154.9
 2.600  0.5271  146.9   3.424   57.5  0.1317   43.5  0.2355 -155.4
 2.620  0.5278  146.5   3.399   57.2  0.1324   43.4  0.2358 -155.9
 2.640  0.5286  146.0   3.374   56.9  0.1332   43.3  0.2362 -156.3
 2.660  0.5294  145.6   3.350   56.5  0.1339   43.2  0.2366 -156.8
 2.680  0.5302  145.2   3.325   56.2  0.1347   43.0  0.2370 -157.2
 2.700  0.5311  144.7   3.301   55.9  0.1354   42.9  0.2374 -157.7
 2.720  0.5320  144.3   3.276   55.5  0.1361   42.8  0.2378 -158.1
 2.740  0.5329  143.9   3.252   55.2  0.1369   42.7  0.2382 -158.6
 2.760  0.5338  143.4   3.228   54.8  0.1376   42.6  0.2387 -159.0
 2.780  0.5348  143.0   3.204   54.5  0.1384   42.5  0.2391 -159.5
 2.800  0.5358  142.6   3.180   54.1  0.1391   42.4  0.2396 -159.9
 2.820  0.5367  142.2   3.158   53.8  0.1398   42.3  0.2400 -160.3
 2.840  0.5376  141.8   3.136   53.5  0.1406   42.2  0.2405 -160.8
 2.860  0.5385  141.4   3.114   53.2  0.1413   42.0  0.2410 -161.2
 2.880  0.5395  140.9   3.093   52.8  0.1420   41.9  0.2415 -161.6
 2.900  0.5405  140.5   3.071   52.5  0.1427   41.8  0.2420 -162.1
 2.920  0.5415  140.1   3.050   52.2  0.1435   41.7  0.2425 -162.5
 2.940  0.5425  139.7   3.028   51.8  0.1442   41.5  0.2430 -162.9
 2.960  0.5436  139.3   3.007   51.5  0.1449   41.4  0.2436 -163.4
 2.980  0.5447  138.9   2.986   51.2  0.1457   41.3  0.2441 -163.8
 3.000  0.5458  138.5   2.965   50.8  0.1464   41.2  0.2447 -164.2
 3.100  0.5497  136.6   2.875   49.4  0.1498   40.5  0.2474 -166.2
 3.200  0.5542  134.6   2.786   48.0  0.1533   39.7  0.2504 -168.1
 3.300  0.5594  132.8   2.699   46.4  0.1568   39.1  0.2537 -170.0
 3.400  0.5651  130.9   2.614   44.8  0.1603   38.4  0.2573 -171.8
 3.500  0.5714  129.1   2.532   43.0  0.1638   37.8  0.2611 -173.6
 3.600  0.5764  127.4   2.463   41.7  0.1669   37.1  0.2647 -175.6
 3.700  0.5818  125.7   2.395   40.3  0.1700   36.4  0.2686 -177.4
 3.800  0.5878  124.1   2.329   38.9  0.1731   35.7  0.2727 -179.3
 3.900  0.5942  122.5   2.264   37.3  0.1762   35.0  0.2772  178.9
 4.000  0.6011  120.9   2.201   35.7  0.1794   34.4  0.2819  177.2
 4.100  0.6063  119.5   2.146   34.5  0.1822   33.7  0.2869  175.5
 4.200  0.6118  118.2   2.092   33.2  0.1850   33.0  0.2922  173.8
 4.300  0.6176  116.9   2.040   31.9  0.1878   32.4  0.2978  172.2
 4.400  0.6238  115.6   1.988   30.5  0.1907   31.7  0.3035  170.6
 4.500  0.6303  114.3   1.938   29.0  0.1936   31.1  0.3095  169.1
 4.600  0.6340  113.1   1.895   27.9  0.1963   30.5  0.3137  167.9
 4.700  0.6380  111.9   1.853   26.7  0.1991   29.9  0.3179  166.7
 4.800  0.6422  110.7   1.812   25.5  0.2018   29.4  0.3224  165.5
 4.900  0.6468  109.5   1.771   24.2  0.2046   28.8  0.3269  164.4
 5.000  0.6516  108.3   1.732   22.9  0.2074   28.3  0.3316  163.3
 5.100  0.6543  107.3   1.699   21.9  0.2105   27.7  0.3344  162.4
 5.200  0.6573  106.3   1.667   20.8  0.2135   27.0  0.3373  161.5
 5.300  0.6604  105.3   1.636   19.7  0.2166   26.4  0.3402  160.6
 5.400  0.6638  104.3   1.605   18.5  0.2198   25.9  0.3433  159.7
 5.500  0.6673  103.3   1.575   17.3  0.2229   25.3  0.3464  158.9
 5.600  0.6694  102.5   1.549   16.3  0.2257   24.5  0.3498  158.0
 5.700  0.6716  101.6   1.524   15.2  0.2286   23.8  0.3533  157.2
 5.800  0.6739  100.8   1.499   14.1  0.2316   23.1  0.3568  156.4
 5.900  0.6764  100.0   1.475   12.9  0.2345   22.4  0.3604  155.6
 6.000  0.6790   99.2   1.451   11.7  0.2375   21.7  0.3641  154.8
 6.100  0.6794   98.4   1.429   10.7  0.2400   21.0  0.3663  154.2
 6.200  0.6800   97.5   1.408    9.6  0.2425   20.4  0.3686  153.7
 6.300  0.6807   96.7   1.387    8.6  0.2450   19.7  0.3709  153.2
 6.400  0.6815   95.8   1.366    7.4  0.2476   19.1  0.3732  152.6
 6.500  0.6825   95.0   1.346    6.3  0.2502   18.5  0.3756  152.1
 6.600  0.6819   94.1   1.329    5.3  0.2531   17.9  0.3752  151.7
 6.800  0.6811   92.2   1.296    3.4  0.2590   16.6  0.3744  150.9
 7.000  0.6811   90.3   1.265    1.3  0.2650   15.4  0.3737  150.1
 7.200  0.6828   88.0   1.239   -0.8  0.2714   13.9  0.3733  148.6
 7.400  0.6855   85.8   1.214   -3.1  0.2780   12.4  0.3732  147.1
 7.600  0.6895   83.4   1.190   -5.4  0.2843   10.8  0.3749  145.1
 7.800  0.6950   80.9   1.166   -7.8  0.2903    8.9  0.3786  142.8
 8.000  0.7019   78.4   1.144  -10.3  0.2966    7.2  0.3830  140.6
 8.200  0.7073   75.7   1.115  -12.7  0.3006    5.1  0.3873  137.7
 8.400  0.7143   73.1   1.088  -15.2  0.3051    3.1  0.3925  135.0
 8.600  0.7232   70.6   1.059  -17.6  0.3078    1.1  0.3991  131.6
 8.800  0.7341   68.2   1.029  -19.9  0.3088   -1.0  0.4077  127.6
 9.000  0.7461   65.9   1.001  -22.3  0.3102   -3.0  0.4182  123.8
 9.200  0.7618   64.0   0.968  -24.1  0.3089   -4.6  0.4345  119.5
 9.400  0.7783   62.1   0.936  -26.1  0.3079   -6.1  0.4531  115.5
 9.600  0.7926   60.4   0.905  -27.8  0.3068   -7.4  0.4723  112.0
 9.800  0.8046   58.9   0.874  -29.2  0.3053   -8.3  0.4914  108.9
10.000  0.8171   57.4   0.844  -30.8  0.3040   -9.2  0.5119  106.1
!
!  f       NFmin   Gammaopt  rn/50
! GHz       dB    MAG  ANG    -
 0.450      1.03  0.09   22   0.14
 1.900      1.19  0.09 -179   0.12
 3.500      1.20  0.36 -133   0.12
!
! (c) 2016  Infineon Technologies AG, Munich
