! Infineon Technologies  Discrete & RF Semiconductors
! BFP460
! VCE =  2.5 V,  IC =  1.0 mA
! Common Emitter S-Parameters:                            Jan 2016
# GHz  S  MA  R  50
!  f         S11            S21            S12            S22
! GHz     MAG   ANG      MAG   ANG      MAG   ANG      MAG   ANG
 0.030  0.9718   -2.6   3.684  178.4  0.0065   86.9  0.9978   -1.5
 0.035  0.9713   -3.0   3.678  178.0  0.0075   87.4  0.9975   -1.7
 0.040  0.9708   -3.4   3.672  177.5  0.0085   87.7  0.9973   -1.9
 0.045  0.9709   -3.7   3.664  176.9  0.0096   86.9  0.9972   -2.1
 0.050  0.9711   -3.9   3.657  176.2  0.0108   86.3  0.9971   -2.3
 0.055  0.9720   -4.6   3.658  176.0  0.0118   86.7  0.9968   -2.5
 0.060  0.9731   -5.3   3.660  175.8  0.0128   87.1  0.9966   -2.8
 0.065  0.9699   -5.7   3.676  175.3  0.0139   86.7  0.9965   -3.0
 0.070  0.9667   -6.2   3.692  174.9  0.0150   86.3  0.9965   -3.3
 0.075  0.9692   -6.5   3.683  174.9  0.0160   85.8  0.9963   -3.5
 0.080  0.9718   -6.8   3.674  174.8  0.0170   85.4  0.9962   -3.7
 0.085  0.9708   -7.3   3.678  174.4  0.0181   84.9  0.9959   -3.9
 0.090  0.9699   -7.8   3.682  174.0  0.0192   84.5  0.9956   -4.2
 0.095  0.9697   -8.2   3.672  173.7  0.0202   84.4  0.9953   -4.4
 0.100  0.9696   -8.6   3.662  173.4  0.0212   84.4  0.9950   -4.7
 0.105  0.9697   -9.0   3.664  173.1  0.0223   84.0  0.9946   -4.9
 0.110  0.9698   -9.4   3.666  172.9  0.0234   83.7  0.9943   -5.1
 0.115  0.9691   -9.9   3.671  172.5  0.0244   83.5  0.9939   -5.3
 0.120  0.9685  -10.4   3.676  172.1  0.0255   83.4  0.9936   -5.6
 0.125  0.9687  -10.8   3.674  171.8  0.0265   82.9  0.9933   -5.8
 0.130  0.9690  -11.1   3.673  171.5  0.0276   82.5  0.9930   -6.1
 0.135  0.9687  -11.5   3.676  171.1  0.0286   82.3  0.9927   -6.3
 0.140  0.9684  -12.0   3.679  170.8  0.0297   82.2  0.9925   -6.5
 0.145  0.9675  -12.4   3.672  170.4  0.0307   81.9  0.9919   -6.7
 0.150  0.9666  -12.9   3.666  170.0  0.0318   81.6  0.9914   -7.0
 0.155  0.9660  -13.3   3.665  169.7  0.0328   81.3  0.9909   -7.2
 0.160  0.9655  -13.7   3.664  169.4  0.0339   80.9  0.9904   -7.5
 0.165  0.9650  -14.2   3.664  169.0  0.0349   80.6  0.9899   -7.7
 0.170  0.9645  -14.6   3.663  168.7  0.0360   80.3  0.9895   -7.9
 0.175  0.9642  -15.0   3.663  168.4  0.0370   80.1  0.9891   -8.1
 0.180  0.9638  -15.4   3.662  168.1  0.0380   79.8  0.9886   -8.4
 0.185  0.9635  -15.8   3.662  167.8  0.0391   79.6  0.9882   -8.6
 0.190  0.9633  -16.3   3.662  167.4  0.0401   79.3  0.9878   -8.8
 0.195  0.9631  -16.7   3.662  167.1  0.0412   79.1  0.9875   -9.1
 0.200  0.9630  -17.1   3.662  166.8  0.0422   78.9  0.9871   -9.3
 0.220  0.9609  -18.8   3.650  165.5  0.0462   77.6  0.9846  -10.2
 0.240  0.9597  -20.5   3.640  164.2  0.0503   76.6  0.9823  -11.1
 0.260  0.9575  -22.1   3.629  163.0  0.0543   75.5  0.9797  -12.0
 0.280  0.9543  -23.8   3.617  161.7  0.0582   74.4  0.9768  -12.9
 0.300  0.9520  -25.5   3.606  160.4  0.0622   73.5  0.9741  -13.8
 0.320  0.9483  -27.1   3.593  159.1  0.0660   72.3  0.9706  -14.7
 0.340  0.9454  -28.8   3.581  157.8  0.0699   71.3  0.9674  -15.6
 0.360  0.9422  -30.4   3.566  156.6  0.0736   70.2  0.9639  -16.4
 0.380  0.9386  -32.1   3.548  155.3  0.0773   69.1  0.9601  -17.3
 0.400  0.9359  -33.7   3.532  154.1  0.0810   68.1  0.9566  -18.2
 0.420  0.9319  -35.3   3.514  152.8  0.0846   67.0  0.9527  -19.0
 0.440  0.9286  -37.0   3.498  151.5  0.0882   66.0  0.9490  -19.9
 0.450  0.9273  -37.8   3.491  150.9  0.0900   65.5  0.9472  -20.3
 0.460  0.9249  -38.6   3.481  150.3  0.0917   65.0  0.9449  -20.7
 0.480  0.9206  -40.1   3.462  149.2  0.0951   64.0  0.9403  -21.5
 0.500  0.9170  -41.7   3.445  148.0  0.0985   63.1  0.9360  -22.3
 0.520  0.9117  -43.2   3.422  146.8  0.1016   62.0  0.9313  -23.1
 0.540  0.9070  -44.8   3.401  145.6  0.1048   61.0  0.9267  -23.8
 0.560  0.9030  -46.3   3.382  144.4  0.1079   60.0  0.9223  -24.6
 0.580  0.8996  -47.9   3.364  143.2  0.1112   59.1  0.9181  -25.4
 0.600  0.8970  -49.5   3.347  142.0  0.1144   58.2  0.9141  -26.2
 0.620  0.8913  -51.0   3.323  140.9  0.1172   57.2  0.9088  -26.9
 0.640  0.8862  -52.5   3.299  139.7  0.1200   56.2  0.9037  -27.7
 0.660  0.8817  -54.0   3.278  138.6  0.1228   55.3  0.8988  -28.5
 0.680  0.8778  -55.6   3.257  137.4  0.1257   54.4  0.8940  -29.2
 0.700  0.8746  -57.1   3.238  136.2  0.1286   53.6  0.8894  -30.0
 0.720  0.8689  -58.5   3.213  135.2  0.1310   52.7  0.8841  -30.7
 0.740  0.8638  -60.0   3.189  134.1  0.1335   51.8  0.8790  -31.4
 0.760  0.8592  -61.5   3.166  133.0  0.1360   50.9  0.8740  -32.1
 0.780  0.8553  -63.0   3.145  131.9  0.1385   50.1  0.8691  -32.8
 0.800  0.8519  -64.5   3.124  130.8  0.1411   49.3  0.8644  -33.5
 0.820  0.8468  -65.9   3.100  129.8  0.1433   48.4  0.8591  -34.1
 0.840  0.8421  -67.3   3.077  128.8  0.1454   47.6  0.8540  -34.8
 0.860  0.8380  -68.7   3.054  127.8  0.1477   46.8  0.8489  -35.4
 0.880  0.8343  -70.1   3.033  126.7  0.1499   46.0  0.8439  -36.0
 0.900  0.8312  -71.5   3.013  125.7  0.1522   45.2  0.8391  -36.7
 0.920  0.8257  -72.8   2.989  124.7  0.1541   44.4  0.8340  -37.3
 0.940  0.8206  -74.2   2.966  123.8  0.1560   43.6  0.8290  -37.9
 0.960  0.8160  -75.5   2.944  122.8  0.1579   42.9  0.8241  -38.5
 0.980  0.8118  -76.9   2.923  121.8  0.1598   42.1  0.8193  -39.2
 1.000  0.8081  -78.3   2.903  120.8  0.1618   41.4  0.8146  -39.8
 1.020  0.8032  -79.6   2.879  119.9  0.1634   40.7  0.8098  -40.4
 1.040  0.7987  -80.9   2.857  119.0  0.1650   39.9  0.8050  -40.9
 1.060  0.7946  -82.2   2.835  118.0  0.1666   39.2  0.8004  -41.5
 1.080  0.7909  -83.6   2.813  117.1  0.1683   38.5  0.7958  -42.1
 1.100  0.7877  -84.9   2.793  116.1  0.1700   37.8  0.7913  -42.7
 1.120  0.7831  -86.1   2.770  115.2  0.1714   37.1  0.7867  -43.2
 1.140  0.7788  -87.4   2.748  114.3  0.1728   36.4  0.7821  -43.7
 1.160  0.7749  -88.6   2.726  113.4  0.1742   35.7  0.7777  -44.2
 1.180  0.7714  -89.9   2.705  112.5  0.1756   35.1  0.7733  -44.8
 1.200  0.7683  -91.2   2.685  111.6  0.1771   34.4  0.7689  -45.3
 1.220  0.7643  -92.4   2.664  110.8  0.1783   33.7  0.7645  -45.8
 1.240  0.7606  -93.6   2.643  110.0  0.1794   33.1  0.7601  -46.3
 1.260  0.7573  -94.9   2.623  109.1  0.1806   32.5  0.7558  -46.8
 1.280  0.7543  -96.1   2.603  108.3  0.1819   31.8  0.7516  -47.3
 1.300  0.7517  -97.4   2.584  107.4  0.1831   31.2  0.7474  -47.8
 1.320  0.7477  -98.6   2.563  106.6  0.1840   30.6  0.7432  -48.3
 1.340  0.7439  -99.7   2.543  105.8  0.1850   30.0  0.7390  -48.7
 1.360  0.7405 -100.9   2.524  105.0  0.1860   29.4  0.7349  -49.2
 1.380  0.7374 -102.1   2.505  104.1  0.1870   28.8  0.7309  -49.7
 1.400  0.7346 -103.3   2.486  103.3  0.1880   28.2  0.7269  -50.2
 1.420  0.7310 -104.4   2.467  102.5  0.1888   27.7  0.7231  -50.6
 1.440  0.7277 -105.6   2.448  101.7  0.1896   27.1  0.7194  -51.1
 1.460  0.7247 -106.8   2.430  100.9  0.1904   26.6  0.7157  -51.5
 1.480  0.7220 -107.9   2.412  100.1  0.1912   26.0  0.7120  -52.0
 1.500  0.7196 -109.1   2.395   99.3  0.1921   25.5  0.7084  -52.4
 1.520  0.7160 -110.2   2.377   98.6  0.1927   25.0  0.7047  -52.8
 1.540  0.7128 -111.4   2.359   97.8  0.1934   24.4  0.7010  -53.2
 1.560  0.7098 -112.5   2.342   97.1  0.1940   23.9  0.6974  -53.6
 1.580  0.7070 -113.6   2.325   96.3  0.1947   23.3  0.6938  -54.1
 1.600  0.7046 -114.8   2.309   95.5  0.1954   22.8  0.6902  -54.5
 1.620  0.7019 -115.8   2.292   94.8  0.1960   22.3  0.6872  -54.9
 1.640  0.6995 -116.9   2.275   94.1  0.1966   21.8  0.6842  -55.3
 1.660  0.6973 -117.9   2.259   93.4  0.1972   21.3  0.6813  -55.7
 1.680  0.6953 -118.9   2.243   92.6  0.1978   20.8  0.6784  -56.1
 1.700  0.6936 -120.0   2.227   91.9  0.1984   20.3  0.6755  -56.5
 1.720  0.6911 -121.0   2.211   91.2  0.1988   19.8  0.6724  -56.9
 1.740  0.6889 -122.1   2.195   90.6  0.1992   19.3  0.6693  -57.3
 1.760  0.6869 -123.2   2.180   89.9  0.1996   18.9  0.6662  -57.7
 1.780  0.6851 -124.2   2.165   89.2  0.2001   18.4  0.6632  -58.1
 1.800  0.6836 -125.3   2.150   88.5  0.2005   17.9  0.6602  -58.5
 1.820  0.6813 -126.3   2.135   87.8  0.2008   17.5  0.6572  -58.9
 1.840  0.6793 -127.3   2.121   87.2  0.2010   17.0  0.6543  -59.2
 1.860  0.6774 -128.3   2.107   86.5  0.2013   16.6  0.6514  -59.6
 1.880  0.6758 -129.4   2.093   85.8  0.2016   16.1  0.6485  -60.0
 1.900  0.6744 -130.4   2.080   85.1  0.2019   15.7  0.6456  -60.4
 1.920  0.6723 -131.4   2.066   84.4  0.2021   15.3  0.6429  -60.8
 1.940  0.6704 -132.4   2.052   83.8  0.2023   14.9  0.6403  -61.1
 1.960  0.6687 -133.4   2.038   83.1  0.2025   14.4  0.6377  -61.5
 1.980  0.6672 -134.5   2.025   82.4  0.2028   14.0  0.6351  -61.8
 2.000  0.6659 -135.5   2.012   81.7  0.2030   13.6  0.6326  -62.2
 2.020  0.6638 -136.5   1.998   81.1  0.2030   13.2  0.6301  -62.5
 2.040  0.6620 -137.4   1.985   80.5  0.2031   12.8  0.6277  -62.9
 2.060  0.6603 -138.4   1.971   79.9  0.2032   12.4  0.6253  -63.3
 2.080  0.6588 -139.3   1.958   79.3  0.2032   12.0  0.6229  -63.6
 2.100  0.6574 -140.3   1.945   78.7  0.2033   11.6  0.6205  -64.0
 2.120  0.6563 -141.3   1.932   78.0  0.2034   11.2  0.6181  -64.3
 2.140  0.6554 -142.3   1.920   77.4  0.2035   10.8  0.6158  -64.7
 2.160  0.6546 -143.2   1.908   76.7  0.2036   10.4  0.6135  -65.1
 2.180  0.6541 -144.2   1.896   76.1  0.2038   10.0  0.6112  -65.4
 2.200  0.6537 -145.2   1.884   75.4  0.2039    9.6  0.6090  -65.8
 2.220  0.6523 -146.1   1.872   74.8  0.2038    9.2  0.6068  -66.1
 2.240  0.6510 -147.0   1.860   74.2  0.2036    8.9  0.6046  -66.5
 2.260  0.6499 -147.9   1.848   73.6  0.2035    8.5  0.6024  -66.9
 2.280  0.6489 -148.8   1.836   73.1  0.2034    8.1  0.6003  -67.2
 2.300  0.6481 -149.7   1.824   72.4  0.2033    7.8  0.5982  -67.6
 2.320  0.6475 -150.6   1.813   71.8  0.2032    7.4  0.5961  -67.9
 2.340  0.6470 -151.6   1.802   71.2  0.2031    7.0  0.5940  -68.3
 2.360  0.6467 -152.5   1.791   70.6  0.2030    6.6  0.5919  -68.7
 2.380  0.6466 -153.4   1.780   69.9  0.2030    6.3  0.5899  -69.0
 2.400  0.6466 -154.3   1.770   69.3  0.2029    5.9  0.5879  -69.4
 2.420  0.6455 -155.2   1.759   68.8  0.2027    5.6  0.5860  -69.7
 2.440  0.6446 -156.0   1.748   68.2  0.2024    5.2  0.5841  -70.1
 2.460  0.6439 -156.9   1.737   67.7  0.2022    4.9  0.5823  -70.5
 2.480  0.6433 -157.8   1.727   67.1  0.2020    4.6  0.5804  -70.8
 2.500  0.6428 -158.7   1.716   66.5  0.2018    4.3  0.5786  -71.2
 2.520  0.6425 -159.6   1.706   66.0  0.2016    3.9  0.5768  -71.5
 2.540  0.6423 -160.5   1.696   65.4  0.2014    3.6  0.5751  -71.9
 2.560  0.6423 -161.3   1.686   64.8  0.2012    3.3  0.5733  -72.3
 2.580  0.6425 -162.2   1.677   64.2  0.2010    2.9  0.5716  -72.6
 2.600  0.6428 -163.1   1.667   63.6  0.2008    2.6  0.5699  -73.0
 2.620  0.6420 -163.9   1.657   63.1  0.2004    2.3  0.5684  -73.4
 2.640  0.6414 -164.7   1.647   62.6  0.2001    2.0  0.5669  -73.7
 2.660  0.6408 -165.5   1.637   62.0  0.1997    1.7  0.5655  -74.1
 2.680  0.6404 -166.3   1.628   61.5  0.1994    1.4  0.5640  -74.5
 2.700  0.6401 -167.1   1.618   61.0  0.1990    1.1  0.5626  -74.8
 2.720  0.6400 -168.0   1.609   60.4  0.1987    0.8  0.5612  -75.2
 2.740  0.6400 -168.8   1.600   59.9  0.1984    0.4  0.5599  -75.6
 2.760  0.6401 -169.6   1.591   59.3  0.1980    0.1  0.5585  -75.9
 2.780  0.6403 -170.4   1.582   58.8  0.1977   -0.2  0.5572  -76.3
 2.800  0.6407 -171.2   1.573   58.2  0.1974   -0.5  0.5559  -76.7
 2.820  0.6404 -172.0   1.564   57.7  0.1969   -0.8  0.5545  -77.1
 2.840  0.6401 -172.7   1.555   57.2  0.1964   -1.0  0.5532  -77.4
 2.860  0.6400 -173.5   1.546   56.7  0.1959   -1.3  0.5518  -77.8
 2.880  0.6400 -174.2   1.537   56.2  0.1954   -1.5  0.5505  -78.2
 2.900  0.6401 -175.0   1.528   55.6  0.1949   -1.8  0.5492  -78.5
 2.920  0.6403 -175.8   1.520   55.1  0.1945   -2.0  0.5479  -78.9
 2.940  0.6406 -176.5   1.511   54.6  0.1940   -2.3  0.5467  -79.3
 2.960  0.6411 -177.3   1.503   54.0  0.1935   -2.6  0.5455  -79.6
 2.980  0.6416 -178.0   1.495   53.5  0.1931   -2.8  0.5443  -80.0
 3.000  0.6423 -178.8   1.487   52.9  0.1926   -3.1  0.5431  -80.4
 3.100  0.6398  177.7   1.445   50.7  0.1895   -4.1  0.5378  -82.2
 3.200  0.6396  174.2   1.404   48.5  0.1865   -5.1  0.5331  -84.1
 3.300  0.6418  170.7   1.367   46.0  0.1835   -6.2  0.5290  -86.0
 3.400  0.6464  167.3   1.331   43.5  0.1806   -7.3  0.5254  -87.9
 3.500  0.6533  163.9   1.299   40.8  0.1777   -8.4  0.5224  -89.8
 3.600  0.6541  160.9   1.265   38.9  0.1742   -8.8  0.5186  -91.7
 3.700  0.6567  157.9   1.232   36.8  0.1707   -9.3  0.5155  -93.7
 3.800  0.6611  154.9   1.201   34.6  0.1672   -9.8  0.5129  -95.6
 3.900  0.6672  152.0   1.172   32.4  0.1637  -10.3  0.5109  -97.6
 4.000  0.6751  149.1   1.145   30.0  0.1602  -10.8  0.5096  -99.6
 4.100  0.6775  146.7   1.116   28.2  0.1569  -10.7  0.5085 -101.8
 4.200  0.6811  144.2   1.088   26.4  0.1535  -10.6  0.5081 -103.9
 4.300  0.6860  141.9   1.062   24.4  0.1502  -10.5  0.5085 -106.1
 4.400  0.6920  139.5   1.037   22.4  0.1468  -10.3  0.5096 -108.3
 4.500  0.6991  137.2   1.013   20.2  0.1435  -10.2  0.5114 -110.4
 4.600  0.7018  135.2   0.989   18.6  0.1409   -9.4  0.5130 -112.5
 4.700  0.7053  133.3   0.965   17.0  0.1383   -8.5  0.5153 -114.7
 4.800  0.7097  131.4   0.942   15.3  0.1357   -7.7  0.5183 -116.8
 4.900  0.7148  129.5   0.920   13.5  0.1332   -6.7  0.5220 -118.9
 5.000  0.7207  127.6   0.899   11.6  0.1307   -5.8  0.5264 -120.9
 5.100  0.7234  126.0   0.879   10.3  0.1298   -4.5  0.5292 -122.8
 5.200  0.7266  124.4   0.859    8.9  0.1290   -3.1  0.5326 -124.7
 5.300  0.7304  122.8   0.840    7.5  0.1282   -1.7  0.5366 -126.6
 5.400  0.7348  121.2   0.822    6.0  0.1275   -0.3  0.5412 -128.5
 5.500  0.7397  119.7   0.804    4.5  0.1269    1.1  0.5463 -130.3
 5.600  0.7425  118.4   0.788    3.4  0.1277    2.5  0.5498 -132.3
 5.700  0.7457  117.0   0.773    2.2  0.1286    3.9  0.5539 -134.3
 5.800  0.7493  115.7   0.758    0.9  0.1295    5.2  0.5587 -136.2
 5.900  0.7532  114.4   0.743   -0.4  0.1305    6.6  0.5642 -138.1
 6.000  0.7576  113.1   0.729   -1.7  0.1316    7.9  0.5702 -140.0
 6.100  0.7581  111.9   0.715   -2.7  0.1337    9.1  0.5739 -141.8
 6.200  0.7588  110.7   0.702   -3.7  0.1358   10.2  0.5782 -143.5
 6.300  0.7600  109.5   0.689   -4.8  0.1380   11.3  0.5830 -145.2
 6.400  0.7614  108.3   0.676   -5.9  0.1402   12.4  0.5883 -146.9
 6.500  0.7632  107.1   0.663   -7.1  0.1425   13.4  0.5941 -148.6
 6.600  0.7630  105.9   0.652   -7.9  0.1459   14.3  0.5965 -149.9
 6.800  0.7636  103.4   0.631   -9.6  0.1527   15.8  0.6022 -152.6
 7.000  0.7656  100.9   0.610  -11.4  0.1597   17.3  0.6092 -155.2
 7.200  0.7679   98.0   0.594  -13.0  0.1691   17.8  0.6108 -158.0
 7.400  0.7721   95.2   0.579  -14.6  0.1784   18.3  0.6138 -160.8
 7.600  0.7768   92.2   0.565  -16.3  0.1883   18.2  0.6168 -163.9
 7.800  0.7824   89.0   0.552  -18.0  0.1988   17.6  0.6204 -167.3
 8.000  0.7905   85.8   0.540  -19.8  0.2093   17.1  0.6260 -170.6
 8.200  0.7932   82.4   0.526  -21.4  0.2193   15.6  0.6273 -174.5
 8.400  0.7987   79.1   0.513  -23.1  0.2295   14.2  0.6314 -178.3
 8.600  0.8052   75.9   0.501  -24.7  0.2382   12.5  0.6333  177.6
 8.800  0.8124   72.8   0.488  -26.0  0.2457   10.5  0.6337  173.2
 9.000  0.8218   69.8   0.476  -27.5  0.2535    8.7  0.6378  168.8
 9.200  0.8320   67.4   0.463  -28.7  0.2580    6.9  0.6412  163.4
 9.400  0.8437   65.1   0.450  -30.0  0.2628    5.1  0.6501  158.2
 9.600  0.8534   63.1   0.437  -31.1  0.2667    3.6  0.6612  153.0
 9.800  0.8609   61.3   0.424  -32.0  0.2695    2.3  0.6744  148.1
10.000  0.8693   59.5   0.410  -32.9  0.2725    1.0  0.6924  143.3
!
!  f       NFmin   Gammaopt  rn/50
! GHz       dB    MAG  ANG    -
 0.450      0.69  0.73   19   0.45
 0.900      0.78  0.68   41   0.42
 1.900      1.48  0.47   96   0.28
 3.500      2.50  0.41 -173   0.14
!
! (c) 2016  Infineon Technologies AG, Munich
