! Infineon Technologies  Discrete & RF Semiconductors
! BFP460
! VCE =  3.0 V,  IC =  20 mA
! Common Emitter S-Parameters:                            Jan 2016
# GHz  S  MA  R  50
!  f         S11            S21            S12            S22
! GHz     MAG   ANG      MAG   ANG      MAG   ANG      MAG   ANG
 0.030  0.6147  -14.1  45.245  171.2  0.0051   83.7  0.9533   -8.9
 0.035  0.6118  -16.3  45.015  169.8  0.0059   82.8  0.9502  -10.3
 0.040  0.6098  -18.6  44.814  168.3  0.0067   82.2  0.9477  -11.8
 0.045  0.6079  -20.9  44.454  166.9  0.0073   81.1  0.9429  -13.1
 0.050  0.6070  -23.2  44.122  165.4  0.0079   80.1  0.9387  -14.5
 0.055  0.6043  -25.5  43.874  164.2  0.0088   79.3  0.9339  -15.9
 0.060  0.6027  -27.9  43.646  163.0  0.0097   78.6  0.9296  -17.4
 0.065  0.6006  -30.2  43.459  161.6  0.0104   77.5  0.9237  -18.8
 0.070  0.5996  -32.6  43.297  160.2  0.0112   76.6  0.9184  -20.2
 0.075  0.5988  -34.7  42.946  159.2  0.0119   75.7  0.9118  -21.6
 0.080  0.5989  -36.8  42.609  158.1  0.0127   74.9  0.9057  -23.0
 0.085  0.5955  -39.0  42.240  156.8  0.0133   74.1  0.8983  -24.3
 0.090  0.5931  -41.3  41.892  155.5  0.0140   73.4  0.8914  -25.6
 0.095  0.5904  -43.1  41.424  154.4  0.0147   72.5  0.8839  -26.9
 0.100  0.5884  -45.0  40.972  153.3  0.0154   71.6  0.8769  -28.2
 0.105  0.5864  -47.1  40.644  152.2  0.0160   70.9  0.8687  -29.4
 0.110  0.5851  -49.2  40.333  151.0  0.0167   70.2  0.8610  -30.7
 0.115  0.5817  -51.3  39.932  149.9  0.0172   69.4  0.8529  -31.9
 0.120  0.5791  -53.4  39.548  148.7  0.0178   68.7  0.8452  -33.1
 0.125  0.5762  -55.1  39.136  147.7  0.0183   68.1  0.8367  -34.2
 0.130  0.5738  -56.9  38.735  146.7  0.0189   67.6  0.8286  -35.4
 0.135  0.5706  -58.8  38.347  145.7  0.0194   66.9  0.8201  -36.5
 0.140  0.5681  -60.8  37.972  144.6  0.0200   66.3  0.8120  -37.7
 0.145  0.5647  -62.5  37.499  143.6  0.0205   65.7  0.8034  -38.8
 0.150  0.5617  -64.2  37.039  142.5  0.0211   65.1  0.7951  -39.9
 0.155  0.5575  -65.7  36.611  141.7  0.0215   64.5  0.7860  -40.8
 0.160  0.5537  -67.3  36.189  140.9  0.0220   64.0  0.7770  -41.7
 0.165  0.5504  -68.9  35.775  140.1  0.0224   63.4  0.7683  -42.6
 0.170  0.5474  -70.5  35.368  139.3  0.0228   62.9  0.7597  -43.5
 0.175  0.5449  -72.1  34.968  138.4  0.0233   62.4  0.7514  -44.4
 0.180  0.5429  -73.7  34.576  137.6  0.0237   61.9  0.7432  -45.4
 0.185  0.5412  -75.3  34.193  136.7  0.0242   61.5  0.7353  -46.4
 0.190  0.5400  -77.0  33.818  135.8  0.0246   61.0  0.7276  -47.4
 0.195  0.5393  -78.6  33.451  134.8  0.0251   60.6  0.7201  -48.4
 0.200  0.5390  -80.3  33.094  133.9  0.0255   60.2  0.7129  -49.5
 0.220  0.5274  -85.6  31.584  131.3  0.0268   58.8  0.6817  -52.5
 0.240  0.5204  -91.1  30.147  128.4  0.0282   57.5  0.6525  -55.8
 0.260  0.5145  -96.1  28.808  125.9  0.0295   56.4  0.6252  -58.7
 0.280  0.5082 -100.5  27.539  123.6  0.0306   55.6  0.5990  -61.3
 0.300  0.5049 -105.0  26.315  121.2  0.0317   54.8  0.5742  -64.2
 0.320  0.4985 -108.7  25.219  119.4  0.0327   54.2  0.5520  -66.3
 0.340  0.4942 -112.4  24.148  117.5  0.0337   53.7  0.5307  -68.6
 0.360  0.4900 -115.9  23.164  115.8  0.0346   53.2  0.5110  -70.7
 0.380  0.4853 -119.1  22.257  114.2  0.0355   52.8  0.4928  -72.6
 0.400  0.4822 -122.4  21.368  112.5  0.0364   52.5  0.4752  -74.7
 0.420  0.4792 -125.1  20.593  111.2  0.0372   52.4  0.4597  -76.3
 0.440  0.4773 -127.9  19.828  109.8  0.0380   52.3  0.4447  -78.0
 0.450  0.4768 -129.3  19.451  109.1  0.0384   52.2  0.4373  -78.9
 0.460  0.4751 -130.4  19.123  108.6  0.0388   52.2  0.4308  -79.6
 0.480  0.4724 -132.8  18.473  107.4  0.0396   52.1  0.4179  -81.1
 0.500  0.4704 -135.1  17.831  106.2  0.0404   52.1  0.4054  -82.7
 0.520  0.4680 -137.1  17.301  105.3  0.0412   52.1  0.3950  -83.9
 0.540  0.4661 -139.1  16.776  104.4  0.0419   52.2  0.3848  -85.1
 0.560  0.4648 -141.1  16.256  103.4  0.0427   52.2  0.3748  -86.4
 0.580  0.4641 -143.1  15.740  102.3  0.0434   52.3  0.3650  -87.8
 0.600  0.4639 -145.1  15.231  101.2  0.0442   52.3  0.3554  -89.3
 0.620  0.4624 -146.7  14.831  100.5  0.0450   52.4  0.3478  -90.3
 0.640  0.4612 -148.2  14.434   99.7  0.0457   52.5  0.3403  -91.4
 0.660  0.4604 -149.8  14.040   98.9  0.0465   52.6  0.3329  -92.5
 0.680  0.4599 -151.4  13.648   98.1  0.0472   52.7  0.3256  -93.7
 0.700  0.4598 -153.0  13.260   97.2  0.0480   52.8  0.3185  -94.9
 0.720  0.4591 -154.3  12.951   96.6  0.0488   52.9  0.3128  -95.8
 0.740  0.4586 -155.6  12.643   95.9  0.0495   53.0  0.3071  -96.8
 0.760  0.4583 -156.9  12.337   95.3  0.0503   53.1  0.3016  -97.7
 0.780  0.4583 -158.2  12.033   94.5  0.0510   53.2  0.2961  -98.7
 0.800  0.4585 -159.5  11.731   93.8  0.0518   53.3  0.2907  -99.8
 0.820  0.4580 -160.6  11.487   93.3  0.0526   53.4  0.2863 -100.6
 0.840  0.4578 -161.8  11.243   92.7  0.0534   53.6  0.2820 -101.5
 0.860  0.4577 -162.9  11.001   92.1  0.0541   53.7  0.2778 -102.4
 0.880  0.4577 -164.1  10.760   91.5  0.0549   53.8  0.2736 -103.3
 0.900  0.4580 -165.2  10.521   90.8  0.0557   53.9  0.2695 -104.2
 0.920  0.4577 -166.2  10.321   90.3  0.0565   54.0  0.2660 -104.9
 0.940  0.4575 -167.1  10.122   89.8  0.0573   54.1  0.2626 -105.7
 0.960  0.4574 -168.1   9.924   89.2  0.0581   54.1  0.2593 -106.5
 0.980  0.4575 -169.0   9.726   88.7  0.0589   54.2  0.2560 -107.3
 1.000  0.4577 -170.0   9.530   88.1  0.0597   54.3  0.2527 -108.1
 1.020  0.4577 -170.9   9.363   87.6  0.0605   54.4  0.2501 -108.8
 1.040  0.4577 -171.8   9.198   87.2  0.0613   54.4  0.2475 -109.5
 1.060  0.4579 -172.6   9.032   86.7  0.0621   54.5  0.2450 -110.2
 1.080  0.4582 -173.5   8.868   86.1  0.0629   54.5  0.2425 -111.0
 1.100  0.4586 -174.4   8.704   85.6  0.0637   54.6  0.2400 -111.7
 1.120  0.4586 -175.2   8.564   85.2  0.0645   54.6  0.2378 -112.4
 1.140  0.4588 -176.0   8.425   84.7  0.0653   54.7  0.2357 -113.0
 1.160  0.4590 -176.8   8.286   84.3  0.0662   54.7  0.2336 -113.7
 1.180  0.4593 -177.6   8.148   83.8  0.0670   54.8  0.2315 -114.4
 1.200  0.4597 -178.4   8.010   83.3  0.0678   54.8  0.2295 -115.1
 1.220  0.4599 -179.1   7.890   82.9  0.0686   54.8  0.2279 -115.7
 1.240  0.4601 -179.8   7.771   82.5  0.0695   54.8  0.2263 -116.3
 1.260  0.4604  179.4   7.652   82.0  0.0703   54.9  0.2247 -116.9
 1.280  0.4608  178.7   7.533   81.6  0.0712   54.9  0.2231 -117.6
 1.300  0.4612  178.0   7.415   81.1  0.0720   54.9  0.2216 -118.2
 1.320  0.4615  177.3   7.312   80.7  0.0728   54.9  0.2201 -118.8
 1.340  0.4618  176.6   7.210   80.3  0.0736   54.9  0.2187 -119.3
 1.360  0.4623  176.0   7.108   79.9  0.0745   54.9  0.2173 -119.9
 1.380  0.4627  175.3   7.007   79.4  0.0753   54.9  0.2159 -120.5
 1.400  0.4633  174.6   6.906   79.0  0.0761   54.9  0.2145 -121.1
 1.420  0.4637  173.9   6.817   78.6  0.0769   54.9  0.2135 -121.6
 1.440  0.4641  173.3   6.727   78.2  0.0778   54.9  0.2124 -122.2
 1.460  0.4646  172.6   6.639   77.8  0.0786   54.8  0.2114 -122.7
 1.480  0.4651  172.0   6.550   77.4  0.0795   54.8  0.2105 -123.2
 1.500  0.4657  171.3   6.462   77.0  0.0803   54.8  0.2095 -123.8
 1.520  0.4660  170.7   6.383   76.6  0.0811   54.8  0.2086 -124.3
 1.540  0.4664  170.1   6.304   76.3  0.0820   54.8  0.2076 -124.9
 1.560  0.4668  169.4   6.225   75.9  0.0828   54.7  0.2067 -125.4
 1.580  0.4673  168.8   6.146   75.5  0.0837   54.7  0.2059 -126.0
 1.600  0.4678  168.2   6.068   75.1  0.0845   54.7  0.2050 -126.5
 1.620  0.4680  167.7   5.999   74.7  0.0853   54.6  0.2043 -127.0
 1.640  0.4683  167.1   5.931   74.3  0.0862   54.6  0.2036 -127.5
 1.660  0.4686  166.6   5.863   73.9  0.0870   54.5  0.2029 -127.9
 1.680  0.4690  166.0   5.795   73.5  0.0879   54.5  0.2022 -128.4
 1.700  0.4694  165.5   5.727   73.1  0.0887   54.4  0.2015 -128.9
 1.720  0.4700  165.0   5.665   72.8  0.0896   54.3  0.2009 -129.4
 1.740  0.4706  164.4   5.602   72.4  0.0904   54.3  0.2004 -129.9
 1.760  0.4713  163.9   5.540   72.0  0.0913   54.2  0.1999 -130.4
 1.780  0.4720  163.3   5.479   71.7  0.0921   54.2  0.1994 -130.9
 1.800  0.4728  162.8   5.417   71.3  0.0930   54.1  0.1989 -131.4
 1.820  0.4733  162.3   5.362   71.0  0.0938   54.0  0.1984 -131.9
 1.840  0.4738  161.7   5.307   70.6  0.0946   53.9  0.1980 -132.4
 1.860  0.4744  161.2   5.252   70.2  0.0955   53.9  0.1975 -132.8
 1.880  0.4750  160.6   5.197   69.9  0.0963   53.8  0.1971 -133.3
 1.900  0.4756  160.1   5.143   69.5  0.0971   53.7  0.1967 -133.8
 1.920  0.4761  159.6   5.093   69.2  0.0979   53.6  0.1964 -134.3
 1.940  0.4766  159.1   5.042   68.8  0.0988   53.5  0.1961 -134.8
 1.960  0.4772  158.5   4.992   68.4  0.0996   53.4  0.1958 -135.2
 1.980  0.4778  158.0   4.943   68.1  0.1005   53.3  0.1955 -135.7
 2.000  0.4785  157.5   4.893   67.7  0.1013   53.2  0.1952 -136.2
 2.020  0.4792  157.0   4.848   67.4  0.1021   53.1  0.1950 -136.7
 2.040  0.4798  156.5   4.804   67.1  0.1030   53.0  0.1948 -137.2
 2.060  0.4806  156.0   4.760   66.7  0.1038   52.9  0.1946 -137.7
 2.080  0.4813  155.6   4.715   66.4  0.1047   52.8  0.1944 -138.2
 2.100  0.4821  155.1   4.671   66.0  0.1055   52.7  0.1943 -138.7
 2.120  0.4830  154.6   4.627   65.7  0.1063   52.6  0.1941 -139.2
 2.140  0.4838  154.1   4.584   65.3  0.1072   52.5  0.1940 -139.7
 2.160  0.4847  153.6   4.540   65.0  0.1080   52.4  0.1939 -140.2
 2.180  0.4856  153.2   4.497   64.6  0.1089   52.3  0.1938 -140.7
 2.200  0.4866  152.7   4.454   64.2  0.1097   52.2  0.1937 -141.2
 2.220  0.4874  152.2   4.417   63.9  0.1105   52.1  0.1937 -141.7
 2.240  0.4881  151.8   4.380   63.6  0.1113   51.9  0.1937 -142.2
 2.260  0.4890  151.3   4.343   63.2  0.1122   51.8  0.1937 -142.7
 2.280  0.4898  150.8   4.307   62.9  0.1130   51.7  0.1937 -143.2
 2.300  0.4907  150.4   4.270   62.6  0.1138   51.6  0.1938 -143.7
 2.320  0.4916  149.9   4.234   62.2  0.1146   51.5  0.1938 -144.1
 2.340  0.4926  149.5   4.198   61.9  0.1154   51.3  0.1939 -144.6
 2.360  0.4935  149.0   4.162   61.5  0.1163   51.2  0.1940 -145.1
 2.380  0.4946  148.6   4.126   61.2  0.1171   51.1  0.1941 -145.6
 2.400  0.4956  148.1   4.090   60.8  0.1179   51.0  0.1942 -146.1
 2.420  0.4965  147.7   4.058   60.5  0.1187   50.9  0.1944 -146.6
 2.440  0.4975  147.2   4.026   60.2  0.1195   50.7  0.1946 -147.1
 2.460  0.4984  146.8   3.994   59.9  0.1203   50.6  0.1949 -147.6
 2.480  0.4994  146.4   3.962   59.5  0.1211   50.5  0.1951 -148.1
 2.500  0.5004  145.9   3.930   59.2  0.1219   50.3  0.1954 -148.6
 2.520  0.5015  145.5   3.899   58.9  0.1228   50.2  0.1957 -149.1
 2.540  0.5026  145.1   3.867   58.5  0.1236   50.1  0.1960 -149.5
 2.560  0.5037  144.6   3.836   58.2  0.1244   49.9  0.1963 -150.0
 2.580  0.5048  144.2   3.805   57.9  0.1252   49.8  0.1967 -150.5
 2.600  0.5060  143.8   3.774   57.5  0.1260   49.7  0.1970 -151.0
 2.620  0.5067  143.4   3.747   57.2  0.1268   49.6  0.1974 -151.5
 2.640  0.5075  143.0   3.719   56.9  0.1276   49.4  0.1979 -152.0
 2.660  0.5083  142.6   3.692   56.6  0.1284   49.3  0.1983 -152.4
 2.680  0.5091  142.2   3.665   56.3  0.1292   49.1  0.1988 -152.9
 2.700  0.5099  141.8   3.638   56.0  0.1299   49.0  0.1993 -153.4
 2.720  0.5108  141.4   3.611   55.6  0.1307   48.8  0.1998 -153.8
 2.740  0.5116  141.1   3.584   55.3  0.1315   48.7  0.2003 -154.3
 2.760  0.5125  140.7   3.558   55.0  0.1323   48.6  0.2008 -154.8
 2.780  0.5135  140.3   3.531   54.6  0.1331   48.4  0.2014 -155.2
 2.800  0.5144  139.9   3.505   54.3  0.1339   48.3  0.2019 -155.7
 2.820  0.5153  139.5   3.481   54.0  0.1347   48.1  0.2024 -156.2
 2.840  0.5163  139.1   3.457   53.7  0.1354   48.0  0.2030 -156.6
 2.860  0.5173  138.7   3.433   53.4  0.1362   47.8  0.2036 -157.0
 2.880  0.5183  138.4   3.409   53.1  0.1370   47.7  0.2042 -157.5
 2.900  0.5194  138.0   3.385   52.8  0.1377   47.5  0.2047 -157.9
 2.920  0.5204  137.6   3.361   52.5  0.1385   47.4  0.2054 -158.4
 2.940  0.5215  137.2   3.337   52.2  0.1393   47.2  0.2060 -158.8
 2.960  0.5226  136.8   3.314   51.9  0.1401   47.1  0.2066 -159.2
 2.980  0.5237  136.5   3.290   51.5  0.1408   46.9  0.2072 -159.7
 3.000  0.5249  136.1   3.267   51.2  0.1416   46.8  0.2079 -160.1
 3.100  0.5292  134.3   3.168   49.9  0.1452   45.9  0.2110 -162.1
 3.200  0.5340  132.5   3.071   48.5  0.1488   45.1  0.2144 -164.1
 3.300  0.5393  130.7   2.975   47.0  0.1524   44.3  0.2180 -166.1
 3.400  0.5451  129.0   2.882   45.4  0.1561   43.6  0.2219 -167.9
 3.500  0.5514  127.3   2.791   43.7  0.1598   42.9  0.2260 -169.7
 3.600  0.5567  125.7   2.715   42.4  0.1631   42.1  0.2299 -171.8
 3.700  0.5623  124.2   2.640   41.1  0.1663   41.2  0.2341 -173.8
 3.800  0.5684  122.6   2.567   39.7  0.1697   40.5  0.2386 -175.7
 3.900  0.5749  121.2   2.495   38.2  0.1730   39.7  0.2433 -177.6
 4.000  0.5817  119.7   2.425   36.6  0.1764   39.0  0.2483 -179.4
 4.100  0.5872  118.4   2.365   35.4  0.1793   38.2  0.2537  178.7
 4.200  0.5930  117.1   2.306   34.2  0.1823   37.4  0.2593  177.0
 4.300  0.5991  115.8   2.248   32.8  0.1852   36.7  0.2651  175.3
 4.400  0.6055  114.5   2.191   31.5  0.1883   36.0  0.2712  173.7
 4.500  0.6122  113.3   2.136   30.0  0.1913   35.3  0.2775  172.1
 4.600  0.6163  112.1   2.089   28.9  0.1942   34.6  0.2820  170.8
 4.700  0.6207  111.0   2.043   27.8  0.1971   34.0  0.2866  169.5
 4.800  0.6253  109.8   1.997   26.6  0.2000   33.4  0.2914  168.3
 4.900  0.6301  108.7   1.953   25.3  0.2029   32.8  0.2963  167.1
 5.000  0.6352  107.6   1.909   24.0  0.2059   32.2  0.3013  166.0
 5.100  0.6382  106.6   1.873   23.0  0.2090   31.5  0.3043  165.1
 5.200  0.6413  105.7   1.837   21.9  0.2122   30.7  0.3074  164.1
 5.300  0.6446  104.7   1.803   20.8  0.2153   30.0  0.3106  163.2
 5.400  0.6481  103.7   1.768   19.7  0.2186   29.4  0.3139  162.4
 5.500  0.6518  102.8   1.735   18.5  0.2218   28.7  0.3172  161.5
 5.600  0.6539  102.0   1.706   17.5  0.2247   27.9  0.3208  160.6
 5.700  0.6561  101.2   1.678   16.4  0.2276   27.1  0.3244  159.8
 5.800  0.6584  100.4   1.650   15.3  0.2306   26.4  0.3282  158.9
 5.900  0.6609   99.6   1.623   14.1  0.2336   25.6  0.3319  158.1
 6.000  0.6635   98.8   1.597   12.9  0.2367   24.9  0.3358  157.3
 6.100  0.6641   98.0   1.573   11.9  0.2393   24.2  0.3383  156.8
 6.200  0.6648   97.2   1.549   10.9  0.2419   23.5  0.3409  156.2
 6.300  0.6657   96.3   1.525    9.8  0.2445   22.8  0.3435  155.7
 6.400  0.6667   95.5   1.502    8.7  0.2472   22.1  0.3461  155.2
 6.500  0.6678   94.7   1.480    7.6  0.2499   21.4  0.3487  154.7
 6.600  0.6673   93.8   1.461    6.6  0.2528   20.7  0.3484  154.3
 6.800  0.6667   91.9   1.425    4.6  0.2587   19.4  0.3479  153.6
 7.000  0.6668   90.1   1.390    2.5  0.2648   18.1  0.3474  152.8
 7.200  0.6685   87.9   1.361    0.4  0.2712   16.5  0.3470  151.3
 7.400  0.6712   85.7   1.333   -1.8  0.2779   14.9  0.3469  149.8
 7.600  0.6753   83.3   1.306   -4.1  0.2842   13.2  0.3486  147.9
 7.800  0.6810   80.8   1.279   -6.5  0.2903   11.4  0.3524  145.6
 8.000  0.6881   78.3   1.255   -9.1  0.2966    9.6  0.3567  143.4
 8.200  0.6937   75.7   1.222  -11.5  0.3007    7.5  0.3611  140.5
 8.400  0.7007   73.1   1.191  -14.0  0.3052    5.4  0.3664  137.7
 8.600  0.7100   70.6   1.160  -16.4  0.3080    3.4  0.3731  134.2
 8.800  0.7215   68.3   1.128  -18.7  0.3092    1.3  0.3818  130.2
 9.000  0.7341   66.1   1.097  -21.1  0.3108   -0.7  0.3924  126.3
 9.200  0.7503   64.2   1.061  -23.0  0.3098   -2.3  0.4090  121.7
 9.400  0.7673   62.4   1.026  -25.0  0.3090   -3.9  0.4280  117.5
 9.600  0.7824   60.7   0.992  -26.7  0.3081   -5.2  0.4476  113.8
 9.800  0.7954   59.2   0.958  -28.2  0.3068   -6.1  0.4674  110.6
10.000  0.8090   57.8   0.925  -29.8  0.3057   -7.1  0.4886  107.6
!
!  f       NFmin   Gammaopt  rn/50
! GHz       dB    MAG  ANG    -
 0.450      1.24  0.07 -176   0.13
 0.900      1.26  0.04  175   0.15
 1.900      1.38  0.18 -150   0.12
 3.500      1.34  0.41 -125   0.15
!
! (c) 2016  Infineon Technologies AG, Munich
