! Infineon Technologies  Discrete & RF Semiconductors
! BFP460
! VCE =  4.0 V,  IC =  3.0 mA
! Common Emitter S-Parameters:                            Jan 2016
# GHz  S  MA  R  50
!  f         S11            S21            S12            S22
! GHz     MAG   ANG      MAG   ANG      MAG   ANG      MAG   ANG
 0.030  0.9256   -4.0  10.351  176.9  0.0059   84.4  0.9931   -2.8
 0.035  0.9251   -4.6  10.344  176.3  0.0069   84.9  0.9925   -3.2
 0.040  0.9247   -5.3  10.338  175.7  0.0079   85.2  0.9919   -3.6
 0.045  0.9240   -5.9  10.307  175.1  0.0089   85.1  0.9913   -3.8
 0.050  0.9234   -6.6  10.278  174.4  0.0099   85.1  0.9907   -4.1
 0.055  0.9230   -7.5  10.277  174.1  0.0108   84.4  0.9903   -4.5
 0.060  0.9228   -8.5  10.277  173.7  0.0117   83.9  0.9899   -5.0
 0.065  0.9218   -9.0  10.311  173.1  0.0126   83.6  0.9895   -5.4
 0.070  0.9208   -9.6  10.345  172.6  0.0136   83.4  0.9892   -5.9
 0.075  0.9232  -10.3  10.322  172.3  0.0146   83.1  0.9884   -6.3
 0.080  0.9258  -10.9  10.300  172.0  0.0156   82.8  0.9876   -6.7
 0.085  0.9229  -11.6  10.297  171.5  0.0166   82.5  0.9865   -7.1
 0.090  0.9201  -12.3  10.294  170.9  0.0176   82.2  0.9855   -7.6
 0.095  0.9196  -13.0  10.256  170.5  0.0185   82.0  0.9847   -8.0
 0.100  0.9192  -13.7  10.219  170.1  0.0194   81.8  0.9840   -8.4
 0.105  0.9195  -14.4  10.220  169.6  0.0204   81.1  0.9828   -8.8
 0.110  0.9199  -15.1  10.221  169.2  0.0214   80.4  0.9817   -9.2
 0.115  0.9188  -15.8  10.221  168.6  0.0223   80.1  0.9806   -9.6
 0.120  0.9178  -16.5  10.221  168.1  0.0232   79.9  0.9796  -10.1
 0.125  0.9155  -17.1  10.208  167.7  0.0242   79.5  0.9784  -10.4
 0.130  0.9134  -17.7  10.196  167.3  0.0252   79.2  0.9773  -10.8
 0.135  0.9127  -18.4  10.189  166.8  0.0260   78.8  0.9762  -11.2
 0.140  0.9121  -19.1  10.183  166.2  0.0269   78.5  0.9751  -11.7
 0.145  0.9115  -19.8  10.156  165.7  0.0278   78.0  0.9737  -12.1
 0.150  0.9111  -20.5  10.130  165.2  0.0288   77.6  0.9724  -12.5
 0.155  0.9093  -21.1  10.113  164.7  0.0297   77.1  0.9707  -12.9
 0.160  0.9077  -21.8  10.096  164.3  0.0306   76.7  0.9690  -13.3
 0.165  0.9062  -22.4  10.080  163.8  0.0315   76.3  0.9673  -13.7
 0.170  0.9047  -23.1  10.064  163.4  0.0324   75.9  0.9657  -14.1
 0.175  0.9034  -23.7  10.049  162.9  0.0333   75.6  0.9642  -14.5
 0.180  0.9023  -24.4  10.035  162.5  0.0342   75.2  0.9627  -14.9
 0.185  0.9012  -25.0  10.022  162.0  0.0351   74.9  0.9612  -15.3
 0.190  0.9002  -25.7  10.009  161.5  0.0360   74.6  0.9598  -15.7
 0.195  0.8994  -26.3   9.997  161.1  0.0369   74.3  0.9584  -16.1
 0.200  0.8987  -27.0   9.985  160.6  0.0378   74.0  0.9571  -16.5
 0.220  0.8913  -29.6   9.895  158.8  0.0412   72.4  0.9493  -18.0
 0.240  0.8857  -32.3   9.815  157.0  0.0446   71.1  0.9422  -19.5
 0.260  0.8797  -34.8   9.728  155.3  0.0479   69.7  0.9342  -21.0
 0.280  0.8730  -37.3   9.631  153.5  0.0510   68.3  0.9254  -22.5
 0.300  0.8680  -39.8   9.544  151.8  0.0542   67.1  0.9171  -24.0
 0.320  0.8590  -42.2   9.436  150.1  0.0571   65.7  0.9075  -25.4
 0.340  0.8516  -44.7   9.335  148.5  0.0601   64.4  0.8983  -26.8
 0.360  0.8442  -47.0   9.230  146.8  0.0629   63.1  0.8888  -28.1
 0.380  0.8366  -49.4   9.118  145.2  0.0656   61.9  0.8787  -29.4
 0.400  0.8304  -51.7   9.014  143.6  0.0683   60.7  0.8691  -30.7
 0.420  0.8215  -54.0   8.895  142.1  0.0708   59.5  0.8590  -31.9
 0.440  0.8139  -56.3   8.783  140.5  0.0732   58.3  0.8494  -33.2
 0.450  0.8106  -57.5   8.730  139.7  0.0745   57.8  0.8447  -33.8
 0.460  0.8061  -58.6   8.671  139.0  0.0756   57.2  0.8393  -34.4
 0.480  0.7979  -60.7   8.557  137.6  0.0778   56.2  0.8288  -35.5
 0.500  0.7909  -62.9   8.448  136.2  0.0800   55.2  0.8187  -36.7
 0.520  0.7814  -64.9   8.327  134.9  0.0819   54.1  0.8083  -37.7
 0.540  0.7728  -66.9   8.210  133.6  0.0838   53.1  0.7983  -38.7
 0.560  0.7653  -69.0   8.098  132.2  0.0857   52.1  0.7884  -39.8
 0.580  0.7587  -71.1   7.990  130.8  0.0877   51.2  0.7789  -40.9
 0.600  0.7532  -73.2   7.887  129.4  0.0897   50.3  0.7696  -42.0
 0.620  0.7445  -75.0   7.772  128.2  0.0912   49.4  0.7596  -42.9
 0.640  0.7367  -76.9   7.661  127.1  0.0928   48.5  0.7498  -43.8
 0.660  0.7296  -78.9   7.553  125.8  0.0943   47.7  0.7402  -44.7
 0.680  0.7234  -80.8   7.448  124.6  0.0959   46.9  0.7308  -45.7
 0.700  0.7180  -82.8   7.347  123.3  0.0975   46.1  0.7216  -46.7
 0.720  0.7105  -84.5   7.239  122.3  0.0987   45.3  0.7125  -47.5
 0.740  0.7036  -86.2   7.134  121.2  0.0999   44.6  0.7036  -48.3
 0.760  0.6974  -88.0   7.031  120.1  0.1012   43.8  0.6948  -49.1
 0.780  0.6919  -89.8   6.931  119.0  0.1024   43.1  0.6862  -49.9
 0.800  0.6870  -91.6   6.834  117.8  0.1037   42.4  0.6777  -50.8
 0.820  0.6805  -93.2   6.741  116.9  0.1047   41.8  0.6696  -51.5
 0.840  0.6744  -94.8   6.650  115.9  0.1057   41.2  0.6616  -52.2
 0.860  0.6690  -96.4   6.561  114.9  0.1068   40.6  0.6537  -52.9
 0.880  0.6640  -98.1   6.473  113.9  0.1078   40.0  0.6459  -53.6
 0.900  0.6597  -99.8   6.388  112.9  0.1089   39.4  0.6382  -54.4
 0.920  0.6540 -101.3   6.302  112.0  0.1097   38.8  0.6310  -55.0
 0.940  0.6488 -102.8   6.217  111.2  0.1106   38.3  0.6238  -55.6
 0.960  0.6440 -104.3   6.134  110.3  0.1115   37.8  0.6167  -56.3
 0.980  0.6397 -105.8   6.052  109.3  0.1123   37.2  0.6097  -56.9
 1.000  0.6358 -107.4   5.972  108.4  0.1132   36.7  0.6028  -57.6
 1.020  0.6309 -108.8   5.894  107.6  0.1139   36.2  0.5964  -58.2
 1.040  0.6263 -110.2   5.817  106.8  0.1146   35.8  0.5900  -58.7
 1.060  0.6222 -111.6   5.741  105.9  0.1153   35.3  0.5837  -59.3
 1.080  0.6184 -113.0   5.667  105.1  0.1160   34.8  0.5775  -59.9
 1.100  0.6150 -114.5   5.594  104.2  0.1167   34.4  0.5713  -60.5
 1.120  0.6109 -115.8   5.524  103.5  0.1173   34.0  0.5656  -61.0
 1.140  0.6070 -117.1   5.455  102.7  0.1178   33.5  0.5599  -61.5
 1.160  0.6035 -118.4   5.388  101.9  0.1184   33.1  0.5542  -62.1
 1.180  0.6004 -119.8   5.321  101.1  0.1190   32.7  0.5486  -62.6
 1.200  0.5975 -121.1   5.255  100.3  0.1196   32.3  0.5431  -63.2
 1.220  0.5942 -122.4   5.193   99.6  0.1201   32.0  0.5380  -63.7
 1.240  0.5911 -123.6   5.132   98.9  0.1206   31.6  0.5330  -64.1
 1.260  0.5884 -124.9   5.071   98.3  0.1211   31.3  0.5280  -64.6
 1.280  0.5859 -126.2   5.011   97.5  0.1216   30.9  0.5230  -65.1
 1.300  0.5838 -127.5   4.952   96.8  0.1221   30.6  0.5181  -65.6
 1.320  0.5809 -128.6   4.895   96.2  0.1225   30.3  0.5135  -66.0
 1.340  0.5783 -129.8   4.840   95.5  0.1229   30.0  0.5090  -66.4
 1.360  0.5759 -131.0   4.784   94.8  0.1233   29.7  0.5045  -66.8
 1.380  0.5737 -132.1   4.730   94.1  0.1238   29.4  0.5000  -67.3
 1.400  0.5718 -133.3   4.676   93.4  0.1242   29.1  0.4956  -67.7
 1.420  0.5693 -134.4   4.625   92.8  0.1246   28.8  0.4915  -68.1
 1.440  0.5671 -135.6   4.576   92.2  0.1249   28.5  0.4875  -68.5
 1.460  0.5651 -136.7   4.526   91.5  0.1253   28.3  0.4835  -68.9
 1.480  0.5633 -137.8   4.477   90.9  0.1256   28.0  0.4795  -69.4
 1.500  0.5617 -139.0   4.429   90.2  0.1260   27.7  0.4756  -69.8
 1.520  0.5596 -140.1   4.383   89.6  0.1263   27.5  0.4719  -70.2
 1.540  0.5578 -141.1   4.337   89.0  0.1266   27.3  0.4681  -70.6
 1.560  0.5561 -142.2   4.291   88.4  0.1270   27.0  0.4644  -71.0
 1.580  0.5547 -143.3   4.246   87.7  0.1273   26.8  0.4608  -71.4
 1.600  0.5534 -144.4   4.202   87.1  0.1276   26.6  0.4571  -71.8
 1.620  0.5519 -145.4   4.161   86.5  0.1279   26.4  0.4539  -72.2
 1.640  0.5505 -146.3   4.120   86.0  0.1282   26.2  0.4508  -72.5
 1.660  0.5493 -147.3   4.080   85.4  0.1284   25.9  0.4476  -72.9
 1.680  0.5482 -148.3   4.040   84.8  0.1287   25.7  0.4445  -73.2
 1.700  0.5473 -149.3   4.001   84.2  0.1290   25.5  0.4414  -73.6
 1.720  0.5460 -150.3   3.963   83.7  0.1293   25.3  0.4385  -74.0
 1.740  0.5449 -151.2   3.925   83.2  0.1295   25.1  0.4355  -74.3
 1.760  0.5439 -152.2   3.888   82.6  0.1298   25.0  0.4326  -74.7
 1.780  0.5431 -153.2   3.851   82.1  0.1300   24.8  0.4298  -75.1
 1.800  0.5425 -154.2   3.814   81.5  0.1303   24.6  0.4269  -75.5
 1.820  0.5414 -155.1   3.780   81.0  0.1305   24.4  0.4242  -75.8
 1.840  0.5404 -156.0   3.746   80.4  0.1308   24.3  0.4216  -76.2
 1.860  0.5396 -157.0   3.713   79.9  0.1310   24.1  0.4189  -76.5
 1.880  0.5389 -157.9   3.680   79.4  0.1313   24.0  0.4163  -76.9
 1.900  0.5384 -158.8   3.647   78.8  0.1315   23.8  0.4137  -77.2
 1.920  0.5378 -159.7   3.615   78.3  0.1317   23.7  0.4113  -77.6
 1.940  0.5373 -160.6   3.584   77.7  0.1319   23.5  0.4089  -77.9
 1.960  0.5369 -161.4   3.552   77.2  0.1322   23.4  0.4065  -78.3
 1.980  0.5366 -162.3   3.522   76.7  0.1324   23.2  0.4041  -78.6
 2.000  0.5365 -163.2   3.491   76.1  0.1326   23.1  0.4017  -79.0
 2.020  0.5358 -164.0   3.462   75.6  0.1328   23.0  0.3995  -79.3
 2.040  0.5353 -164.9   3.433   75.2  0.1330   22.8  0.3973  -79.7
 2.060  0.5349 -165.7   3.404   74.7  0.1332   22.7  0.3951  -80.0
 2.080  0.5346 -166.6   3.376   74.2  0.1334   22.6  0.3929  -80.3
 2.100  0.5344 -167.4   3.348   73.7  0.1335   22.4  0.3907  -80.7
 2.120  0.5343 -168.2   3.320   73.2  0.1337   22.3  0.3886  -81.0
 2.140  0.5343 -169.1   3.292   72.7  0.1339   22.2  0.3864  -81.3
 2.160  0.5345 -169.9   3.265   72.2  0.1341   22.1  0.3843  -81.7
 2.180  0.5347 -170.8   3.238   71.6  0.1343   21.9  0.3822  -82.0
 2.200  0.5351 -171.6   3.211   71.1  0.1345   21.8  0.3801  -82.4
 2.220  0.5348 -172.4   3.186   70.7  0.1347   21.7  0.3782  -82.7
 2.240  0.5346 -173.1   3.162   70.2  0.1349   21.6  0.3763  -83.1
 2.260  0.5345 -173.9   3.137   69.8  0.1350   21.5  0.3745  -83.4
 2.280  0.5345 -174.7   3.113   69.3  0.1352   21.4  0.3726  -83.8
 2.300  0.5346 -175.5   3.089   68.8  0.1354   21.3  0.3708  -84.2
 2.320  0.5348 -176.2   3.065   68.4  0.1356   21.2  0.3690  -84.5
 2.340  0.5351 -177.0   3.041   67.9  0.1358   21.1  0.3672  -84.9
 2.360  0.5354 -177.8   3.018   67.4  0.1359   21.0  0.3654  -85.3
 2.380  0.5359 -178.5   2.995   66.9  0.1361   20.9  0.3637  -85.6
 2.400  0.5365 -179.3   2.972   66.4  0.1363   20.8  0.3619  -86.0
 2.420  0.5365  180.0   2.950   66.0  0.1365   20.7  0.3603  -86.4
 2.440  0.5366  179.3   2.929   65.5  0.1366   20.6  0.3587  -86.7
 2.460  0.5368  178.5   2.907   65.1  0.1368   20.6  0.3571  -87.1
 2.480  0.5371  177.8   2.886   64.6  0.1369   20.5  0.3555  -87.4
 2.500  0.5375  177.1   2.865   64.2  0.1371   20.4  0.3539  -87.8
 2.520  0.5379  176.4   2.844   63.7  0.1373   20.3  0.3524  -88.2
 2.540  0.5385  175.6   2.824   63.3  0.1374   20.2  0.3508  -88.6
 2.560  0.5391  174.9   2.803   62.8  0.1376   20.2  0.3493  -88.9
 2.580  0.5398  174.2   2.783   62.3  0.1377   20.1  0.3478  -89.3
 2.600  0.5406  173.5   2.763   61.8  0.1379   20.0  0.3463  -89.7
 2.620  0.5409  172.8   2.744   61.4  0.1380   19.9  0.3450  -90.1
 2.640  0.5412  172.1   2.725   61.0  0.1382   19.9  0.3437  -90.5
 2.660  0.5416  171.5   2.707   60.6  0.1383   19.8  0.3425  -90.9
 2.680  0.5421  170.8   2.688   60.2  0.1385   19.7  0.3412  -91.3
 2.700  0.5427  170.1   2.670   59.7  0.1386   19.6  0.3400  -91.7
 2.720  0.5434  169.5   2.652   59.3  0.1387   19.6  0.3388  -92.1
 2.740  0.5441  168.8   2.634   58.9  0.1389   19.5  0.3376  -92.5
 2.760  0.5449  168.1   2.616   58.4  0.1390   19.4  0.3364  -92.9
 2.780  0.5458  167.5   2.599   58.0  0.1392   19.4  0.3352  -93.3
 2.800  0.5467  166.8   2.581   57.5  0.1393   19.3  0.3341  -93.7
 2.820  0.5471  166.2   2.564   57.1  0.1394   19.3  0.3330  -94.1
 2.840  0.5476  165.5   2.547   56.7  0.1396   19.2  0.3319  -94.5
 2.860  0.5481  164.9   2.530   56.3  0.1397   19.2  0.3309  -94.9
 2.880  0.5487  164.3   2.514   55.9  0.1399   19.1  0.3298  -95.3
 2.900  0.5494  163.7   2.497   55.5  0.1400   19.1  0.3288  -95.7
 2.920  0.5501  163.1   2.481   55.0  0.1402   19.1  0.3278  -96.1
 2.940  0.5509  162.4   2.465   54.6  0.1403   19.0  0.3268  -96.5
 2.960  0.5518  161.8   2.449   54.2  0.1405   19.0  0.3258  -96.9
 2.980  0.5527  161.2   2.433   53.7  0.1406   18.9  0.3248  -97.3
 3.000  0.5537  160.6   2.417   53.3  0.1408   18.9  0.3239  -97.7
 3.100  0.5555  157.8   2.345   51.6  0.1415   18.8  0.3199  -99.6
 3.200  0.5587  155.0   2.275   49.7  0.1423   18.6  0.3164 -101.6
 3.300  0.5631  152.2   2.207   47.8  0.1430   18.5  0.3131 -103.6
 3.400  0.5688  149.5   2.143   45.7  0.1438   18.3  0.3103 -105.6
 3.500  0.5758  146.9   2.081   43.5  0.1445   18.2  0.3079 -107.7
 3.600  0.5795  144.5   2.025   41.9  0.1454   18.2  0.3052 -109.8
 3.700  0.5843  142.1   1.971   40.2  0.1463   18.2  0.3029 -111.9
 3.800  0.5900  139.8   1.919   38.4  0.1471   18.1  0.3010 -114.1
 3.900  0.5967  137.5   1.868   36.6  0.1480   18.1  0.2996 -116.3
 4.000  0.6043  135.3   1.820   34.6  0.1489   18.1  0.2986 -118.5
 4.100  0.6090  133.4   1.774   33.1  0.1500   18.2  0.2984 -120.8
 4.200  0.6143  131.5   1.730   31.5  0.1510   18.2  0.2987 -123.1
 4.300  0.6203  129.7   1.687   29.8  0.1521   18.3  0.2996 -125.4
 4.400  0.6269  127.9   1.646   28.1  0.1531   18.3  0.3008 -127.7
 4.500  0.6341  126.1   1.606   26.2  0.1542   18.4  0.3026 -130.0
 4.600  0.6379  124.5   1.570   24.8  0.1556   18.5  0.3050 -132.0
 4.700  0.6421  123.0   1.534   23.4  0.1571   18.7  0.3078 -134.0
 4.800  0.6468  121.5   1.500   21.9  0.1585   18.8  0.3109 -135.9
 4.900  0.6519  120.0   1.466   20.3  0.1600   19.0  0.3143 -137.8
 5.000  0.6575  118.5   1.434   18.7  0.1614   19.1  0.3181 -139.6
 5.100  0.6606  117.2   1.405   17.5  0.1635   19.2  0.3214 -141.2
 5.200  0.6641  116.0   1.377   16.2  0.1656   19.3  0.3250 -142.8
 5.300  0.6678  114.7   1.349   14.8  0.1678   19.3  0.3289 -144.4
 5.400  0.6719  113.5   1.322   13.5  0.1699   19.4  0.3330 -145.9
 5.500  0.6763  112.3   1.296   12.0  0.1720   19.5  0.3373 -147.4
 5.600  0.6791  111.2   1.273   10.8  0.1744   19.4  0.3416 -149.0
 5.700  0.6822  110.2   1.250    9.6  0.1769   19.3  0.3462 -150.6
 5.800  0.6855  109.1   1.228    8.4  0.1793   19.1  0.3510 -152.2
 5.900  0.6891  108.1   1.207    7.1  0.1818   19.0  0.3562 -153.7
 6.000  0.6928  107.1   1.186    5.7  0.1842   18.9  0.3615 -155.2
 6.100  0.6936  106.1   1.166    4.6  0.1866   18.7  0.3662 -156.5
 6.200  0.6946  105.1   1.146    3.4  0.1890   18.6  0.3712 -157.8
 6.300  0.6958  104.1   1.127    2.2  0.1915   18.4  0.3763 -159.1
 6.400  0.6972  103.1   1.109    0.9  0.1939   18.3  0.3815 -160.3
 6.500  0.6988  102.1   1.091   -0.4  0.1963   18.1  0.3870 -161.5
 6.600  0.6989  101.0   1.075   -1.4  0.1992   17.9  0.3901 -162.4
 6.800  0.6997   98.9   1.044   -3.5  0.2050   17.5  0.3965 -164.1
 7.000  0.7015   96.8   1.015   -5.8  0.2108   17.2  0.4032 -165.7
 7.200  0.7044   94.3   0.990   -7.9  0.2179   16.4  0.4065 -167.8
 7.400  0.7087   91.7   0.966  -10.1  0.2249   15.7  0.4104 -170.0
 7.600  0.7140   89.1   0.944  -12.4  0.2322   14.8  0.4143 -172.5
 7.800  0.7206   86.2   0.922  -14.8  0.2396   13.6  0.4187 -175.6
 8.000  0.7290   83.4   0.902  -17.3  0.2471   12.5  0.4243 -178.5
 8.200  0.7344   80.4   0.877  -19.6  0.2537   10.8  0.4275  178.1
 8.400  0.7419   77.4   0.853  -22.1  0.2604    9.3  0.4323  174.7
 8.600  0.7509   74.5   0.829  -24.4  0.2659    7.6  0.4358  170.8
 8.800  0.7612   71.7   0.805  -26.5  0.2701    5.7  0.4389  166.4
 9.000  0.7732   69.0   0.782  -28.8  0.2745    3.9  0.4447  162.0
 9.200  0.7872   66.8   0.756  -30.6  0.2764    2.4  0.4534  156.4
 9.400  0.8024   64.6   0.730  -32.6  0.2785    0.9  0.4663  151.0
 9.600  0.8156   62.8   0.705  -34.3  0.2801   -0.3  0.4820  145.9
 9.800  0.8266   61.1   0.680  -35.8  0.2813   -1.4  0.5001  141.2
10.000  0.8382   59.5   0.655  -37.4  0.2825   -2.5  0.5214  136.9
!
!  f       NFmin   Gammaopt  rn/50
! GHz       dB    MAG  ANG    -
 0.450      0.71  0.48   19   0.20
 0.900      0.75  0.46   37   0.21
 1.900      1.09  0.27   93   0.15
 3.500      1.43  0.36 -162   0.10
!
! (c) 2016  Infineon Technologies AG, Munich
