! Filename:       BFR92ACC.S2P                              Version:   2.0
! Philips part #: BFR92A                                     Date: Jul 1990
! Bias condition: Vce=5V, Ic=10mA
! COMMON BASE
#  MHz  S  MA  R  50
! Freq       S11            S21            S12            S22   
   40    .870  179.1   1.856   -1.0    .001   47.7   1.002    -.7
  100    .869  178.0   1.853   -2.2    .002   75.1   1.004   -1.4
  200    .869  176.2   1.852   -4.5    .004  110.8   1.003   -3.0
  300    .872  174.5   1.850   -6.6    .006  120.0   1.003   -4.6
  400    .877  172.8   1.854   -8.9    .010  130.5   1.008   -6.1
  500    .883  171.0   1.859  -11.2    .014  134.7   1.014   -7.6
  600    .890  169.3   1.871  -13.3    .018  138.8   1.019   -9.2
  700    .901  167.6   1.876  -15.6    .024  141.3   1.027  -10.7
  800    .912  165.8   1.885  -18.1    .031  143.2   1.036  -12.3
  900    .925  164.1   1.893  -20.5    .038  145.2   1.046  -14.1
 1000    .942  162.3   1.912  -22.9    .047  146.0   1.057  -15.8
 1200    .978  158.8   1.938  -27.9    .068  146.8   1.083  -19.4
 1400   1.019  155.0   1.990  -33.1    .094  145.9   1.114  -23.3
 1600   1.069  150.7   2.026  -39.6    .126  145.1   1.148  -27.6
 1800   1.136  146.4   2.075  -45.5    .165  142.7   1.186  -32.5
 2000   1.214  141.9   2.134  -52.2    .211  139.7   1.226  -38.3
 2200   1.300  137.2   2.202  -60.7    .265  136.1   1.278  -45.2
 2400   1.382  131.7   2.302  -69.2    .330  131.2   1.342  -52.8
 2600   1.450  124.7   2.322  -80.4    .401  126.0   1.409  -61.2
 2800   1.520  116.0   2.402  -91.5    .481  119.1   1.464  -69.7
 3000   1.585  106.6   2.386 -104.5    .563  112.0   1.483  -79.5
