! Filename:       BFR92AB.S2P                                Version:   2.0
! Philips part #: BFR92A                                     Date: May 1990
! Bias condition: Vce=5V, Ic=5mA
! 
#  MHz  S  MA  R  50
! Freq       S11            S21            S12            S22     !GUM [dB]
   40    .789  -12.2  14.151  169.0    .009   85.7    .987   -5.4 !    43.0
  100    .742  -28.7  12.938  154.2    .023   74.9    .936  -12.5 !    34.8
  200    .627  -53.5  10.952  136.7    .040   66.9    .824  -20.4 !    27.9
  300    .524  -72.0   8.943  123.7    .050   62.6    .736  -24.4 !    23.8
  400    .455  -86.4   7.427  114.4    .059   60.9    .670  -26.6 !    21.0
  500    .400 -100.5   6.449  107.0    .067   60.8    .625  -27.1 !    19.1
  600    .354 -109.4   5.509  101.8    .075   62.4    .596  -27.8 !    17.3
  700    .324 -113.7   4.835   97.3    .081   63.9    .576  -28.1 !    15.9
  800    .296 -124.7   4.293   93.0    .089   64.8    .563  -28.3 !    14.7
  900    .281 -129.5   3.890   89.5    .097   66.0    .555  -28.6 !    13.8
 1000    .251 -141.5   3.524   85.4    .103   67.3    .543  -28.8 !    12.7
 1200    .246 -153.8   3.007   79.6    .119   68.9    .532  -29.8 !    11.3
 1400    .243 -165.3   2.651   74.3    .136   69.1    .521  -31.5 !    10.1
 1600    .237 -174.0   2.363   70.5    .152   71.0    .520  -32.6 !     9.1
 1800    .211  174.9   2.091   65.9    .170   71.2    .518  -34.3 !     8.0
 2000    .226  163.6   1.969   61.9    .186   71.6    .513  -35.7 !     7.4
 2200    .240  149.9   1.783   57.6    .206   72.3    .495  -37.3 !     6.5
 2400    .243  149.5   1.690   54.2    .227   71.5    .482  -40.9 !     6.0
 2600    .253  146.9   1.593   51.7    .245   71.1    .478  -44.4 !     5.5
 2800    .244  136.4   1.506   49.0    .265   71.1    .481  -46.9 !     5.0
 3000    .275  129.0   1.427   44.9    .286   70.2    .469  -48.4 !     4.5

