<Qucs Dataset 0.0.20>
<indep frequency 51>
  +9.00000000000000000000e+08
  +9.02000000000000000000e+08
  +9.04000000000000000000e+08
  +9.06000000000000000000e+08
  +9.08000000000000000000e+08
  +9.10000000000000000000e+08
  +9.12000000000000000000e+08
  +9.14000000000000000000e+08
  +9.16000000000000000000e+08
  +9.18000000000000000000e+08
  +9.20000000000000000000e+08
  +9.22000000000000000000e+08
  +9.24000000000000000000e+08
  +9.26000000000000000000e+08
  +9.28000000000000000000e+08
  +9.30000000000000000000e+08
  +9.32000000000000000000e+08
  +9.34000000000000000000e+08
  +9.36000000000000000000e+08
  +9.38000000000000000000e+08
  +9.40000000000000000000e+08
  +9.42000000000000000000e+08
  +9.44000000000000000000e+08
  +9.46000000000000000000e+08
  +9.48000000000000000000e+08
  +9.50000000000000000000e+08
  +9.52000000000000000000e+08
  +9.54000000000000000000e+08
  +9.56000000000000000000e+08
  +9.58000000000000000000e+08
  +9.60000000000000000000e+08
  +9.62000000000000000000e+08
  +9.64000000000000000000e+08
  +9.66000000000000000000e+08
  +9.68000000000000000000e+08
  +9.70000000000000000000e+08
  +9.72000000000000000000e+08
  +9.74000000000000000000e+08
  +9.76000000000000000000e+08
  +9.78000000000000000000e+08
  +9.80000000000000000000e+08
  +9.82000000000000000000e+08
  +9.84000000000000000000e+08
  +9.86000000000000000000e+08
  +9.88000000000000000000e+08
  +9.90000000000000000000e+08
  +9.92000000000000000000e+08
  +9.94000000000000000000e+08
  +9.96000000000000000000e+08
  +9.98000000000000000000e+08
  +1.00000000000000000000e+09
</indep>
<dep S[1,1] frequency>
  -4.94073288999859583370e-01-j7.93916789976216286107e-01
  -4.95082326460694388537e-01-j7.91200444164406047065e-01
  -4.96078566446286672864e-01-j7.88497212008602121891e-01
  -4.97062183324554041075e-01-j7.85807028563683340749e-01
  -4.98033348923372198858e-01-j7.83129828616786038964e-01
  -4.98992232566935645099e-01-j7.80465546711006430414e-01
  -4.99939001111940117816e-01-j7.77814117169965402177e-01
  -5.00873818985586249930e-01-j7.75175474117938634322e-01
  -5.01796848219568381033e-01-j7.72549551502540232661e-01
  -5.02708248485481568046e-01-j7.69936283116409381222e-01
  -5.03608177130147272038e-01-j7.67335602615774381441e-01
  -5.04496789210610918630e-01-j7.64747443540449989285e-01
  -5.05374237526174274748e-01-j7.62171739333289854912e-01
  -5.06240672653051060337e-01-j7.59608423357621465044e-01
  -5.07096242977589151124e-01-j7.57057428914847174717e-01
  -5.07941094727828668098e-01-j7.54518689261802655288e-01
  -5.08775372006591952712e-01-j7.51992137626536272244e-01
  -5.09599216822175016262e-01-j7.49477707224268541175e-01
  -5.10412769120454745675e-01-j7.46975331272789588866e-01
  -5.11216166815220418584e-01-j7.44484943006699761980e-01
  -5.12009545818783107229e-01-j7.42006475691775246872e-01
  -5.12793040071075623132e-01-j7.39539862638914247128e-01
  -5.13566781571214492352e-01-j7.37085037215959859580e-01
  -5.14330900404096347245e-01-j7.34641932862132085447e-01
  -5.15085524770565128527e-01-j7.32210483099134057383e-01
  -5.15830781015818806701e-01-j7.29790621542618644924e-01
  -5.16566793656473399743e-01-j7.27382281914076500584e-01
  -5.17293685408976022799e-01-j7.24985398051431917388e-01
  -5.18011577215775287364e-01-j7.22599903919366348681e-01
  -5.18720588272330918045e-01-j7.20225733619996644208e-01
  -5.19420836054302559326e-01-j7.17862821401056616644e-01
  -5.20112436342032746772e-01-j7.15511101666806648147e-01
  -5.20795503247324820251e-01-j7.13170508985596529605e-01
  -5.21470149237654889696e-01-j7.10840978099330667028e-01
  -5.22136485161626695550e-01-j7.08522443931313916643e-01
  -5.22794620273692278722e-01-j7.06214841593340469927e-01
  -5.23444662257072867995e-01-j7.03918106394703646522e-01
  -5.24086717248775757483e-01-j7.01632173848184770293e-01
  -5.24720889862072881193e-01-j6.99356979677532075712e-01
  -5.25347283210071736015e-01-j6.97092459823511534367e-01
  -5.25965998927844347044e-01-j6.94838550451132186403e-01
  -5.26577137195599620512e-01-j6.92595187954476276815e-01
  -5.27180796759949776842e-01-j6.90362308963582305132e-01
  -5.27777074955712799387e-01-j6.88139850349364645687e-01
  -5.28366067727495281048e-01-j6.85927749228907757129e-01
  -5.28947869650844948453e-01-j6.83725942970257127840e-01
  -5.29522573952546538045e-01-j6.81534369197609901647e-01
  -5.30090272531040240800e-01-j6.79352965795757324230e-01
  -5.30651055977032104494e-01-j6.77181670914034361530e-01
  -5.31205013592860209037e-01-j6.75020422970595945777e-01
  -5.31752233411691088705e-01-j6.72869160656619502703e-01
</dep>
<dep S[1,2] frequency>
  +4.66537278837065583215e-02+j2.12952479555835530456e-02
  +4.66147992514336501069e-02+j2.12887058497627651432e-02
  +4.65759698815652531390e-02+j2.12826194056745209016e-02
  +4.65372409170277528956e-02+j2.12769836703062473204e-02
  +4.64986134551252650038e-02+j2.12717937466730157292e-02
  +4.64600885486804865421e-02+j2.12670447933363121473e-02
  +4.64216672072441938202e-02+j2.12627320239053077544e-02
  +4.63833503980718153681e-02+j2.12588507064077683606e-02
  +4.63451390472596480574e-02+j2.12553961628623409863e-02
  +4.63070340408426733836e-02+j2.12523637687447100597e-02
  +4.62690362257302395532e-02+j2.12497489524318648735e-02
  +4.62311464107386799194e-02+j2.12475471946391887557e-02
  +4.61933653676066605098e-02+j2.12457540280029145985e-02
  +4.61556938319112805558e-02+j2.12443650364869673908e-02
  +4.61181325040061207421e-02+j2.12433758548472122196e-02
  +4.60806820499588681850e-02+j2.12427821681676759491e-02
  +4.60433431024115658037e-02+j2.12425797112845080039e-02
  +4.60061162614630037027e-02+j2.12427642683244190247e-02
  +4.59690020955307171446e-02+j2.12433316721390916260e-02
  +4.59320011421582644062e-02+j2.12442778038179243272e-02
  +4.58951139088397061516e-02+j2.12455985921637113822e-02
  +4.58583408738315184694e-02+j2.12472900132329965694e-02
  +4.58216824868512700997e-02+j2.12493480897103202698e-02
  +4.57851391699368587274e-02+j2.12517688905523721710e-02
  +4.57487113181232959991e-02+j2.12545485304010545180e-02
  +4.57123993001487261001e-02+j2.12576831690773904171e-02
  +4.56762034591933832606e-02+j2.12611690111361786859e-02
  +4.56401241135523660919e-02+j2.12650023053186747191e-02
  +4.56041615573003766837e-02+j2.12691793441177057211e-02
  +4.55683160609846316103e-02+j2.12736964632746772264e-02
  +4.55325878721791546533e-02+j2.12785500412442027396e-02
  +4.54969772162060331899e-02+j2.12837364988018133694e-02
  +4.54614842966672427771e-02+j2.12892522984950566256e-02
  +4.54261092960947382435e-02+j2.12950939442291438397e-02
  +4.53908523765116922455e-02+j2.13012579807603588677e-02
  +4.53557136799542098826e-02+j2.13077409932133192416e-02
  +4.53206933291133567954e-02+j2.13145396066909964539e-02
  +4.52857914278036316480e-02+j2.13216504857386204841e-02
  +4.52510080615246557123e-02+j2.13290703339444331910e-02
  +4.52163432979432455827e-02+j2.13367958934561445516e-02
  +4.51817971874507728902e-02+j2.13448239445695499283e-02
  +4.51473697635814893991e-02+j2.13531513052345224557e-02
  +4.51130610435583542794e-02+j2.13617748306630730881e-02
  +4.50788710287257504694e-02+j2.13706914128867116187e-02
  +4.50447997050083814852e-02+j2.13798979803118162357e-02
  +4.50108470433436963498e-02+j2.13893914972854530532e-02
  +4.49770130001422227539e-02+j2.13991689636989050605e-02
  +4.49432975177063986916e-02+j2.14092274145670745378e-02
  +4.49097005246227934383e-02+j2.14195639195821213585e-02
  +4.48762219361770048343e-02+j2.14301755827285347888e-02
  +4.48428616547673838943e-02+j2.14410595418944756319e-02
</dep>
<dep S[2,1] frequency>
  -8.48988166470749128223e+00+j1.42505938694841969294e+01
  -8.43865067441444693941e+00+j1.42351319716269983928e+01
  -8.38776789668575517567e+00+j1.42195672928697103288e+01
  -8.33723068637885944554e+00+j1.42039025928814908184e+01
  -8.28703641293912163235e+00+j1.41881405795754957921e+01
  -8.23718246058526837317e+00+j1.41722839100239763610e+01
  -8.18766622849922676153e+00+j1.41563351913592168074e+01
  -8.13848513097032011387e+00+j1.41402969816856831642e+01
  -8.08963659755699460163e+00+j1.41241717909383890373e+01
  -8.04111807323687344251e+00+j1.41079620817456188320e+01
  -7.99292701852271925134e+00+j1.40916702702830374250e+01
  -7.94506090958930411006e+00+j1.40752987271124005986e+01
  -7.89751723838893404661e+00+j1.40588497779813774713e+01
  -7.85029351274733677712e+00+j1.40423257046409197812e+01
  -7.80338725645711761558e+00+j1.40257287456383519242e+01
  -7.75679600936482582796e+00+j1.40090610970843911787e+01
  -7.71051732744197693137e+00+j1.39923249134272804639e+01
  -7.66454878285331453469e+00+j1.39755223081936055252e+01
  -7.61888796401901213784e+00+j1.39586553547342813175e+01
  -7.57353247566216936093e+00+j1.39417260869451276051e+01
  -7.52847993885592448038e+00+j1.39247364999810852026e+01
  -7.48372799106362762700e+00+j1.39076885509474426073e+01
  -7.43927428615937103018e+00+j1.38905841596080978917e+01
  -7.39511649446726870849e+00+j1.38734252090350054232e+01
  -7.35125230277124153133e+00+j1.38562135462869822078e+01
  -7.30767941432518242095e+00+j1.38389509830627268627e+01
  -7.26439554886485439056e+00+j1.38216392963327567855e+01
  -7.22139844260779728558e+00+j1.38042802289776354030e+01
  -7.17868584824741873263e+00+j1.37868754903970565096e+01
  -7.13625553495062803222e+00+j1.37694267571193016408e+01
  -7.09410528833112863367e+00+j1.37519356734070203885e+01
  -7.05223291044527478277e+00+j1.37344038518276114758e+01
  -7.01063621975798856312e+00+j1.37168328738411933188e+01
  -6.96931305112360099940e+00+j1.36992242903556267208e+01
  -6.92826125575216256181e+00+j1.36815796222877903432e+01
  -6.88747870116764371318e+00+j1.36639003611117058057e+01
  -6.84696327118211200968e+00+j1.36461879693816516834e+01
  -6.80671286584331891589e+00+j1.36284438812708526001e+01
  -6.76672540139366240908e+00+j1.36106695030788973355e+01
  -6.72699881021669732206e+00+j1.35928662137442479718e+01
  -6.68753104079323534847e+00+j1.35750353653361326423e+01
  -6.64832005763601330273e+00+j1.35571782835521332800e+01
  -6.60936384124163378573e+00+j1.35392962681905100197e+01
  -6.57066038802509044814e+00+j1.35213905936233373950e+01
  -6.53220771025736191007e+00+j1.35034625092615439002e+01
  -6.49400383599844754912e+00+j1.34855132400107802226e+01
  -6.45604680903323391306e+00+j1.34675439867137463068e+01
  -6.41833468880092539166e+00+j1.34495559265887614231e+01
  -6.38086555032041502500e+00+j1.34315502136652202836e+01
  -6.34363748411783401338e+00+j1.34135279792023833778e+01
  -6.30664859615353545763e+00+j1.33954903321013532036e+01
</dep>
<dep S[2,2] frequency>
  +2.04362024919644780230e-01-j5.84859521108610946882e-01
  +2.03472004612688717184e-01-j5.83346065850400385955e-01
  +2.02591274294952494728e-01-j5.81839398390496143065e-01
  +2.01719719614483705694e-01-j5.80339498633463235500e-01
  +2.00857227741241595176e-01-j5.78846346021796853698e-01
  +2.00003687347691361254e-01-j5.77359919554790823604e-01
  +1.99158988589507979228e-01-j5.75880197807823401845e-01
  +1.98323023084976235442e-01-j5.74407158949210128185e-01
  +1.97495683896777851629e-01-j5.72940780758160350672e-01
  +1.96676865512896648092e-01-j5.71481040642208060198e-01
  +1.95866463827370163031e-01-j5.70027915652827177340e-01
  +1.95064376121277693876e-01-j5.68581382501761489756e-01
  +1.94270501045365695525e-01-j5.67141417576807471690e-01
  +1.93484738601039929495e-01-j5.65707996956577252590e-01
  +1.92706990122170518376e-01-j5.64281096425195860533e-01
  +1.91937158257799389549e-01-j5.62860691486711584020e-01
  +1.91175146953876495814e-01-j5.61446757378658456439e-01
  +1.90420861436342847561e-01-j5.60039269085517044111e-01
  +1.89674208193369664421e-01-j5.58638201351886687362e-01
  +1.88935094958521454522e-01-j5.57243528694862821915e-01
  +1.88203430693751450065e-01-j5.55855225416426845797e-01
  +1.87479125573212668243e-01-j5.54473265615485377822e-01
  +1.86762090965557181477e-01-j5.53097623198799626110e-01
  +1.86052239419154719080e-01-j5.51728271893024757588e-01
  +1.85349484645119244597e-01-j5.50365185255069166992e-01
  +1.84653741501321522200e-01-j5.49008336682491826508e-01
  +1.83964925977192494955e-01-j5.47657699424004995592e-01
  +1.83282955177660411561e-01-j5.46313246589294809752e-01
  +1.82607747308352941218e-01-j5.44974951158511355942e-01
  +1.81939221660325278762e-01-j5.43642785991953481073e-01
  +1.81277298594545110966e-01-j5.42316723838335734698e-01
  +1.80621899528045193328e-01-j5.40996737344363376465e-01
  +1.79972946918600440469e-01-j5.39682799062548124169e-01
  +1.79330364250933238512e-01-j5.38374881459877108192e-01
  +1.78694076022148373717e-01-j5.37072956925618516522e-01
  +1.78064007727509798773e-01-j5.35776997778618424562e-01
  +1.77440085847355266679e-01-j5.34486976275524439117e-01
  +1.76822237832645445810e-01-j5.33202864617411065318e-01
  +1.76210392092032597233e-01-j5.31924634957045450179e-01
  +1.75604477978219097878e-01-j5.30652259405383630586e-01
  +1.75004425775209693228e-01-j5.29385710038607237848e-01
  +1.74410166684828171757e-01-j5.28124958903843144675e-01
  +1.73821632814415427681e-01-j5.26869978025873431093e-01
  +1.73238757164137890943e-01-j5.25620739412772319810e-01
  +1.72661473614411087318e-01-j5.24377215061676005270e-01
  +1.72089716913560730749e-01-j5.23139376964238178580e-01
  +1.71523422665979974333e-01-j5.21907197112208676160e-01
  +1.70962527320167090306e-01-j5.20680647502577031993e-01
  +1.70406968156645466372e-01-j5.19459700142425040426e-01
  +1.69856683276589148779e-01-j5.18244327053851816522e-01
  +1.69311611590549748740e-01-j5.17034500278819475483e-01
</dep>
<indep V1.I 1>
  -1.13015388094364396115e-02
</indep>
<indep Pr1.I 1>
  +1.00382006385025361606e-02
</indep>
<indep _net1.V 1>
  +5.00000000000000000000e+00
</indep>
<indep _net7.V 1>
  +5.00000000000000000000e+00
</indep>
<indep _net6.V 1>
  +0.00000000000000000000e+00
</indep>
<indep _net3.V 1>
  +5.00000000000000000000e+00
</indep>
<indep _net5.V 1>
  +0.00000000000000000000e+00
</indep>
<indep _net2.V 1>
  +3.10499274359914334553e+00
</indep>
<indep _net4.V 1>
  +3.10499274359914334553e+00
</indep>
<indep _net0.V 1>
  +2.23333912934043921084e+00
</indep>
