<Qucs Dataset 0.0.20>
<indep frequency 41>
  +1.08000000000000000000e+08
  +1.08300000000000000000e+08
  +1.08600000000000000000e+08
  +1.08900000000000000000e+08
  +1.09200000000000000000e+08
  +1.09500000000000000000e+08
  +1.09800000000000000000e+08
  +1.10100000000000000000e+08
  +1.10400000000000000000e+08
  +1.10700000000000000000e+08
  +1.11000000000000000000e+08
  +1.11300000000000000000e+08
  +1.11600000000000000000e+08
  +1.11900000000000000000e+08
  +1.12200000000000000000e+08
  +1.12500000000000000000e+08
  +1.12800000000000000000e+08
  +1.13100000000000000000e+08
  +1.13400000000000000000e+08
  +1.13700000000000000000e+08
  +1.14000000000000000000e+08
  +1.14300000000000000000e+08
  +1.14600000000000000000e+08
  +1.14900000000000000000e+08
  +1.15200000000000000000e+08
  +1.15500000000000000000e+08
  +1.15800000000000000000e+08
  +1.16100000000000000000e+08
  +1.16400000000000000000e+08
  +1.16700000000000000000e+08
  +1.17000000000000000000e+08
  +1.17300000000000000000e+08
  +1.17600000000000000000e+08
  +1.17900000000000000000e+08
  +1.18200000000000000000e+08
  +1.18500000000000000000e+08
  +1.18800000000000000000e+08
  +1.19100000000000000000e+08
  +1.19400000000000000000e+08
  +1.19700000000000000000e+08
  +1.20000000000000000000e+08
</indep>
<dep S[1,1] frequency>
  +4.67757795573322088245e-01-j1.38847846999067159324e-01
  +4.77269562139522041111e-01-j1.51261782209942630129e-01
  +4.86160388915803154397e-01-j1.63776534103296067535e-01
  +4.94446671037643836755e-01-j1.76361919768944497289e-01
  +5.02145727409332942592e-01-j1.88990048964853746272e-01
  +5.09275592070165483705e-01-j2.01635254830591886810e-01
  +5.15854825531843252939e-01-j2.14274012820069359453e-01
  +5.21902345533819977952e-01-j2.26884850619292421925e-01
  +5.27437276435033797206e-01-j2.39448251501690329013e-01
  +5.32478816290873235850e-01-j2.51946553267831330203e-01
  +5.37046120545421779013e-01-j2.64363844624379895620e-01
  +5.41158201193938315221e-01-j2.76685860583074649810e-01
  +5.44833840231737087656e-01-j2.88899878207467430968e-01
  +5.48091516196175021491e-01-j3.00994613804798472056e-01
  +5.50949342623404447750e-01-j3.12960122453094513606e-01
  +5.53425017274438602044e-01-j3.24787700569568182907e-01
  +5.55535781032137632174e-01-j3.36469792064605643933e-01
  +5.57298385427872911002e-01-j3.47999898485102265866e-01
  +5.58729067820422975466e-01-j3.59372493430090089728e-01
  +5.59843533317412545003e-01-j3.70582941419018097040e-01
  +5.60656942599473517852e-01-j3.81627421306753478181e-01
  +5.61183904876895622849e-01-j3.92502854267979151004e-01
  +5.61438475277174386946e-01-j4.03206836315212591160e-01
  +5.61434156027994957228e-01-j4.13737575267787538458e-01
  +5.61183900863442497453e-01-j4.24093832052139907418e-01
  +5.60700122140753598465e-01-j4.34274866185425489906e-01
  +5.59994700210779905447e-01-j4.44280385273444988758e-01
  +5.59078994636964976550e-01-j4.54110498339051260608e-01
  +5.57963856905357102889e-01-j4.63765672787598171034e-01
  +5.56659644311690238183e-01-j4.73246694810659618291e-01
  +5.55176234751244668253e-01-j4.82554633027465762485e-01
  +5.53523042173116985865e-01-j4.91690805164545940986e-01
  +5.51709032492836315420e-01-j5.00656747577406413541e-01
  +5.49742739786215461884e-01-j5.09454187423107884847e-01
  +5.47632282613306764496e-01-j5.18085017299073191666e-01
  +5.45385380344114323314e-01-j5.26551272170815432005e-01
  +5.43009369378374406878e-01-j5.34855108419405089748e-01
  +5.40511219169419909747e-01-j5.42998784847981807999e-01
  +5.37897547978037571248e-01-j5.50984645495441349716e-01
  +5.35174638296102345159e-01-j5.58815104114231075982e-01
  +5.32348451891613061449e-01-j5.66492630178013545361e-01
</dep>
<dep S[2,2] frequency>
  +8.91673196487914321295e-02+j3.06041417782911828738e-02
  +1.05108348822507025044e-01+j3.57223775600090664994e-02
  +1.21096545199710775575e-01+j4.01524836962526832096e-02
  +1.37095908667766219757e-01+j4.39027690769677736427e-02
  +1.53071792195448808105e-01+j4.69837603390431679529e-02
  +1.68991045567734421429e-01+j4.94080258832709784400e-02
  +1.84822136696573602332e-01+j5.11899921955712988719e-02
  +2.00535250622022265254e-01+j5.23457553382766782590e-02
  +2.16102366676842322368e-01+j5.28928903143388584596e-02
  +2.31497314601872589135e-01+j5.28502608034496779155e-02
  +2.46695810665699649666e-01+j5.22378315340545906764e-02
  +2.61675475059293338731e-01+j5.10764852984807449232e-02
  +2.76415832004350769946e-01+j4.93878463492698482895e-02
  +2.90898294135068680166e-01+j4.71941116406230376512e-02
  +3.05106132789709993958e-01+j4.45178911081273165351e-02
  +3.19024435884625146009e-01+j4.13820579175810943084e-02
  +3.32640055043551763347e-01+j3.78096093654813891760e-02
  +3.45941543624131875312e-01+j3.38235388835770311999e-02
  +3.58919087226408028979e-01+j2.94467193899531354262e-02
  +3.71564428189732953722e-01+j2.47017980421205818331e-02
  +3.83870785489621058062e-01+j1.96111022837290871479e-02
  +3.95832771339275357736e-01+j1.41965569364816968090e-02
  +4.07446305685631560145e-01+j8.47961197181523740340e-03
  +4.18708529670632878528e-01+j2.48118050204781948054e-03
  +4.29617719008021592408e-01-j3.77841354335561874223e-03
  +4.40173198106950824826e-01-j1.02794786457793829726e-02
  +4.50375255658292228400e-01-j1.70029904569277690030e-02
  +4.60225062289364661439e-01-j2.39306187395026404019e-02
  +4.69724590789207807617e-01-j3.10447471481242187608e-02
  +4.78876539310482962630e-01-j3.83284865074192682144e-02
  +4.87684257865902026641e-01-j4.57656822327651147120e-02
  +4.96151678357510950157e-01-j5.33409165198557300158e-02
  +5.04283248305865461347e-01-j6.10395059038908449622e-02
  +5.12083868383100493382e-01-j6.88474947591919406165e-02
  +5.19558833799035113543e-01-j7.67516452765908407940e-02
  +5.26713779542072990658e-01-j8.47394244202852586767e-02
  +5.33554629436466365533e-01-j9.27989883288981021181e-02
  +5.40087548943973816407e-01-j1.00919164588026633034e-01
  +5.46318901610336693508e-01-j1.09089432764424620892e-01
  +5.52255209034967831094e-01-j1.17299903555445950154e-01
  +5.57903114225015928085e-01-j1.25541296872185292877e-01
</dep>
