!	Electronica Aplicada III
!	Modelo
!	VCE = 0.50V IC =  2.5 mA
!	Common Emitter S-Parameters:    2020
#	MHz 	Y	RI	R 	50
!	f	Y11	Y21	Y12	Y22
!	MHz	Re 	Im	Re	Im	Re	Im	Re	Im
1.00E+01	1.000e-003	6.91150377510601e-004	10.000e-002	-6.28159312974835e-005	10.000e-011	-6.28317839566744e-005	1.000e-004	6.28318466978057e-005
2.00E+01	1.000e-003	1.38230075511976e-003	10.000e-002	-1.25655735831659e-004	10.000e-011	-1.25663567913588e-004	1.000e-004	1.25663693430769e-004
3.00E+01	1.000e-003	2.07345113260057e-003	10.000e-002	-1.88490235202124e-004	10.000e-011	-1.88495351870448e-004	1.000e-004	1.88495540711781e-004
4.00E+01	1.000e-003	2.76460151007590e-003	10.000e-002	-2.51323408281663e-004	10.000e-011	-2.51327135827294e-004	1.000e-004	2.51327387304883e-004
5.00E+01	1.000e-003	3.45575188782580e-003	10.000e-002	-3.14156050844830e-004	10.000e-011	-3.14158919784136e-004	1.000e-004	3.14159234325335e-004
6.00E+01	1.000e-003	4.14690226523399e-003	10.000e-002	-3.76988428149812e-004	10.000e-011	-3.76990703740974e-004	1.000e-004	3.76991081080476e-004
7.00E+01	1.000e-003	4.83805264291829e-003	10.000e-002	-4.39820653878689e-004	10.000e-011	-4.39822487697812e-004	1.000e-004	4.39822926513156e-004
8.00E+01	1.000e-003	5.52920302092154e-003	10.000e-002	-5.02652784872499e-004	10.000e-011	-5.02654271654648e-004	1.000e-004	5.02654774618556e-004
9.00E+01	1.000e-003	6.22035339761174e-003	10.000e-002	-5.65484852709597e-004	10.000e-011	-5.65486055611484e-004	1.000e-004	5.65486620957726e-004
1.00E+02	1.000e-003	6.91150377413855e-003	10.000e-002	-6.28316876336999e-004	10.000e-011	-6.28317839568319e-004	1.000e-004	6.28318467039794e-004
1.10E+02	1.000e-003	7.60265415266568e-003	10.000e-002	-6.91148867811893e-004	10.000e-011	-6.91149623525154e-004	1.000e-004	6.91150316389385e-004
1.20E+02	1.000e-003	8.29380452984574e-003	10.000e-002	-7.53980835172407e-004	10.000e-011	-7.53981407481989e-004	1.000e-004	7.53982162308734e-004
1.30E+02	1.000e-003	8.98495490783186e-003	10.000e-002	-8.16812783983397e-004	10.000e-011	-8.16813191438823e-004	1.000e-004	8.16814009380384e-004
1.40E+02	1.000e-003	9.67610528563779e-003	10.000e-002	-8.79644718219762e-004	10.000e-011	-8.79644975395658e-004	1.000e-004	8.79645854947278e-004
1.50E+02	1.000e-003	1.03672556613197e-002	10.000e-002	-9.42476640796426e-004	9.99997799972289e-011	-9.42476759352492e-004	1.000e-004	9.42477703482867e-004
1.60E+02	1.000e-003	1.10584060422279e-002	10.000e-002	-1.00530855389958e-003	9.99997800044098e-011	-1.00530854330933e-003	1.000e-004	1.00530954881574e-003
1.70E+02	1.000e-003	1.17495564156501e-002	10.000e-002	-1.06814045920103e-003	9.99997799953996e-011	-1.06814032726616e-003	1.000e-004	1.06814139754693e-003
1.80E+02	1.000e-003	1.24407067960860e-002	10.000e-002	-1.13097235800105e-003	9.99997799956516e-011	-1.13097211122299e-003	1.000e-004	1.13097324073668e-003
1.90E+02	1.000e-003	1.31318571710780e-002	10.000e-002	-1.19380425132618e-003	9.99997799829824e-011	-1.19380389517983e-003	1.000e-004	1.19380508753995e-003
2.00E+02	1.000e-003	1.38230075507138e-002	10.000e-002	-1.25663613999767e-003	9.99997800003624e-011	-1.25663567913666e-003	1.000e-004	1.25663693433856e-003
2.10E+02	1.000e-003	1.45141579293121e-002	10.000e-002	-1.31946802468031e-003	9.99997800089839e-011	-1.31946746309350e-003	1.000e-004	1.31946878336846e-003
2.20E+02	1.000e-003	1.52053083069273e-002	10.000e-002	-1.38229990591803e-003	9.99997800003625e-011	-1.38229924705033e-003	1.000e-004	1.38230062792437e-003
2.30E+02	1.000e-003	1.58964586836042e-002	10.000e-002	-1.44513178416018e-003	9.99997799792553e-011	-1.44513103100716e-003	1.000e-004	1.44513247716071e-003
2.40E+02	1.000e-003	1.65876090593804e-002	10.000e-002	-1.50796365978120e-003	9.99997800223161e-011	-1.50796281496400e-003	1.000e-004	1.50796432405271e-003
2.50E+02	1.000e-003	1.72787594396093e-002	10.000e-002	-1.57079553309563e-003	9.99997800109505e-011	-1.57079459892083e-003	1.000e-004	1.57079616828137e-003
2.60E+02	1.000e-003	1.79699098138864e-002	10.000e-002	-1.63362740436962e-003	9.99997800003626e-011	-1.63362638287766e-003	1.000e-004	1.63362801783006e-003
2.70E+02	1.000e-003	1.86610601902173e-002	10.000e-002	-1.69645927382987e-003	9.99997800127115e-011	-1.69645816683450e-003	1.000e-004	1.69645986184199e-003
2.80E+02	1.000e-003	1.93522105719213e-002	10.000e-002	-1.75929114167072e-003	9.99997800003627e-011	-1.75928995079133e-003	1.000e-004	1.75929170861977e-003
2.90E+02	1.000e-003	2.00433609503932e-002	10.000e-002	-1.82212300805969e-003	9.99997800136263e-011	-1.82212173474817e-003	1.000e-004	1.82212355848290e-003
3.00E+02	1.000e-003	2.07345113253284e-002	10.000e-002	-1.88495487314196e-003	9.99997799760539e-011	-1.88495351870500e-003	1.000e-004	1.88495540536436e-003
3.10E+02	1.000e-003	2.14256616964201e-002	10.000e-002	-1.94778673704401e-003	9.99997799755966e-011	-1.94778530266183e-003	1.000e-004	1.94778725224465e-003
3.20E+02	1.000e-003	2.21168120803906e-002	10.000e-002	-2.01061859987646e-003	9.99997799963150e-011	-2.01061708661867e-003	1.000e-004	2.01061909571774e-003
3.30E+02	1.000e-003	2.28079624574517e-002	10.000e-002	-2.07345046173656e-003	9.99997799913525e-011	-2.07344887057550e-003	1.000e-004	2.07345094248954e-003
3.40E+02	1.000e-003	2.34991128342113e-002	10.000e-002	-2.13628232271010e-003	9.99997799848124e-011	-2.13628065453233e-003	1.000e-004	2.13628278926045e-003
3.50E+02	1.000e-003	2.41902632144024e-002	10.000e-002	-2.19911418287307e-003	9.99997800109507e-011	-2.19911243848917e-003	1.000e-004	2.19911463603055e-003
3.60E+02	1.000e-003	2.48814135906872e-002	10.000e-002	-2.26194604229303e-003	9.99997800109507e-011	-2.26194422244600e-003	1.000e-004	2.26194648279991e-003
3.70E+02	1.000e-003	2.55725639706293e-002	10.000e-002	-2.32477790103021e-003	9.99997800024441e-011	-2.32477600640284e-003	1.000e-004	2.32477832956859e-003
3.80E+02	1.000e-003	2.62637143424189e-002	10.000e-002	-2.38760975913851e-003	9.99997799935709e-011	-2.38760779035967e-003	1.000e-004	2.38761017633663e-003
3.90E+02	1.000e-003	2.69548647261783e-002	10.000e-002	-2.45044161666632e-003	9.99997800182000e-011	-2.45043957431650e-003	1.000e-004	2.45044202725531e-003
4.00E+02	1.000e-003	2.76460151015816e-002	10.000e-002	-2.51327347365717e-003	9.99997799637737e-011	-2.51327135827334e-003	1.000e-004	2.51327386987103e-003
4.10E+02	1.000e-003	2.83371654767222e-002	10.000e-002	-2.57610533015035e-003	9.99997800003628e-011	-2.57610314223017e-003	1.000e-004	2.57610572100155e-003
4.20E+02	1.000e-003	2.90283158516038e-002	10.000e-002	-2.63893718618141e-003	9.99997799917415e-011	-2.63893492618700e-003	1.000e-004	2.63893756787396e-003
4.30E+02	1.000e-003	2.97194662353834e-002	10.000e-002	-2.70176904178258e-003	9.99997800200295e-011	-2.70176671014384e-003	1.000e-004	2.70176941016897e-003
4.40E+02	1.000e-003	3.04106166099691e-002	10.000e-002	-2.76460089698318e-003	9.99997799897750e-011	-2.76459849410067e-003	1.000e-004	2.76460125693411e-003
4.50E+02	1.000e-003	3.11017669938842e-002	10.000e-002	-2.82743275180992e-003	9.99997800109508e-011	-2.82743027805750e-003	1.000e-004	2.82743310848873e-003
4.60E+02	1.000e-003	3.17929173681845e-002	10.000e-002	-2.89026460628718e-003	9.99997800108823e-011	-2.89026206201434e-003	1.000e-004	2.89026495535959e-003
4.70E+02	1.000e-003	3.24840677422394e-002	10.000e-002	-2.95309646043725e-003	9.99997799897750e-011	-2.95309384597117e-003	1.000e-004	2.95309679722737e-003
4.80E+02	1.000e-003	3.31752181211598e-002	10.000e-002	-3.01592831428061e-003	9.99997799889973e-011	-3.01592562992801e-003	1.000e-004	3.01592864910034e-003
4.90E+02	1.000e-003	3.38663685000514e-002	10.000e-002	-3.07876016783601e-003	9.99997800121859e-011	-3.07875741388484e-003	1.000e-004	3.07876049075465e-003
5.00E+02	1.000e-003	3.45575188735939e-002	10.000e-002	-3.14159202112074e-003	9.99997800126433e-011	-3.14158919784167e-003	1.000e-004	3.14159233751787e-003
5.10E+02	1.000e-003	3.52486692577551e-002	10.000e-002	-3.20442387415072e-003	9.99997800226136e-011	-3.20442098179851e-003	1.000e-004	3.20442418970934e-003
5.20E+02	1.000e-003	3.59398196255003e-002	10.000e-002	-3.26725572694064e-003	9.99997799990594e-011	-3.26725276575534e-003	1.000e-004	3.26725603657851e-003
5.30E+02	1.000e-003	3.66309700040799e-002	10.000e-002	-3.33008757950411e-003	9.99997800230710e-011	-3.33008454971217e-003	1.000e-004	3.33008787780606e-003
5.40E+02	1.000e-003	3.73221203826380e-002	10.000e-002	-3.39291943185369e-003	9.99997800038848e-011	-3.39291633366901e-003	1.000e-004	3.39291972456835e-003
5.50E+02	1.000e-003	3.80132707670303e-002	10.000e-002	-3.45575128400105e-003	9.99997800003629e-011	-3.45574811762584e-003	1.000e-004	3.45575157133044e-003
5.60E+02	1.000e-003	3.87044211516163e-002	10.000e-002	-3.51858313595703e-003	9.99997799981446e-011	-3.51857990158267e-003	1.000e-004	3.51858341809233e-003
5.70E+02	1.000e-003	3.93955715181955e-002	10.000e-002	-3.58141498773169e-003	9.99997800109508e-011	-3.58141168553951e-003	1.000e-004	3.58141526485404e-003
5.80E+02	1.000e-003	4.00867219028526e-002	10.000e-002	-3.64424683933443e-003	9.99997800215387e-011	-3.64424346949634e-003	1.000e-004	3.64424711778918e-003
5.90E+02	1.000e-003	4.07778722751462e-002	10.000e-002	-3.70707869077397e-003	9.99997799868707e-011	-3.70707525345317e-003	1.000e-004	3.70707896465700e-003
6.00E+02	1.000e-003	4.14690226472113e-002	10.000e-002	-3.76991054205849e-003	9.99997800140839e-011	-3.76990703741001e-003	1.000e-004	3.76991081152466e-003
6.10E+02	1.000e-003	4.21601730320347e-002	10.000e-002	-3.83274239319559e-003	9.99997800249004e-011	-3.83273882136684e-003	1.000e-004	3.83274265189925e-003
6.20E+02	1.000e-003	4.28513234038583e-002	10.000e-002	-3.89557424419242e-003	9.99997800145413e-011	-3.89557060532368e-003	1.000e-004	3.89557450525955e-003
6.30E+02	1.000e-003	4.35424737821614e-002	10.000e-002	-3.95840609505566e-003	9.99997799965438e-011	-3.95840238928051e-003	1.000e-004	3.95840635212679e-003
6.40E+02	1.000e-003	4.42336241604517e-002	10.000e-002	-4.02123794579157e-003	9.99997799897750e-011	-4.02123417323734e-003	1.000e-004	4.02123819218166e-003
6.50E+02	1.000e-003	4.49247745387300e-002	10.000e-002	-4.08406979640602e-003	9.99997799960865e-011	-4.08406595719417e-003	1.000e-004	4.08407004586090e-003
6.60E+02	1.000e-003	4.56159249099714e-002	10.000e-002	-4.14690164690453e-003	9.99997800109508e-011	-4.14689774115101e-003	1.000e-004	4.14690188570265e-003
6.70E+02	1.000e-003	4.63070752881206e-002	10.000e-002	-4.20973349729231e-003	9.99997799956292e-011	-4.20972952510784e-003	1.000e-004	4.20973373959454e-003
6.80E+02	1.000e-003	4.69982256662591e-002	10.000e-002	-4.27256534757422e-003	9.99997799897750e-011	-4.27256130906468e-003	1.000e-004	4.27256557922319e-003
6.90E+02	1.000e-003	4.76893760443875e-002	10.000e-002	-4.33539719775488e-003	9.99997799897751e-011	-4.33539309302151e-003	1.000e-004	4.33539743332776e-003
7.00E+02	1.000e-003	4.83805264225062e-002	10.000e-002	-4.39822904783862e-003	9.99997800057828e-011	-4.39822487697834e-003	1.000e-004	4.39822927274333e-003
7.10E+02	1.000e-003	4.90716768006156e-002	10.000e-002	-4.46106089782955e-003	9.99997799897750e-011	-4.46105666093518e-003	1.000e-004	4.46106111950326e-003
7.20E+02	1.000e-003	4.97628271863799e-002	10.000e-002	-4.52389274773152e-003	9.99997800003629e-011	-4.52388844489201e-003	1.000e-004	4.52389296626310e-003
7.30E+02	1.000e-003	5.04539775568081e-002	10.000e-002	-4.58672459754819e-003	9.99997800231627e-011	-4.58672022884885e-003	1.000e-004	4.58672482079307e-003
7.40E+02	1.000e-003	5.11451279348920e-002	10.000e-002	-4.64955644728302e-003	9.99997800003629e-011	-4.64955201280568e-003	1.000e-004	4.64955665978252e-003
7.50E+02	1.000e-003	5.18362783129679e-002	10.000e-002	-4.71238829693929e-003	9.99997799937997e-011	-4.71238379676251e-003	1.000e-004	4.71238851452521e-003
7.60E+02	1.000e-003	5.25274286910363e-002	10.000e-002	-4.77522014652009e-003	9.99997799897751e-011	-4.77521558071934e-003	1.000e-004	4.77522035330163e-003
7.70E+02	1.000e-003	5.32185790690975e-002	10.000e-002	-4.83805199602837e-003	9.99997800145181e-011	-4.83804736467618e-003	1.000e-004	4.83805220006108e-003
7.80E+02	1.000e-003	5.39097294471517e-002	10.000e-002	-4.90088384546692e-003	9.99997800254495e-011	-4.90087914863301e-003	1.000e-004	4.90088405512288e-003
7.90E+02	1.000e-003	5.46008798251991e-002	10.000e-002	-4.96371569483837e-003	9.99997800184288e-011	-4.96371093258985e-003	1.000e-004	4.96371588517090e-003
8.00E+02	1.000e-003	5.52920302032402e-002	10.000e-002	-5.02654754414526e-003	9.99997800186575e-011	-5.02654271654668e-003	1.000e-004	5.02654774033900e-003
8.10E+02	1.000e-003	5.59831805812750e-002	10.000e-002	-5.08937939338996e-003	9.99997799897750e-011	-5.08937450050351e-003	1.000e-004	5.08937959571993e-003
8.20E+02	1.000e-003	5.66743309593038e-002	10.000e-002	-5.15221124257476e-003	9.99997800191149e-011	-5.15220628446034e-003	1.000e-004	5.15221144258550e-003
8.30E+02	1.000e-003	5.73654813373268e-002	10.000e-002	-5.21504309170182e-003	9.99997800003630e-011	-5.21503806841718e-003	1.000e-004	5.21504328945100e-003
8.40E+02	1.000e-003	5.80566317153443e-002	10.000e-002	-5.27787494077321e-003	9.99997800003630e-011	-5.27786985237401e-003	1.000e-004	5.27787513631645e-003
8.50E+02	1.000e-003	5.87477820933564e-002	10.000e-002	-5.34070678979088e-003	9.99997800003630e-011	-5.34070163633085e-003	1.000e-004	5.34070698318185e-003
8.60E+02	1.000e-003	5.94389324713633e-002	10.000e-002	-5.40353863875671e-003	9.99997799701084e-011	-5.40353342028768e-003	1.000e-004	5.40353882089324e-003
8.70E+02	1.000e-003	6.01300828401048e-002	10.000e-002	-5.46637048767249e-003	9.99997799711602e-011	-5.46636520424451e-003	1.000e-004	5.46637067691248e-003
8.80E+02	1.000e-003	6.08212332179954e-002	10.000e-002	-5.52920233653993e-003	9.99997800098991e-011	-5.52919698820135e-003	1.000e-004	5.52920251441089e-003
8.90E+02	1.000e-003	6.15123835958813e-002	10.000e-002	-5.59203418536065e-003	9.99997799995399e-011	-5.59202877215818e-003	1.000e-004	5.59203437064293e-003
9.00E+02	1.000e-003	6.22035339641831e-002	10.000e-002	-5.65486603413622e-003	9.99997800106537e-011	-5.65486055611502e-003	1.000e-004	5.65486621750808e-003
9.10E+02	1.000e-003	6.28946843419537e-002	10.000e-002	-5.71769788286811e-003	9.99997800003630e-011	-5.71769234007185e-003	1.000e-004	5.71769806437319e-003
9.20E+02	1.000e-003	6.35858347197201e-002	10.000e-002	-5.78052973155776e-003	9.99997799899121e-011	-5.78052412402868e-003	1.000e-004	5.78052991123826e-003
9.30E+02	1.000e-003	6.42769851073815e-002	10.000e-002	-5.84336158020653e-003	9.99997799897292e-011	-5.84335590798551e-003	1.000e-004	5.84336175810329e-003
9.40E+02	1.000e-003	6.49681354852463e-002	10.000e-002	-5.90619342881572e-003	9.99997800112712e-011	-5.90618769194235e-003	1.000e-004	5.90619359496279e-003
9.50E+02	1.000e-003	6.56592858631073e-002	10.000e-002	-5.96902527738658e-003	9.99997800003630e-011	-5.96901947589918e-003	1.000e-004	5.96902545183322e-003
9.60E+02	1.000e-003	6.63504362409645e-002	10.000e-002	-6.03185712592031e-003	9.99997799897751e-011	-6.03185125985602e-003	1.000e-004	6.03185729869813e-003
9.70E+02	1.000e-003	6.70415866188182e-002	10.000e-002	-6.09468897441805e-003	9.99997799897751e-011	-6.09468304381285e-003	1.000e-004	6.09468913523820e-003
9.80E+02	1.000e-003	6.77327369862371e-002	10.000e-002	-6.15752082288093e-003	9.99997799785697e-011	-6.15751482776968e-003	1.000e-004	6.15752098199660e-003
9.90E+02	1.000e-003	6.84238873850528e-002	10.000e-002	-6.22035267130997e-003	9.99997800109508e-011	-6.22034661172651e-003	1.000e-004	6.22035283929266e-003
1.00E+03	1.000e-003	6.91150377630028e-002	10.000e-002	-6.28318451970621e-003	9.99997800020554e-011	-6.28317839568335e-003	1.000e-004	6.28318467551330e-003
