Freq.	I(C1)/V(o)	I(C2)/V(o)
1.00000000000000e+007	9.99999997800000e-014,-6.28318530026808e-005	1.00000010000000e-004,6.28319584008689e-005
2.00000000000000e+007	9.99999997800000e-014,-1.25663706005362e-004	1.00000010000000e-004,1.25663916825611e-004
3.00000000000000e+007	9.99999997800000e-014,-1.88495559008042e-004	1.00000010000000e-004,1.88495619785929e-004
4.00000000000000e+007	9.99999997800000e-014,-2.51327412010723e-004	1.00000010000000e-004,2.51327833663159e-004
5.00000000000000e+007	9.99999997800000e-014,-3.14159265013404e-004	1.00000010000000e-004,3.14159792080739e-004
6.00000000000000e+007	9.99999997800000e-014,-3.76991118016085e-004	1.00000010000000e-004,3.76991239579816e-004
7.00000000000000e+007	9.99999997800000e-014,-4.39822971018766e-004	1.00000010000000e-004,4.39822516772664e-004
8.00000000000000e+007	9.99999997800000e-014,-5.02654824021447e-004	1.00000010000000e-004,5.02655667332286e-004
9.00000000000000e+007	9.99999997800000e-014,-5.65486677024127e-004	1.00000010000000e-004,5.65486859371935e-004
1.00000000000000e+008	9.99999997800000e-014,-6.28318530026808e-004	1.00000010000000e-004,6.28319584166252e-004
1.10000000000000e+008	9.99999997800000e-014,-6.91150383029489e-004	1.00000010000000e-004,6.91151542583181e-004
1.20000000000000e+008	9.99999997800000e-014,-7.53982236032170e-004	1.00000010000000e-004,7.53982479163612e-004
1.30000000000000e+008	9.99999997800000e-014,-8.16814089034851e-004	1.00000010000000e-004,8.16814352427459e-004
1.40000000000000e+008	9.99999997800000e-014,-8.79645942037532e-004	1.00000010000000e-004,8.79645033548738e-004
1.50000000000000e+008	9.99999997800000e-014,-9.42477795040212e-004	1.00000010000000e-004,9.42478098955112e-004
1.60000000000000e+008	9.99999997800000e-014,-1.00530964804289e-003	1.00000010000000e-004,1.00531133466756e-003
1.70000000000000e+008	9.99999997800000e-014,-1.06814150104557e-003	1.00000010000000e-004,1.06814184548273e-003
1.80000000000000e+008	9.99999997800000e-014,-1.13097335404825e-003	1.00000010000000e-004,1.13097371874652e-003
1.90000000000000e+008	9.99999997800000e-014,-1.19380520705094e-003	1.00000010000000e-004,1.19380397410256e-003
2.00000000000000e+008	9.99999997800000e-014,-1.25663706005362e-003	1.00000010000000e-004,1.25663916833489e-003
2.10000000000000e+008	9.99999997800000e-014,-1.31946891305630e-003	1.00000010000000e-004,1.31946933853788e-003
2.20000000000000e+008	9.99999997800000e-014,-1.38230076605898e-003	1.00000010000000e-004,1.38230308516853e-003
2.30000000000000e+008	9.99999997800000e-014,-1.44513261906166e-003	1.00000010000000e-004,1.44513504358535e-003
2.40000000000000e+008	9.99999997800000e-014,-1.50796447206434e-003	1.00000010000000e-004,1.50796495832921e-003
2.50000000000000e+008	9.99999997800000e-014,-1.57079632506702e-003	1.00000010000000e-004,1.57079683159298e-003
2.60000000000000e+008	9.99999997800000e-014,-1.63362817806970e-003	1.00000010000000e-004,1.63362870485675e-003
2.70000000000000e+008	9.99999997800000e-014,-1.69646003107238e-003	1.00000010000000e-004,1.69646057812052e-003
2.80000000000000e+008	9.99999997800000e-014,-1.75929188407506e-003	1.00000010000000e-004,1.75929006709918e-003
2.90000000000000e+008	9.99999997800000e-014,-1.82212373707774e-003	1.00000010000000e-004,1.82212432464805e-003
3.00000000000000e+008	9.99999997800000e-014,-1.88495559008042e-003	1.00000010000000e-004,1.88495619791181e-003
3.10000000000000e+008	9.99999997800000e-014,-1.94778744308311e-003	1.00000010000000e-004,1.94778807117558e-003
3.20000000000000e+008	9.99999997800000e-014,-2.01061929608579e-003	1.00000010000000e-004,2.01062266933660e-003
3.30000000000000e+008	9.99999997799999e-014,-2.07345114908847e-003	1.00000010000000e-004,2.07345181770310e-003
3.40000000000000e+008	9.99999997800000e-014,-2.13628300209115e-003	1.00000010000000e-004,2.13628369096686e-003
3.50000000000000e+008	9.99999997800000e-014,-2.19911485509383e-003	1.00000010000000e-004,2.19911258387423e-003
3.60000000000000e+008	9.99999997800000e-014,-2.26194670809651e-003	1.00000010000000e-004,2.26194743749437e-003
3.70000000000000e+008	9.99999997800000e-014,-2.32477856109919e-003	1.00000010000000e-004,2.32477616009567e-003
3.80000000000000e+008	9.99999997800000e-014,-2.38761041410187e-003	1.00000010000000e-004,2.38760794820638e-003
3.90000000000000e+008	9.99999997800000e-014,-2.45044226710455e-003	1.00000010000000e-004,2.45044305728564e-003
4.00000000000000e+008	9.99999997800000e-014,-2.51327412010723e-003	1.00000010000000e-004,2.51327833667098e-003
4.10000000000000e+008	9.99999997800000e-014,-2.57610597310991e-003	1.00000010000000e-004,2.57610331253853e-003
4.20000000000000e+008	9.99999997800000e-014,-2.63893782611260e-003	1.00000010000000e-004,2.63893867707690e-003
4.30000000000000e+008	9.99999997800000e-014,-2.70176967911528e-003	1.00000010000000e-004,2.70177055034066e-003
4.40000000000000e+008	9.99999997800000e-014,-2.76460153211796e-003	1.00000010000000e-004,2.76460617033815e-003
4.50000000000000e+008	9.99999997800000e-014,-2.82743338512064e-003	1.00000010000000e-004,2.82743046498139e-003
4.60000000000000e+008	9.99999997800000e-014,-2.89026523812332e-003	1.00000010000000e-004,2.89027008717173e-003
4.70000000000000e+008	9.99999997800000e-014,-2.95309709112600e-003	1.00000010000000e-004,2.95309804339567e-003
4.80000000000000e+008	9.99999997800000e-014,-3.01592894412868e-003	1.00000010000000e-004,3.01592991665942e-003
4.90000000000000e+008	9.99999997800000e-014,-3.07876079713136e-003	1.00000010000000e-004,3.07876178992317e-003
5.00000000000000e+008	9.99999997800000e-014,-3.14159265013404e-003	1.00000010000000e-004,3.14159366318692e-003
5.10000000000000e+008	9.99999997800000e-014,-3.20442450313672e-003	1.00000010000000e-004,3.20442553645068e-003
5.20000000000000e+008	9.99999997800000e-014,-3.26725635613940e-003	1.00000010000000e-004,3.26725740971443e-003
5.30000000000000e+008	9.99999997800000e-014,-3.33008820914208e-003	1.00000010000000e-004,3.33008928297818e-003
5.40000000000000e+008	9.99999997800000e-014,-3.39292006214476e-003	1.00000010000000e-004,3.39292115624193e-003
5.50000000000000e+008	9.99999997800000e-014,-3.45575191514744e-003	1.00000010000000e-004,3.45575302950568e-003
5.60000000000000e+008	9.99999997800000e-014,-3.51858376815013e-003	1.00000010000000e-004,3.51858013419921e-003
5.70000000000000e+008	9.99999997800000e-014,-3.58141562115281e-003	1.00000010000000e-004,3.58141192230992e-003
5.80000000000000e+008	9.99999997800000e-014,-3.64424747415549e-003	1.00000010000000e-004,3.64424864929693e-003
5.90000000000000e+008	9.99999997800000e-014,-3.70707932715817e-003	1.00000010000000e-004,3.70708554659001e-003
6.00000000000000e+008	9.99999997800000e-014,-3.76991118016085e-003	1.00000010000000e-004,3.76991239582443e-003
6.10000000000000e+008	9.99999997800000e-014,-3.83274303316353e-003	1.00000010000000e-004,3.83274426908817e-003
6.20000000000000e+008	9.99999997800000e-014,-3.89557488616621e-003	1.00000010000000e-004,3.89557614235192e-003
6.30000000000000e+008	9.99999997800000e-014,-3.95840673916889e-003	1.00000010000000e-004,3.95840265097418e-003
6.40000000000000e+008	9.99999997800000e-014,-4.02123859217157e-003	1.00000010000000e-004,4.02124533867395e-003
6.50000000000000e+008	9.99999997800000e-014,-4.08407044517425e-003	1.00000010000000e-004,4.08407729709074e-003
6.60000000000000e+008	9.99999997799999e-014,-4.14690229817693e-003	1.00000010000000e-004,4.14690363540692e-003
6.70000000000000e+008	9.99999997800000e-014,-4.20973415117962e-003	1.00000010000000e-004,4.20973550867067e-003
6.80000000000000e+008	9.99999997800000e-014,-4.27256600418230e-003	1.00000010000000e-004,4.27256738193442e-003
6.90000000000000e+008	9.99999997800000e-014,-4.33539785718498e-003	1.00000010000000e-004,4.33539925519816e-003
7.00000000000000e+008	9.99999997800000e-014,-4.39822971018766e-003	1.00000010000000e-004,4.39822516774915e-003
7.10000000000000e+008	9.99999997800000e-014,-4.46106156319034e-003	1.00000010000000e-004,4.46106904759147e-003
7.20000000000000e+008	9.99999997800000e-014,-4.52389341619302e-003	1.00000010000000e-004,4.52389487498941e-003
7.30000000000000e+008	9.99999997800000e-014,-4.58672526919570e-003	1.00000010000000e-004,4.58673296442504e-003
7.40000000000000e+008	9.99999997800000e-014,-4.64955712219838e-003	1.00000010000000e-004,4.64955232019198e-003
7.50000000000000e+008	9.99999997799999e-014,-4.71238897520106e-003	1.00000010000000e-004,4.71239049478065e-003
7.60000000000000e+008	9.99999997800000e-014,-4.77522082820374e-003	1.00000010000000e-004,4.77521589641340e-003
7.70000000000000e+008	9.99999997800000e-014,-4.83805268120642e-003	1.00000010000000e-004,4.83804768452410e-003
7.80000000000000e+008	9.99999997800000e-014,-4.90088453420910e-003	1.00000010000000e-004,4.90088611457189e-003
7.90000000000000e+008	9.99999997800000e-014,-4.96371638721179e-003	1.00000010000000e-004,4.96371798783564e-003
8.00000000000000e+008	9.99999997800000e-014,-5.02654824021447e-003	1.00000010000000e-004,5.02655667334255e-003
8.10000000000000e+008	9.99999997800000e-014,-5.08938009321715e-003	1.00000010000000e-004,5.08938173436314e-003
8.20000000000000e+008	9.99999997800000e-014,-5.15221194621983e-003	1.00000010000000e-004,5.15220662507764e-003
8.30000000000000e+008	9.99999997800000e-014,-5.21504379922251e-003	1.00000010000000e-004,5.21503841318835e-003
8.40000000000000e+008	9.99999997800000e-014,-5.27787565222519e-003	1.00000010000000e-004,5.27787735415438e-003
8.50000000000000e+008	9.99999997800000e-014,-5.34070750522787e-003	1.00000010000000e-004,5.34070922741813e-003
8.60000000000000e+008	9.99999997800000e-014,-5.40353935823055e-003	1.00000010000000e-004,5.40354110068187e-003
8.70000000000000e+008	9.99999997800000e-014,-5.46637121123323e-003	1.00000010000000e-004,5.46638038226006e-003
8.80000000000000e+008	9.99999997800000e-014,-5.52920306423591e-003	1.00000010000000e-004,5.52921234067684e-003
8.90000000000000e+008	9.99999997800000e-014,-5.59203491723860e-003	1.00000010000000e-004,5.59203672047311e-003
9.00000000000000e+008	9.99999997800000e-014,-5.65486677024128e-003	1.00000010000000e-004,5.65486092996330e-003
9.10000000000000e+008	9.99999997800000e-014,-5.71769862324396e-003	1.00000010000000e-004,5.71770046700061e-003
9.20000000000000e+008	9.99999997800000e-014,-5.78053047624664e-003	1.00000010000000e-004,5.78054017434399e-003
9.30000000000000e+008	9.99999997800000e-014,-5.84336232924932e-003	1.00000010000000e-004,5.84336421352810e-003
9.40000000000000e+008	9.99999997800000e-014,-5.90619418225200e-003	1.00000010000000e-004,5.90619608679185e-003
9.50000000000000e+008	9.99999997800000e-014,-5.96902603525468e-003	1.00000010000000e-004,5.96902796005559e-003
9.60000000000000e+008	9.99999997800000e-014,-6.03185788825736e-003	1.00000010000000e-004,6.03185983331934e-003
9.70000000000000e+008	9.99999997800000e-014,-6.09468974126004e-003	1.00000010000000e-004,6.09468344673825e-003
9.80000000000000e+008	9.99999997800000e-014,-6.15752159426272e-003	1.00000010000000e-004,6.15752357984683e-003
9.90000000000000e+008	9.99999997800000e-014,-6.22035344726540e-003	1.00000010000000e-004,6.22036388326149e-003
1.00000000000000e+009	9.99999997800000e-014,-6.28318530026808e-003	1.00000010000000e-004,6.28318732637432e-003
