! Infineon Technologies  Discrete & RF Semiconductors
! BFP460
! VCE =  2.0 V,  IC =  1.0 mA
! Common Emitter S-Parameters:                            Jan 2016
# GHz  S  MA  R  50
!  f         S11            S21            S12            S22
! GHz     MAG   ANG      MAG   ANG      MAG   ANG      MAG   ANG
 0.030  0.9716   -2.6   3.789  178.4  0.0067   87.9  0.9972   -1.5
 0.035  0.9704   -3.0   3.783  178.0  0.0077   87.6  0.9969   -1.7
 0.040  0.9692   -3.5   3.777  177.5  0.0088   87.3  0.9967   -2.0
 0.045  0.9698   -4.0   3.769  176.8  0.0099   86.9  0.9967   -2.2
 0.050  0.9704   -4.5   3.762  176.1  0.0110   86.6  0.9967   -2.4
 0.055  0.9690   -5.0   3.764  175.9  0.0121   86.4  0.9965   -2.6
 0.060  0.9676   -5.5   3.767  175.8  0.0132   86.2  0.9964   -2.9
 0.065  0.9689   -5.9   3.783  175.3  0.0143   86.1  0.9963   -3.1
 0.070  0.9702   -6.3   3.799  174.9  0.0154   86.1  0.9962   -3.4
 0.075  0.9703   -6.7   3.792  174.8  0.0165   85.7  0.9960   -3.6
 0.080  0.9705   -7.1   3.785  174.6  0.0177   85.4  0.9958   -3.9
 0.085  0.9695   -7.5   3.786  174.2  0.0187   85.1  0.9954   -4.1
 0.090  0.9686   -8.0   3.788  173.9  0.0198   84.9  0.9951   -4.4
 0.095  0.9694   -8.4   3.779  173.6  0.0209   84.6  0.9948   -4.6
 0.100  0.9703   -8.8   3.771  173.3  0.0220   84.4  0.9946   -4.9
 0.105  0.9702   -9.2   3.772  173.0  0.0231   84.0  0.9942   -5.1
 0.110  0.9701   -9.7   3.774  172.7  0.0242   83.7  0.9938   -5.3
 0.115  0.9697  -10.1   3.779  172.3  0.0253   83.4  0.9935   -5.6
 0.120  0.9694  -10.6   3.784  171.9  0.0264   83.2  0.9932   -5.9
 0.125  0.9683  -11.0   3.782  171.7  0.0274   82.9  0.9926   -6.1
 0.130  0.9672  -11.4   3.780  171.4  0.0285   82.6  0.9921   -6.3
 0.135  0.9669  -11.8   3.783  171.0  0.0296   82.3  0.9918   -6.5
 0.140  0.9667  -12.3   3.786  170.6  0.0308   82.0  0.9916   -6.8
 0.145  0.9659  -12.7   3.780  170.2  0.0318   81.7  0.9911   -7.0
 0.150  0.9651  -13.2   3.774  169.8  0.0329   81.4  0.9907   -7.3
 0.155  0.9645  -13.6   3.772  169.5  0.0340   81.1  0.9901   -7.5
 0.160  0.9639  -14.0   3.771  169.2  0.0350   80.7  0.9896   -7.8
 0.165  0.9634  -14.5   3.770  168.8  0.0361   80.4  0.9890   -8.0
 0.170  0.9630  -14.9   3.769  168.5  0.0372   80.1  0.9885   -8.3
 0.175  0.9626  -15.3   3.768  168.2  0.0382   79.9  0.9880   -8.5
 0.180  0.9622  -15.7   3.767  167.9  0.0393   79.6  0.9875   -8.7
 0.185  0.9619  -16.1   3.766  167.6  0.0404   79.4  0.9870   -9.0
 0.190  0.9616  -16.6   3.765  167.2  0.0415   79.1  0.9866   -9.2
 0.195  0.9614  -17.0   3.764  166.9  0.0425   78.9  0.9861   -9.5
 0.200  0.9613  -17.4   3.764  166.6  0.0436   78.7  0.9857   -9.7
 0.220  0.9582  -19.2   3.753  165.2  0.0477   77.4  0.9832  -10.6
 0.240  0.9561  -21.0   3.744  163.9  0.0519   76.3  0.9809  -11.5
 0.260  0.9538  -22.7   3.732  162.6  0.0560   75.2  0.9782  -12.5
 0.280  0.9513  -24.4   3.717  161.3  0.0601   74.1  0.9750  -13.4
 0.300  0.9496  -26.1   3.704  160.0  0.0642   73.1  0.9721  -14.4
 0.320  0.9457  -27.8   3.690  158.7  0.0681   71.9  0.9684  -15.3
 0.340  0.9426  -29.5   3.677  157.4  0.0721   70.9  0.9649  -16.2
 0.360  0.9394  -31.1   3.662  156.2  0.0760   69.8  0.9612  -17.1
 0.380  0.9361  -32.8   3.643  154.9  0.0797   68.7  0.9571  -18.0
 0.400  0.9336  -34.5   3.626  153.6  0.0835   67.7  0.9533  -18.9
 0.420  0.9288  -36.1   3.605  152.3  0.0872   66.6  0.9492  -19.8
 0.440  0.9248  -37.8   3.587  151.0  0.0909   65.6  0.9453  -20.7
 0.450  0.9231  -38.6   3.578  150.4  0.0928   65.1  0.9435  -21.1
 0.460  0.9209  -39.4   3.568  149.8  0.0945   64.6  0.9410  -21.5
 0.480  0.9169  -41.0   3.549  148.6  0.0979   63.5  0.9361  -22.4
 0.500  0.9137  -42.6   3.531  147.4  0.1014   62.6  0.9314  -23.2
 0.520  0.9079  -44.2   3.506  146.2  0.1046   61.5  0.9264  -24.0
 0.540  0.9029  -45.8   3.483  145.0  0.1078   60.4  0.9217  -24.8
 0.560  0.8985  -47.4   3.462  143.8  0.1110   59.4  0.9171  -25.6
 0.580  0.8949  -49.1   3.442  142.5  0.1143   58.5  0.9126  -26.4
 0.600  0.8920  -50.7   3.424  141.3  0.1176   57.6  0.9084  -27.2
 0.620  0.8861  -52.2   3.398  140.2  0.1204   56.6  0.9029  -28.0
 0.640  0.8809  -53.7   3.374  139.0  0.1233   55.6  0.8975  -28.7
 0.660  0.8763  -55.3   3.351  137.9  0.1262   54.7  0.8924  -29.5
 0.680  0.8723  -56.8   3.329  136.7  0.1291   53.8  0.8873  -30.3
 0.700  0.8690  -58.4   3.309  135.5  0.1321   53.0  0.8825  -31.1
 0.720  0.8633  -59.8   3.282  134.4  0.1346   52.1  0.8770  -31.8
 0.740  0.8581  -61.3   3.257  133.3  0.1370   51.1  0.8716  -32.5
 0.760  0.8535  -62.8   3.232  132.2  0.1396   50.3  0.8663  -33.2
 0.780  0.8495  -64.3   3.209  131.1  0.1421   49.4  0.8612  -34.0
 0.800  0.8461  -65.8   3.187  130.0  0.1447   48.6  0.8562  -34.7
 0.820  0.8406  -67.2   3.162  129.0  0.1469   47.7  0.8507  -35.3
 0.840  0.8357  -68.6   3.138  128.0  0.1490   46.9  0.8453  -36.0
 0.860  0.8312  -70.0   3.115  127.0  0.1513   46.1  0.8400  -36.7
 0.880  0.8273  -71.5   3.092  126.0  0.1535   45.3  0.8348  -37.3
 0.900  0.8239  -72.9   3.071  125.0  0.1558   44.5  0.8297  -38.0
 0.920  0.8185  -74.2   3.045  124.0  0.1577   43.7  0.8244  -38.6
 0.940  0.8136  -75.6   3.021  123.0  0.1596   42.9  0.8193  -39.3
 0.960  0.8091  -77.0   2.997  122.0  0.1615   42.2  0.8142  -39.9
 0.980  0.8051  -78.4   2.974  121.0  0.1635   41.4  0.8093  -40.5
 1.000  0.8016  -79.8   2.952  120.0  0.1655   40.7  0.8044  -41.2
 1.020  0.7966  -81.1   2.927  119.1  0.1671   40.0  0.7994  -41.8
 1.040  0.7920  -82.4   2.902  118.2  0.1687   39.2  0.7944  -42.3
 1.060  0.7879  -83.7   2.879  117.2  0.1703   38.5  0.7895  -42.9
 1.080  0.7841  -85.1   2.856  116.3  0.1719   37.8  0.7847  -43.5
 1.100  0.7808  -86.4   2.834  115.3  0.1736   37.1  0.7800  -44.1
 1.120  0.7760  -87.7   2.811  114.4  0.1750   36.4  0.7753  -44.6
 1.140  0.7716  -88.9   2.788  113.5  0.1764   35.7  0.7706  -45.2
 1.160  0.7676  -90.2   2.767  112.6  0.1778   35.0  0.7660  -45.7
 1.180  0.7640  -91.5   2.745  111.7  0.1792   34.4  0.7615  -46.2
 1.200  0.7608  -92.8   2.725  110.8  0.1807   33.7  0.7570  -46.8
 1.220  0.7568  -94.0   2.702  110.0  0.1819   33.0  0.7526  -47.3
 1.240  0.7531  -95.2   2.680  109.2  0.1830   32.4  0.7482  -47.8
 1.260  0.7498  -96.5   2.659  108.3  0.1842   31.8  0.7439  -48.3
 1.280  0.7468  -97.7   2.638  107.5  0.1855   31.1  0.7396  -48.9
 1.300  0.7442  -99.0   2.618  106.6  0.1867   30.5  0.7354  -49.4
 1.320  0.7403 -100.2   2.597  105.8  0.1876   29.9  0.7310  -49.9
 1.340  0.7366 -101.3   2.576  105.0  0.1886   29.3  0.7267  -50.3
 1.360  0.7333 -102.5   2.555  104.2  0.1895   28.7  0.7225  -50.8
 1.380  0.7303 -103.7   2.535  103.3  0.1905   28.2  0.7183  -51.3
 1.400  0.7276 -104.9   2.516  102.5  0.1915   27.6  0.7141  -51.8
 1.420  0.7239 -106.0   2.496  101.7  0.1923   27.0  0.7103  -52.2
 1.440  0.7206 -107.2   2.477  100.9  0.1931   26.5  0.7065  -52.7
 1.460  0.7175 -108.4   2.458  100.1  0.1939   25.9  0.7028  -53.1
 1.480  0.7147 -109.5   2.439   99.3  0.1947   25.4  0.6991  -53.6
 1.500  0.7122 -110.7   2.421   98.5  0.1956   24.8  0.6955  -54.0
 1.520  0.7088 -111.8   2.402   97.8  0.1962   24.3  0.6917  -54.4
 1.540  0.7057 -113.0   2.384   97.0  0.1968   23.7  0.6879  -54.9
 1.560  0.7029 -114.1   2.366   96.3  0.1975   23.2  0.6842  -55.3
 1.580  0.7004 -115.2   2.348   95.5  0.1981   22.7  0.6805  -55.8
 1.600  0.6981 -116.4   2.331   94.7  0.1988   22.2  0.6768  -56.2
 1.620  0.6955 -117.4   2.314   94.0  0.1993   21.7  0.6737  -56.6
 1.640  0.6931 -118.5   2.298   93.3  0.1999   21.2  0.6706  -57.0
 1.660  0.6910 -119.6   2.281   92.6  0.2005   20.7  0.6676  -57.4
 1.680  0.6891 -120.6   2.266   91.9  0.2011   20.2  0.6646  -57.8
 1.700  0.6874 -121.7   2.250   91.2  0.2017   19.7  0.6616  -58.2
 1.720  0.6850 -122.7   2.233   90.5  0.2021   19.2  0.6585  -58.6
 1.740  0.6828 -123.8   2.216   89.8  0.2025   18.7  0.6554  -59.0
 1.760  0.6808 -124.8   2.200   89.1  0.2029   18.3  0.6523  -59.4
 1.780  0.6790 -125.8   2.184   88.4  0.2033   17.8  0.6493  -59.8
 1.800  0.6775 -126.9   2.168   87.7  0.2037   17.3  0.6463  -60.2
 1.820  0.6752 -127.9   2.153   87.1  0.2040   16.9  0.6433  -60.6
 1.840  0.6731 -128.9   2.138   86.4  0.2042   16.4  0.6403  -60.9
 1.860  0.6712 -129.9   2.124   85.7  0.2045   16.0  0.6373  -61.3
 1.880  0.6695 -131.0   2.110   85.1  0.2048   15.5  0.6344  -61.7
 1.900  0.6680 -132.0   2.096   84.4  0.2051   15.1  0.6315  -62.1
 1.920  0.6662 -133.0   2.081   83.7  0.2053   14.7  0.6288  -62.5
 1.940  0.6647 -134.0   2.067   83.1  0.2054   14.3  0.6262  -62.9
 1.960  0.6633 -135.0   2.053   82.4  0.2056   13.8  0.6236  -63.2
 1.980  0.6622 -136.0   2.039   81.7  0.2058   13.4  0.6210  -63.6
 2.000  0.6612 -137.0   2.026   81.0  0.2060   13.0  0.6184  -64.0
 2.020  0.6591 -138.0   2.012   80.4  0.2060   12.6  0.6159  -64.3
 2.040  0.6573 -138.9   1.998   79.8  0.2061   12.2  0.6135  -64.7
 2.060  0.6556 -139.9   1.984   79.2  0.2061   11.8  0.6110  -65.1
 2.080  0.6541 -140.8   1.971   78.6  0.2062   11.4  0.6086  -65.4
 2.100  0.6528 -141.8   1.958   78.0  0.2063   11.0  0.6062  -65.8
 2.120  0.6516 -142.8   1.945   77.4  0.2064   10.6  0.6038  -66.1
 2.140  0.6507 -143.8   1.932   76.7  0.2065   10.2  0.6015  -66.5
 2.160  0.6499 -144.7   1.919   76.1  0.2066    9.8  0.5992  -66.9
 2.180  0.6494 -145.7   1.907   75.5  0.2067    9.4  0.5969  -67.2
 2.200  0.6490 -146.7   1.895   74.8  0.2068    9.0  0.5946  -67.6
 2.220  0.6476 -147.6   1.883   74.2  0.2067    8.7  0.5924  -67.9
 2.240  0.6463 -148.5   1.871   73.6  0.2065    8.3  0.5902  -68.3
 2.260  0.6451 -149.4   1.859   73.0  0.2064    8.0  0.5880  -68.7
 2.280  0.6442 -150.3   1.847   72.5  0.2063    7.6  0.5858  -69.0
 2.300  0.6434 -151.2   1.835   71.8  0.2062    7.3  0.5837  -69.4
 2.320  0.6427 -152.1   1.824   71.2  0.2061    6.9  0.5816  -69.7
 2.340  0.6422 -153.1   1.813   70.6  0.2060    6.6  0.5795  -70.1
 2.360  0.6419 -154.0   1.802   70.0  0.2059    6.2  0.5775  -70.5
 2.380  0.6418 -154.9   1.791   69.3  0.2059    5.9  0.5754  -70.8
 2.400  0.6418 -155.8   1.781   68.7  0.2058    5.5  0.5734  -71.2
 2.420  0.6409 -156.7   1.770   68.2  0.2055    5.2  0.5715  -71.6
 2.440  0.6401 -157.5   1.758   67.6  0.2053    4.8  0.5696  -71.9
 2.460  0.6394 -158.4   1.747   67.1  0.2051    4.5  0.5678  -72.3
 2.480  0.6389 -159.2   1.736   66.5  0.2048    4.2  0.5659  -72.7
 2.500  0.6385 -160.1   1.725   65.9  0.2046    3.9  0.5641  -73.0
 2.520  0.6383 -161.0   1.715   65.4  0.2044    3.5  0.5623  -73.4
 2.540  0.6383 -161.8   1.704   64.8  0.2042    3.2  0.5606  -73.8
 2.560  0.6383 -162.7   1.694   64.2  0.2040    2.9  0.5588  -74.1
 2.580  0.6385 -163.5   1.684   63.6  0.2038    2.5  0.5571  -74.5
 2.600  0.6389 -164.4   1.674   63.0  0.2036    2.2  0.5554  -74.9
 2.620  0.6383 -165.2   1.664   62.5  0.2032    1.9  0.5539  -75.3
 2.640  0.6378 -166.0   1.654   62.0  0.2029    1.6  0.5524  -75.6
 2.660  0.6374 -166.8   1.644   61.4  0.2025    1.3  0.5509  -76.0
 2.680  0.6371 -167.6   1.635   60.9  0.2021    1.0  0.5494  -76.4
 2.700  0.6370 -168.4   1.625   60.4  0.2018    0.7  0.5480  -76.8
 2.720  0.6370 -169.3   1.616   59.8  0.2014    0.4  0.5466  -77.2
 2.740  0.6371 -170.1   1.607   59.3  0.2011    0.0  0.5452  -77.5
 2.760  0.6374 -170.9   1.598   58.7  0.2008   -0.3  0.5438  -77.9
 2.780  0.6378 -171.7   1.589   58.2  0.2004   -0.6  0.5425  -78.3
 2.800  0.6383 -172.5   1.580   57.6  0.2001   -0.9  0.5412  -78.7
 2.820  0.6379 -173.3   1.571   57.1  0.1996   -1.2  0.5398  -79.1
 2.840  0.6376 -174.0   1.562   56.6  0.1991   -1.4  0.5385  -79.4
 2.860  0.6374 -174.8   1.553   56.1  0.1986   -1.7  0.5372  -79.8
 2.880  0.6374 -175.5   1.544   55.6  0.1982   -1.9  0.5359  -80.2
 2.900  0.6374 -176.3   1.535   55.1  0.1977   -2.2  0.5346  -80.5
 2.920  0.6376 -177.1   1.526   54.6  0.1972   -2.4  0.5334  -80.9
 2.940  0.6378 -177.8   1.518   54.0  0.1968   -2.7  0.5321  -81.3
 2.960  0.6382 -178.6   1.509   53.5  0.1963   -3.0  0.5309  -81.6
 2.980  0.6387 -179.3   1.501   52.9  0.1959   -3.2  0.5298  -82.0
 3.000  0.6393  179.9   1.493   52.4  0.1954   -3.5  0.5286  -82.4
 3.100  0.6372  176.5   1.450   50.3  0.1923   -4.5  0.5234  -84.2
 3.200  0.6373  173.0   1.409   48.0  0.1893   -5.5  0.5188  -86.1
 3.300  0.6398  169.6   1.371   45.6  0.1863   -6.5  0.5147  -88.0
 3.400  0.6445  166.2   1.335   43.1  0.1834   -7.6  0.5112  -89.9
 3.500  0.6514  162.9   1.302   40.4  0.1805   -8.7  0.5083  -91.9
 3.600  0.6522  159.9   1.268   38.5  0.1770   -9.2  0.5047  -93.9
 3.700  0.6549  156.9   1.235   36.4  0.1735   -9.6  0.5017  -95.8
 3.800  0.6593  154.0   1.204   34.2  0.1700  -10.1  0.4993  -97.8
 3.900  0.6654  151.0   1.175   32.0  0.1666  -10.7  0.4975  -99.9
 4.000  0.6732  148.2   1.148   29.6  0.1631  -11.2  0.4964 -101.9
 4.100  0.6758  145.8   1.119   27.8  0.1598  -11.1  0.4954 -104.1
 4.200  0.6796  143.4   1.091   26.0  0.1564  -11.0  0.4952 -106.3
 4.300  0.6845  141.1   1.064   24.1  0.1531  -10.9  0.4956 -108.5
 4.400  0.6906  138.8   1.038   22.0  0.1497  -10.7  0.4968 -110.6
 4.500  0.6978  136.5   1.014   19.9  0.1464  -10.6  0.4987 -112.8
 4.600  0.7007  134.6   0.990   18.4  0.1438   -9.8  0.5006 -114.9
 4.700  0.7044  132.6   0.966   16.7  0.1412   -9.0  0.5032 -117.0
 4.800  0.7089  130.7   0.944   15.0  0.1387   -8.2  0.5065 -119.1
 4.900  0.7142  128.8   0.922   13.3  0.1362   -7.3  0.5104 -121.1
 5.000  0.7202  127.0   0.901   11.4  0.1337   -6.4  0.5149 -123.1
 5.100  0.7228  125.4   0.881   10.1  0.1328   -5.1  0.5179 -125.0
 5.200  0.7260  123.9   0.861    8.7  0.1319   -3.8  0.5214 -126.9
 5.300  0.7297  122.3   0.842    7.3  0.1311   -2.5  0.5255 -128.8
 5.400  0.7339  120.8   0.824    5.8  0.1304   -1.2  0.5302 -130.7
 5.500  0.7386  119.3   0.806    4.3  0.1298    0.2  0.5354 -132.5
 5.600  0.7414  118.0   0.790    3.2  0.1305    1.5  0.5391 -134.5
 5.700  0.7446  116.7   0.775    2.0  0.1313    2.9  0.5433 -136.4
 5.800  0.7482  115.4   0.759    0.8  0.1322    4.2  0.5483 -138.4
 5.900  0.7522  114.1   0.744   -0.5  0.1331    5.4  0.5538 -140.3
 6.000  0.7565  112.8   0.730   -1.8  0.1341    6.7  0.5599 -142.1
 6.100  0.7570  111.6   0.717   -2.8  0.1361    7.8  0.5638 -143.9
 6.200  0.7577  110.4   0.703   -3.9  0.1381    9.0  0.5682 -145.6
 6.300  0.7589  109.2   0.690   -5.0  0.1402   10.0  0.5732 -147.3
 6.400  0.7603  108.0   0.677   -6.1  0.1423   11.1  0.5786 -149.0
 6.500  0.7621  106.8   0.665   -7.3  0.1445   12.1  0.5845 -150.6
 6.600  0.7619  105.6   0.654   -8.1  0.1478   13.0  0.5869 -151.9
 6.800  0.7627  103.1   0.633   -9.7  0.1544   14.5  0.5928 -154.5
 7.000  0.7648  100.7   0.613  -11.5  0.1612   16.0  0.5998 -157.1
 7.200  0.7672   97.8   0.597  -13.1  0.1704   16.5  0.6017 -159.9
 7.400  0.7715   95.0   0.582  -14.7  0.1795   17.0  0.6051 -162.7
 7.600  0.7762   92.0   0.568  -16.4  0.1893   16.9  0.6083 -165.8
 7.800  0.7818   88.8   0.555  -18.2  0.1996   16.4  0.6120 -169.2
 8.000  0.7898   85.6   0.543  -20.0  0.2099   15.9  0.6177 -172.5
 8.200  0.7927   82.3   0.529  -21.6  0.2198   14.4  0.6194 -176.3
 8.400  0.7983   78.9   0.516  -23.3  0.2298   13.0  0.6237  180.0
 8.600  0.8048   75.8   0.504  -24.9  0.2383   11.4  0.6258  175.9
 8.800  0.8120   72.8   0.491  -26.3  0.2456    9.5  0.6265  171.4
 9.000  0.8213   69.8   0.479  -27.8  0.2531    7.7  0.6310  167.0
 9.200  0.8316   67.4   0.466  -29.1  0.2574    5.9  0.6350  161.7
 9.400  0.8435   65.0   0.452  -30.4  0.2620    4.2  0.6444  156.4
 9.600  0.8534   62.9   0.439  -31.5  0.2657    2.7  0.6561  151.4
 9.800  0.8609   61.2   0.426  -32.3  0.2685    1.5  0.6697  146.5
10.000  0.8692   59.5   0.412  -33.1  0.2714    0.2  0.6880  141.8
!
!  f       NFmin   Gammaopt  rn/50
! GHz       dB    MAG  ANG    -
 0.450      0.69  0.73   19   0.45
 0.900      0.78  0.68   41   0.42
 1.900      1.48  0.47   96   0.28
 3.500      2.50  0.41 -173   0.14
!
! (c) 2016  Infineon Technologies AG, Munich
