! Infineon Technologies  Discrete & RF Semiconductors
! BFP460
! VCE =  2.5 V,  IC =  12 mA
! Common Emitter S-Parameters:                            Jan 2016
# GHz  S  MA  R  50
!  f         S11            S21            S12            S22
! GHz     MAG   ANG      MAG   ANG      MAG   ANG      MAG   ANG
 0.030  0.7327  -10.4  32.682  173.6  0.0056   85.7  0.9692   -6.8
 0.035  0.7301  -12.0  32.588  172.4  0.0064   84.1  0.9672   -7.9
 0.040  0.7282  -13.7  32.510  171.1  0.0073   82.9  0.9656   -9.1
 0.045  0.7260  -15.3  32.337  169.8  0.0082   82.3  0.9629  -10.1
 0.050  0.7243  -16.9  32.181  168.5  0.0092   81.8  0.9606  -11.2
 0.055  0.7240  -18.6  32.084  167.6  0.0101   81.4  0.9575  -12.3
 0.060  0.7244  -20.2  31.994  166.7  0.0110   81.0  0.9547  -13.5
 0.065  0.7200  -22.0  31.962  165.6  0.0117   80.0  0.9511  -14.6
 0.070  0.7163  -23.9  31.942  164.4  0.0125   79.1  0.9478  -15.7
 0.075  0.7173  -25.5  31.766  163.6  0.0134   78.1  0.9438  -16.8
 0.080  0.7189  -27.1  31.596  162.8  0.0144   77.2  0.9401  -17.9
 0.085  0.7151  -28.7  31.438  161.8  0.0151   76.5  0.9352  -18.9
 0.090  0.7118  -30.3  31.291  160.7  0.0159   75.9  0.9306  -20.0
 0.095  0.7091  -31.8  31.035  159.8  0.0167   75.2  0.9258  -21.0
 0.100  0.7070  -33.4  30.788  158.8  0.0175   74.6  0.9214  -22.1
 0.105  0.7049  -35.0  30.646  157.9  0.0182   73.8  0.9159  -23.1
 0.110  0.7034  -36.6  30.512  156.9  0.0190   73.0  0.9107  -24.1
 0.115  0.6996  -38.1  30.328  155.9  0.0197   72.3  0.9051  -25.1
 0.120  0.6963  -39.7  30.153  154.9  0.0205   71.7  0.8997  -26.1
 0.125  0.6930  -41.1  29.945  154.1  0.0212   71.1  0.8937  -27.1
 0.130  0.6901  -42.6  29.744  153.2  0.0219   70.5  0.8880  -28.1
 0.135  0.6866  -44.1  29.555  152.3  0.0226   69.9  0.8820  -29.0
 0.140  0.6836  -45.7  29.374  151.3  0.0234   69.4  0.8763  -30.0
 0.145  0.6793  -47.2  29.116  150.4  0.0241   68.7  0.8701  -30.9
 0.150  0.6755  -48.7  28.866  149.5  0.0248   68.0  0.8641  -31.9
 0.155  0.6710  -50.0  28.627  148.8  0.0254   67.4  0.8569  -32.7
 0.160  0.6669  -51.3  28.393  148.0  0.0260   66.7  0.8498  -33.5
 0.165  0.6632  -52.6  28.165  147.2  0.0265   66.2  0.8429  -34.3
 0.170  0.6598  -54.0  27.941  146.4  0.0271   65.6  0.8362  -35.2
 0.175  0.6567  -55.4  27.722  145.7  0.0277   65.1  0.8297  -36.0
 0.180  0.6541  -56.7  27.509  144.8  0.0283   64.6  0.8234  -36.9
 0.185  0.6518  -58.1  27.302  144.0  0.0289   64.1  0.8172  -37.8
 0.190  0.6499  -59.5  27.100  143.2  0.0295   63.6  0.8113  -38.7
 0.195  0.6484  -60.9  26.904  142.4  0.0301   63.1  0.8055  -39.6
 0.200  0.6473  -62.3  26.714  141.5  0.0307   62.7  0.8000  -40.5
 0.220  0.6321  -67.0  25.780  138.9  0.0326   60.9  0.7732  -43.4
 0.240  0.6214  -72.0  24.904  136.1  0.0345   59.2  0.7484  -46.4
 0.260  0.6114  -76.5  24.056  133.5  0.0363   57.8  0.7242  -49.2
 0.280  0.6009  -80.7  23.216  131.2  0.0378   56.4  0.6999  -51.7
 0.300  0.5937  -85.0  22.417  128.7  0.0394   55.2  0.6770  -54.4
 0.320  0.5827  -88.7  21.642  126.8  0.0407   54.2  0.6548  -56.5
 0.340  0.5742  -92.5  20.892  124.8  0.0420   53.2  0.6335  -58.8
 0.360  0.5662  -96.1  20.183  122.9  0.0432   52.3  0.6135  -60.9
 0.380  0.5581  -99.4  19.505  121.2  0.0443   51.5  0.5943  -62.8
 0.400  0.5518 -102.8  18.847  119.3  0.0454   50.8  0.5759  -64.9
 0.420  0.5444 -105.7  18.244  117.9  0.0464   50.2  0.5590  -66.6
 0.440  0.5386 -108.8  17.653  116.3  0.0474   49.7  0.5427  -68.4
 0.450  0.5362 -110.3  17.363  115.5  0.0479   49.4  0.5347  -69.3
 0.460  0.5330 -111.6  17.099  114.9  0.0483   49.2  0.5272  -70.0
 0.480  0.5275 -114.2  16.577  113.6  0.0492   48.8  0.5125  -71.5
 0.500  0.5231 -116.9  16.064  112.2  0.0500   48.4  0.4981  -73.1
 0.520  0.5178 -119.1  15.622  111.2  0.0508   48.1  0.4858  -74.3
 0.540  0.5133 -121.4  15.186  110.1  0.0516   47.9  0.4737  -75.5
 0.560  0.5096 -123.6  14.755  108.9  0.0523   47.7  0.4619  -76.9
 0.580  0.5067 -126.0  14.330  107.7  0.0531   47.4  0.4503  -78.2
 0.600  0.5047 -128.3  13.913  106.4  0.0539   47.2  0.4390  -79.7
 0.620  0.5011 -130.1  13.569  105.6  0.0546   47.1  0.4295  -80.8
 0.640  0.4981 -132.0  13.227  104.7  0.0553   47.0  0.4202  -81.9
 0.660  0.4955 -133.9  12.889  103.8  0.0561   46.8  0.4111  -83.0
 0.680  0.4935 -135.8  12.554  102.8  0.0568   46.7  0.4021  -84.2
 0.700  0.4921 -137.7  12.223  101.8  0.0575   46.6  0.3933  -85.5
 0.720  0.4899 -139.2  11.950  101.1  0.0582   46.6  0.3860  -86.4
 0.740  0.4881 -140.8  11.678  100.3  0.0589   46.5  0.3787  -87.3
 0.760  0.4867 -142.4  11.409   99.5  0.0595   46.5  0.3716  -88.3
 0.780  0.4856 -143.9  11.142   98.7  0.0602   46.4  0.3646  -89.3
 0.800  0.4849 -145.5  10.878   97.8  0.0609   46.4  0.3577  -90.4
 0.820  0.4832 -146.9  10.660   97.2  0.0616   46.4  0.3519  -91.2
 0.840  0.4818 -148.2  10.444   96.5  0.0623   46.4  0.3462  -92.0
 0.860  0.4806 -149.6  10.229   95.8  0.0629   46.5  0.3406  -92.9
 0.880  0.4798 -151.0  10.016   95.1  0.0636   46.5  0.3351  -93.8
 0.900  0.4792 -152.4   9.804   94.4  0.0643   46.5  0.3296  -94.7
 0.920  0.4780 -153.6   9.623   93.8  0.0650   46.5  0.3250  -95.5
 0.940  0.4769 -154.7   9.442   93.2  0.0657   46.6  0.3204  -96.2
 0.960  0.4761 -155.9   9.263   92.6  0.0663   46.6  0.3159  -97.0
 0.980  0.4754 -157.1   9.085   92.0  0.0670   46.7  0.3114  -97.9
 1.000  0.4750 -158.3   8.908   91.3  0.0677   46.7  0.3070  -98.7
 1.020  0.4743 -159.4   8.756   90.8  0.0684   46.7  0.3033  -99.4
 1.040  0.4737 -160.4   8.604   90.2  0.0691   46.8  0.2997 -100.1
 1.060  0.4733 -161.5   8.454   89.7  0.0698   46.8  0.2961 -100.8
 1.080  0.4731 -162.5   8.304   89.1  0.0705   46.9  0.2925 -101.5
 1.100  0.4730 -163.6   8.155   88.5  0.0712   46.9  0.2890 -102.3
 1.120  0.4726 -164.6   8.027   88.0  0.0719   46.9  0.2859 -102.9
 1.140  0.4722 -165.5   7.899   87.5  0.0726   47.0  0.2829 -103.6
 1.160  0.4721 -166.5   7.773   87.0  0.0733   47.0  0.2799 -104.2
 1.180  0.4720 -167.4   7.646   86.5  0.0740   47.1  0.2769 -104.9
 1.200  0.4721 -168.4   7.521   85.9  0.0747   47.1  0.2740 -105.6
 1.220  0.4718 -169.3   7.411   85.4  0.0754   47.1  0.2716 -106.2
 1.240  0.4716 -170.2   7.301   85.0  0.0761   47.2  0.2691 -106.8
 1.260  0.4716 -171.0   7.192   84.5  0.0769   47.2  0.2668 -107.4
 1.280  0.4716 -171.9   7.084   84.0  0.0776   47.3  0.2644 -108.1
 1.300  0.4718 -172.8   6.976   83.5  0.0783   47.3  0.2621 -108.7
 1.320  0.4718 -173.6   6.881   83.1  0.0790   47.3  0.2599 -109.3
 1.340  0.4718 -174.4   6.786   82.6  0.0797   47.3  0.2578 -109.9
 1.360  0.4720 -175.1   6.691   82.2  0.0805   47.4  0.2557 -110.5
 1.380  0.4722 -175.9   6.598   81.7  0.0812   47.4  0.2536 -111.1
 1.400  0.4725 -176.7   6.504   81.2  0.0819   47.4  0.2516 -111.7
 1.420  0.4725 -177.5   6.421   80.8  0.0826   47.4  0.2499 -112.2
 1.440  0.4726 -178.2   6.338   80.3  0.0833   47.4  0.2482 -112.8
 1.460  0.4727 -179.0   6.256   79.9  0.0841   47.4  0.2466 -113.4
 1.480  0.4730 -179.7   6.174   79.4  0.0848   47.4  0.2450 -113.9
 1.500  0.4733  179.5   6.093   78.9  0.0855   47.4  0.2434 -114.5
 1.520  0.4735  178.8   6.019   78.5  0.0862   47.4  0.2419 -115.0
 1.540  0.4738  178.0   5.945   78.1  0.0869   47.4  0.2405 -115.6
 1.560  0.4742  177.3   5.872   77.7  0.0877   47.5  0.2390 -116.1
 1.580  0.4747  176.5   5.799   77.2  0.0884   47.5  0.2376 -116.6
 1.600  0.4752  175.8   5.726   76.8  0.0891   47.5  0.2362 -117.2
 1.620  0.4753  175.2   5.662   76.4  0.0899   47.5  0.2350 -117.7
 1.640  0.4755  174.5   5.598   76.0  0.0906   47.5  0.2338 -118.2
 1.660  0.4757  173.9   5.535   75.6  0.0914   47.4  0.2326 -118.7
 1.680  0.4760  173.2   5.472   75.2  0.0921   47.4  0.2314 -119.3
 1.700  0.4764  172.6   5.409   74.8  0.0929   47.4  0.2303 -119.8
 1.720  0.4767  172.0   5.350   74.4  0.0937   47.4  0.2293 -120.3
 1.740  0.4772  171.4   5.292   74.0  0.0944   47.3  0.2283 -120.8
 1.760  0.4776  170.7   5.234   73.6  0.0952   47.3  0.2273 -121.3
 1.780  0.4781  170.1   5.176   73.2  0.0959   47.2  0.2263 -121.9
 1.800  0.4787  169.5   5.118   72.8  0.0967   47.2  0.2254 -122.4
 1.820  0.4790  168.9   5.067   72.4  0.0975   47.2  0.2245 -122.9
 1.840  0.4793  168.3   5.016   72.0  0.0982   47.2  0.2236 -123.4
 1.860  0.4797  167.6   4.965   71.6  0.0990   47.1  0.2227 -123.9
 1.880  0.4802  167.0   4.914   71.2  0.0997   47.1  0.2218 -124.4
 1.900  0.4807  166.4   4.864   70.8  0.1005   47.1  0.2210 -124.9
 1.920  0.4813  165.8   4.817   70.4  0.1012   47.0  0.2203 -125.4
 1.940  0.4819  165.2   4.770   70.1  0.1020   47.0  0.2196 -125.9
 1.960  0.4825  164.7   4.724   69.7  0.1027   46.9  0.2189 -126.4
 1.980  0.4832  164.1   4.677   69.3  0.1035   46.9  0.2182 -126.9
 2.000  0.4840  163.5   4.631   68.9  0.1042   46.8  0.2176 -127.4
 2.020  0.4846  162.9   4.589   68.6  0.1050   46.7  0.2170 -127.9
 2.040  0.4853  162.4   4.547   68.2  0.1057   46.7  0.2164 -128.4
 2.060  0.4861  161.8   4.505   67.8  0.1065   46.6  0.2159 -128.9
 2.080  0.4868  161.2   4.464   67.5  0.1072   46.5  0.2154 -129.4
 2.100  0.4877  160.7   4.423   67.1  0.1080   46.5  0.2148 -129.9
 2.120  0.4885  160.1   4.381   66.7  0.1088   46.4  0.2143 -130.4
 2.140  0.4895  159.6   4.341   66.3  0.1095   46.4  0.2139 -130.9
 2.160  0.4904  159.0   4.300   65.9  0.1103   46.3  0.2134 -131.5
 2.180  0.4914  158.5   4.259   65.5  0.1110   46.3  0.2129 -132.0
 2.200  0.4925  157.9   4.219   65.1  0.1118   46.2  0.2125 -132.5
 2.220  0.4931  157.4   4.184   64.8  0.1125   46.1  0.2121 -133.0
 2.240  0.4937  156.9   4.149   64.4  0.1133   46.0  0.2118 -133.5
 2.260  0.4944  156.4   4.114   64.1  0.1140   45.9  0.2115 -134.0
 2.280  0.4951  155.9   4.080   63.7  0.1148   45.9  0.2112 -134.5
 2.300  0.4958  155.4   4.046   63.4  0.1155   45.8  0.2109 -135.0
 2.320  0.4966  154.9   4.011   63.0  0.1162   45.7  0.2106 -135.5
 2.340  0.4974  154.4   3.977   62.6  0.1170   45.6  0.2104 -136.1
 2.360  0.4983  153.9   3.943   62.3  0.1177   45.6  0.2101 -136.6
 2.380  0.4992  153.4   3.910   61.9  0.1185   45.5  0.2099 -137.1
 2.400  0.5001  152.9   3.876   61.5  0.1192   45.4  0.2097 -137.6
 2.420  0.5009  152.4   3.846   61.2  0.1199   45.3  0.2096 -138.1
 2.440  0.5018  151.9   3.816   60.8  0.1207   45.2  0.2095 -138.7
 2.460  0.5027  151.4   3.786   60.5  0.1214   45.1  0.2095 -139.2
 2.480  0.5037  150.9   3.756   60.2  0.1222   45.0  0.2094 -139.7
 2.500  0.5047  150.4   3.726   59.8  0.1229   44.9  0.2094 -140.2
 2.520  0.5057  149.9   3.697   59.5  0.1236   44.8  0.2094 -140.8
 2.540  0.5068  149.4   3.667   59.1  0.1244   44.7  0.2094 -141.3
 2.560  0.5079  149.0   3.638   58.7  0.1251   44.6  0.2094 -141.8
 2.580  0.5090  148.5   3.609   58.4  0.1259   44.5  0.2094 -142.4
 2.600  0.5102  148.0   3.580   58.0  0.1266   44.4  0.2095 -142.9
 2.620  0.5109  147.6   3.554   57.7  0.1273   44.3  0.2096 -143.4
 2.640  0.5117  147.1   3.528   57.4  0.1281   44.2  0.2098 -143.9
 2.660  0.5124  146.7   3.503   57.1  0.1288   44.1  0.2100 -144.4
 2.680  0.5132  146.2   3.477   56.7  0.1295   43.9  0.2102 -145.0
 2.700  0.5141  145.8   3.452   56.4  0.1302   43.8  0.2104 -145.5
 2.720  0.5149  145.3   3.426   56.1  0.1310   43.7  0.2106 -146.0
 2.740  0.5158  144.9   3.401   55.7  0.1317   43.6  0.2109 -146.5
 2.760  0.5168  144.5   3.376   55.4  0.1324   43.5  0.2111 -147.0
 2.780  0.5177  144.0   3.351   55.1  0.1332   43.4  0.2114 -147.5
 2.800  0.5187  143.6   3.326   54.7  0.1339   43.3  0.2117 -148.0
 2.820  0.5196  143.2   3.303   54.4  0.1346   43.2  0.2120 -148.5
 2.840  0.5205  142.8   3.280   54.1  0.1353   43.1  0.2123 -149.0
 2.860  0.5215  142.4   3.258   53.8  0.1360   43.0  0.2127 -149.4
 2.880  0.5225  142.0   3.235   53.4  0.1367   42.8  0.2130 -149.9
 2.900  0.5235  141.6   3.213   53.1  0.1374   42.7  0.2134 -150.4
 2.920  0.5245  141.2   3.190   52.8  0.1382   42.6  0.2137 -150.8
 2.940  0.5256  140.8   3.168   52.4  0.1389   42.5  0.2141 -151.3
 2.960  0.5267  140.4   3.146   52.1  0.1396   42.4  0.2145 -151.8
 2.980  0.5278  140.0   3.124   51.8  0.1403   42.3  0.2150 -152.2
 3.000  0.5289  139.6   3.102   51.4  0.1410   42.2  0.2154 -152.7
 3.100  0.5329  137.6   3.008   50.0  0.1444   41.5  0.2175 -154.9
 3.200  0.5375  135.7   2.915   48.5  0.1477   40.8  0.2199 -157.1
 3.300  0.5427  133.7   2.825   47.0  0.1511   40.2  0.2226 -159.2
 3.400  0.5486  131.8   2.737   45.3  0.1546   39.6  0.2256 -161.2
 3.500  0.5550  130.0   2.651   43.5  0.1580   39.0  0.2289 -163.2
 3.600  0.5601  128.3   2.579   42.2  0.1611   38.3  0.2320 -165.4
 3.700  0.5658  126.6   2.508   40.8  0.1642   37.6  0.2354 -167.6
 3.800  0.5719  124.9   2.439   39.4  0.1673   36.9  0.2391 -169.7
 3.900  0.5785  123.3   2.371   37.8  0.1704   36.3  0.2432 -171.7
 4.000  0.5856  121.7   2.305   36.2  0.1736   35.7  0.2475 -173.7
 4.100  0.5911  120.3   2.248   35.0  0.1764   35.0  0.2522 -175.7
 4.200  0.5970  118.9   2.192   33.7  0.1792   34.4  0.2572 -177.6
 4.300  0.6032  117.6   2.137   32.3  0.1820   33.8  0.2624 -179.4
 4.400  0.6097  116.3   2.083   30.9  0.1848   33.2  0.2679  178.8
 4.500  0.6165  115.0   2.031   29.4  0.1877   32.6  0.2737  177.1
 4.600  0.6205  113.8   1.986   28.3  0.1904   32.0  0.2779  175.7
 4.700  0.6248  112.5   1.942   27.1  0.1932   31.4  0.2823  174.4
 4.800  0.6293  111.3   1.899   25.8  0.1960   30.9  0.2869  173.1
 4.900  0.6341  110.2   1.857   24.6  0.1988   30.3  0.2916  171.8
 5.000  0.6392  109.0   1.816   23.2  0.2016   29.8  0.2964  170.6
 5.100  0.6421  108.0   1.781   22.1  0.2046   29.1  0.2994  169.6
 5.200  0.6452  107.0   1.748   21.1  0.2077   28.5  0.3025  168.6
 5.300  0.6485  106.0   1.714   19.9  0.2108   27.9  0.3057  167.7
 5.400  0.6520  105.0   1.682   18.7  0.2139   27.3  0.3090  166.7
 5.500  0.6557  104.0   1.650   17.5  0.2170   26.7  0.3124  165.8
 5.600  0.6580  103.1   1.623   16.4  0.2199   26.0  0.3161  164.9
 5.700  0.6604  102.3   1.596   15.3  0.2227   25.3  0.3198  164.0
 5.800  0.6630  101.5   1.569   14.1  0.2257   24.6  0.3236  163.2
 5.900  0.6657  100.6   1.544   12.9  0.2286   23.9  0.3275  162.3
 6.000  0.6686   99.8   1.519   11.7  0.2316   23.3  0.3314  161.5
 6.100  0.6690   99.0   1.496   10.7  0.2341   22.6  0.3342  160.9
 6.200  0.6696   98.2   1.473    9.7  0.2367   21.9  0.3371  160.3
 6.300  0.6703   97.3   1.450    8.6  0.2392   21.3  0.3399  159.7
 6.400  0.6712   96.5   1.428    7.5  0.2419   20.6  0.3429  159.2
 6.500  0.6722   95.7   1.407    6.4  0.2445   20.0  0.3458  158.6
 6.600  0.6718   94.7   1.389    5.4  0.2474   19.4  0.3459  158.2
 6.800  0.6715   92.8   1.353    3.4  0.2533   18.2  0.3461  157.5
 7.000  0.6719   90.9   1.320    1.3  0.2593   17.0  0.3463  156.7
 7.200  0.6739   88.6   1.292   -0.9  0.2657   15.5  0.3463  155.2
 7.400  0.6769   86.4   1.265   -3.1  0.2723   14.0  0.3465  153.7
 7.600  0.6811   84.0   1.239   -5.5  0.2786   12.4  0.3484  151.8
 7.800  0.6867   81.4   1.214   -7.9  0.2847   10.6  0.3522  149.4
 8.000  0.6937   78.9   1.191  -10.5  0.2911    8.9  0.3566  147.1
 8.200  0.6995   76.2   1.160  -12.9  0.2954    6.8  0.3609  144.2
 8.400  0.7067   73.6   1.131  -15.4  0.3001    4.8  0.3661  141.4
 8.600  0.7161   71.1   1.101  -17.8  0.3032    2.8  0.3723  137.9
 8.800  0.7276   68.7   1.070  -20.1  0.3046    0.8  0.3804  133.7
 9.000  0.7402   66.4   1.041  -22.5  0.3064   -1.2  0.3904  129.7
 9.200  0.7562   64.4   1.007  -24.4  0.3056   -2.8  0.4062  125.0
 9.400  0.7731   62.5   0.974  -26.4  0.3050   -4.3  0.4246  120.6
 9.600  0.7878   60.8   0.941  -28.1  0.3042   -5.6  0.4440  116.8
 9.800  0.8002   59.3   0.909  -29.7  0.3032   -6.5  0.4637  113.5
10.000  0.8131   57.8   0.877  -31.3  0.3022   -7.5  0.4849  110.4
!
!  f       NFmin   Gammaopt  rn/50
! GHz       dB    MAG  ANG    -
 0.450      1.03  0.09   22   0.14
 1.900      1.19  0.09 -179   0.12
 3.500      1.20  0.36 -133   0.12
!
! (c) 2016  Infineon Technologies AG, Munich
