! Infineon Technologies  Discrete & RF Semiconductors
! BFP460
! VCE =  3.0 V,  IC =  40 mA
! Common Emitter S-Parameters:                            Jan 2016
# GHz  S  MA  R  50
!  f         S11            S21            S12            S22
! GHz     MAG   ANG      MAG   ANG      MAG   ANG      MAG   ANG
 0.030  0.4219  -22.6  61.750  168.8  0.0044   83.5  0.9180  -11.2
 0.035  0.4200  -26.4  61.265  166.9  0.0051   82.4  0.9133  -13.2
 0.040  0.4200  -30.2  60.848  165.0  0.0058   81.6  0.9097  -15.2
 0.045  0.4197  -33.8  60.154  163.2  0.0065   80.8  0.9030  -17.0
 0.050  0.4210  -37.3  59.522  161.3  0.0072   80.1  0.8972  -18.9
 0.055  0.4201  -40.7  58.953  159.7  0.0078   78.3  0.8890  -20.8
 0.060  0.4206  -44.1  58.429  158.1  0.0084   76.8  0.8818  -22.8
 0.065  0.4197  -47.9  57.870  156.4  0.0089   76.0  0.8726  -24.6
 0.070  0.4207  -51.6  57.365  154.6  0.0095   75.2  0.8643  -26.4
 0.075  0.4237  -54.4  56.641  153.2  0.0101   73.7  0.8539  -28.1
 0.080  0.4277  -57.1  55.950  151.8  0.0107   72.3  0.8443  -29.9
 0.085  0.4279  -60.4  55.158  150.3  0.0112   71.5  0.8332  -31.6
 0.090  0.4295  -63.6  54.406  148.7  0.0118   70.8  0.8228  -33.3
 0.095  0.4285  -66.0  53.539  147.4  0.0122   69.9  0.8119  -34.8
 0.100  0.4282  -68.5  52.700  146.1  0.0127   69.0  0.8016  -36.4
 0.105  0.4305  -71.1  52.000  144.8  0.0132   68.5  0.7901  -37.9
 0.110  0.4336  -73.7  51.328  143.4  0.0137   68.0  0.7792  -39.5
 0.115  0.4319  -76.5  50.526  142.1  0.0141   67.2  0.7678  -40.9
 0.120  0.4312  -79.4  49.750  140.8  0.0146   66.5  0.7569  -42.4
 0.125  0.4307  -81.6  48.980  139.7  0.0150   66.0  0.7455  -43.7
 0.130  0.4308  -83.8  48.229  138.5  0.0154   65.5  0.7346  -45.1
 0.135  0.4312  -86.1  47.497  137.4  0.0158   64.8  0.7236  -46.4
 0.140  0.4322  -88.3  46.784  136.2  0.0162   64.1  0.7130  -47.7
 0.145  0.4326  -90.4  45.976  135.1  0.0165   63.6  0.7021  -48.9
 0.150  0.4335  -92.5  45.184  134.0  0.0169   63.2  0.6916  -50.1
 0.155  0.4322  -94.2  44.487  133.2  0.0172   62.8  0.6811  -51.0
 0.160  0.4312  -95.9  43.798  132.5  0.0175   62.5  0.6708  -52.0
 0.165  0.4307  -97.7  43.118  131.6  0.0178   62.2  0.6606  -52.9
 0.170  0.4306  -99.4  42.446  130.8  0.0181   61.8  0.6507  -53.9
 0.175  0.4308 -101.1  41.784  129.9  0.0184   61.5  0.6410  -55.0
 0.180  0.4314 -102.9  41.132  129.1  0.0188   61.2  0.6314  -56.0
 0.185  0.4325 -104.6  40.490  128.1  0.0191   60.9  0.6221  -57.1
 0.190  0.4339 -106.3  39.858  127.2  0.0194   60.6  0.6131  -58.2
 0.195  0.4357 -108.0  39.238  126.2  0.0197   60.4  0.6043  -59.4
 0.200  0.4379 -109.7  38.630  125.2  0.0200   60.1  0.5957  -60.6
 0.220  0.4366 -114.8  36.428  122.8  0.0210   59.4  0.5635  -63.6
 0.240  0.4389 -120.0  34.298  120.1  0.0219   58.7  0.5331  -67.0
 0.260  0.4409 -124.4  32.396  117.7  0.0229   58.3  0.5059  -70.0
 0.280  0.4417 -128.2  30.686  115.7  0.0238   58.2  0.4812  -72.6
 0.300  0.4444 -132.0  29.018  113.4  0.0247   58.0  0.4576  -75.5
 0.320  0.4438 -135.1  27.634  111.9  0.0256   58.0  0.4380  -77.6
 0.340  0.4445 -138.2  26.272  110.2  0.0265   58.1  0.4190  -79.8
 0.360  0.4453 -141.0  25.045  108.7  0.0273   58.1  0.4019  -81.9
 0.380  0.4459 -143.5  23.946  107.4  0.0281   58.2  0.3866  -83.8
 0.400  0.4474 -146.0  22.860  105.9  0.0289   58.3  0.3718  -85.9
 0.420  0.4474 -148.1  21.952  104.8  0.0297   58.5  0.3593  -87.5
 0.440  0.4479 -150.2  21.053  103.6  0.0306   58.7  0.3471  -89.2
 0.450  0.4484 -151.2  20.607  103.0  0.0310   58.8  0.3411  -90.1
 0.460  0.4483 -152.1  20.234  102.6  0.0314   58.9  0.3360  -90.8
 0.480  0.4485 -153.8  19.491  101.6  0.0323   59.2  0.3259  -92.3
 0.500  0.4491 -155.6  18.754  100.6  0.0331   59.4  0.3161  -93.9
 0.520  0.4492 -157.1  18.167   99.9  0.0340   59.6  0.3083  -95.1
 0.540  0.4495 -158.5  17.584   99.1  0.0348   59.9  0.3006  -96.3
 0.560  0.4502 -160.0  17.003   98.3  0.0357   60.1  0.2931  -97.6
 0.580  0.4512 -161.5  16.427   97.4  0.0365   60.3  0.2857  -99.0
 0.600  0.4524 -162.9  15.855   96.4  0.0374   60.5  0.2785 -100.4
 0.620  0.4526 -164.0  15.423   95.8  0.0383   60.7  0.2730 -101.5
 0.640  0.4529 -165.2  14.993   95.2  0.0391   60.8  0.2676 -102.5
 0.660  0.4534 -166.3  14.565   94.5  0.0400   60.9  0.2623 -103.7
 0.680  0.4541 -167.5  14.139   93.8  0.0408   61.1  0.2571 -104.9
 0.700  0.4550 -168.6  13.716   93.0  0.0417   61.2  0.2520 -106.1
 0.720  0.4552 -169.6  13.386   92.5  0.0426   61.4  0.2480 -107.0
 0.740  0.4556 -170.6  13.057   91.9  0.0435   61.5  0.2441 -108.0
 0.760  0.4561 -171.5  12.730   91.3  0.0443   61.6  0.2403 -108.9
 0.780  0.4567 -172.5  12.403   90.7  0.0452   61.8  0.2365 -110.0
 0.800  0.4575 -173.5  12.079   90.0  0.0461   61.9  0.2328 -111.0
 0.820  0.4579 -174.3  11.821   89.5  0.0470   62.0  0.2299 -111.8
 0.840  0.4583 -175.1  11.564   89.1  0.0479   62.0  0.2270 -112.7
 0.860  0.4588 -176.0  11.308   88.6  0.0487   62.1  0.2241 -113.6
 0.880  0.4595 -176.8  11.053   88.0  0.0496   62.1  0.2213 -114.5
 0.900  0.4602 -177.6  10.799   87.5  0.0505   62.2  0.2186 -115.4
 0.920  0.4604 -178.4  10.590   87.1  0.0514   62.3  0.2164 -116.1
 0.940  0.4606 -179.1  10.382   86.6  0.0523   62.3  0.2142 -116.9
 0.960  0.4610 -179.9  10.174   86.1  0.0532   62.4  0.2121 -117.7
 0.980  0.4614  179.4   9.967   85.6  0.0541   62.4  0.2100 -118.5
 1.000  0.4619  178.6   9.761   85.1  0.0550   62.5  0.2080 -119.3
 1.020  0.4622  177.9   9.587   84.7  0.0559   62.5  0.2064 -120.0
 1.040  0.4625  177.2   9.414   84.3  0.0568   62.5  0.2048 -120.7
 1.060  0.4630  176.6   9.241   83.8  0.0577   62.5  0.2032 -121.4
 1.080  0.4634  175.9   9.069   83.4  0.0586   62.5  0.2017 -122.1
 1.100  0.4640  175.2   8.897   82.9  0.0595   62.5  0.2002 -122.8
 1.120  0.4643  174.6   8.752   82.5  0.0604   62.5  0.1989 -123.4
 1.140  0.4646  174.0   8.608   82.1  0.0613   62.5  0.1976 -124.1
 1.160  0.4650  173.3   8.464   81.7  0.0623   62.4  0.1963 -124.7
 1.180  0.4655  172.7   8.320   81.2  0.0632   62.4  0.1951 -125.3
 1.200  0.4660  172.1   8.177   80.8  0.0641   62.4  0.1939 -126.0
 1.220  0.4664  171.5   8.054   80.4  0.0650   62.3  0.1930 -126.6
 1.240  0.4669  171.0   7.931   80.0  0.0659   62.3  0.1921 -127.1
 1.260  0.4674  170.4   7.808   79.6  0.0669   62.2  0.1913 -127.7
 1.280  0.4680  169.9   7.686   79.2  0.0678   62.2  0.1904 -128.3
 1.300  0.4686  169.3   7.564   78.8  0.0687   62.1  0.1896 -128.9
 1.320  0.4689  168.7   7.458   78.4  0.0696   62.0  0.1888 -129.5
 1.340  0.4692  168.2   7.352   78.1  0.0705   62.0  0.1880 -130.0
 1.360  0.4696  167.6   7.246   77.7  0.0715   61.9  0.1873 -130.6
 1.380  0.4700  167.1   7.141   77.3  0.0724   61.9  0.1865 -131.1
 1.400  0.4705  166.5   7.036   76.9  0.0733   61.8  0.1858 -131.7
 1.420  0.4711  166.0   6.944   76.5  0.0742   61.7  0.1853 -132.2
 1.440  0.4717  165.4   6.852   76.2  0.0751   61.6  0.1848 -132.7
 1.460  0.4724  164.9   6.760   75.8  0.0760   61.6  0.1843 -133.2
 1.480  0.4731  164.3   6.668   75.4  0.0769   61.5  0.1839 -133.7
 1.500  0.4738  163.8   6.577   75.0  0.0778   61.4  0.1834 -134.2
 1.520  0.4742  163.3   6.496   74.7  0.0787   61.3  0.1830 -134.7
 1.540  0.4747  162.8   6.415   74.3  0.0796   61.2  0.1826 -135.2
 1.560  0.4752  162.2   6.335   73.9  0.0806   61.2  0.1822 -135.6
 1.580  0.4757  161.7   6.255   73.6  0.0815   61.1  0.1819 -136.1
 1.600  0.4763  161.2   6.175   73.2  0.0824   61.0  0.1815 -136.6
 1.620  0.4768  160.7   6.104   72.9  0.0833   60.9  0.1812 -137.0
 1.640  0.4772  160.3   6.034   72.5  0.0842   60.8  0.1809 -137.5
 1.660  0.4778  159.8   5.963   72.2  0.0851   60.6  0.1807 -137.9
 1.680  0.4783  159.4   5.893   71.9  0.0860   60.5  0.1804 -138.4
 1.700  0.4789  158.9   5.823   71.5  0.0869   60.4  0.1802 -138.8
 1.720  0.4795  158.4   5.759   71.2  0.0878   60.3  0.1800 -139.3
 1.740  0.4801  158.0   5.694   70.8  0.0887   60.2  0.1799 -139.7
 1.760  0.4808  157.5   5.630   70.5  0.0897   60.0  0.1797 -140.2
 1.780  0.4815  157.1   5.567   70.2  0.0906   59.9  0.1796 -140.6
 1.800  0.4822  156.6   5.503   69.8  0.0915   59.8  0.1795 -141.1
 1.820  0.4827  156.1   5.447   69.5  0.0924   59.7  0.1794 -141.5
 1.840  0.4833  155.6   5.391   69.1  0.0933   59.6  0.1793 -142.0
 1.860  0.4838  155.2   5.335   68.8  0.0942   59.4  0.1792 -142.4
 1.880  0.4845  154.7   5.279   68.5  0.0951   59.3  0.1792 -142.9
 1.900  0.4851  154.2   5.224   68.1  0.0960   59.2  0.1791 -143.3
 1.920  0.4856  153.8   5.173   67.8  0.0969   59.1  0.1791 -143.7
 1.940  0.4862  153.3   5.122   67.4  0.0978   58.9  0.1791 -144.2
 1.960  0.4868  152.9   5.071   67.0  0.0987   58.8  0.1792 -144.6
 1.980  0.4874  152.4   5.020   66.7  0.0996   58.6  0.1792 -145.1
 2.000  0.4880  152.0   4.970   66.3  0.1005   58.5  0.1793 -145.5
 2.020  0.4887  151.6   4.924   66.0  0.1014   58.3  0.1794 -145.9
 2.040  0.4894  151.1   4.879   65.7  0.1023   58.2  0.1795 -146.4
 2.060  0.4902  150.7   4.833   65.4  0.1032   58.0  0.1797 -146.8
 2.080  0.4909  150.3   4.788   65.1  0.1041   57.9  0.1798 -147.3
 2.100  0.4918  149.8   4.743   64.7  0.1049   57.7  0.1800 -147.7
 2.120  0.4926  149.4   4.698   64.4  0.1058   57.6  0.1801 -148.1
 2.140  0.4935  149.0   4.653   64.1  0.1067   57.4  0.1803 -148.6
 2.160  0.4943  148.5   4.609   63.7  0.1076   57.3  0.1805 -149.0
 2.180  0.4953  148.1   4.564   63.4  0.1085   57.1  0.1807 -149.5
 2.200  0.4962  147.7   4.520   63.0  0.1094   57.0  0.1809 -149.9
 2.220  0.4970  147.3   4.482   62.7  0.1103   56.8  0.1812 -150.4
 2.240  0.4978  146.9   4.444   62.4  0.1111   56.7  0.1815 -150.8
 2.260  0.4986  146.5   4.407   62.1  0.1120   56.5  0.1818 -151.3
 2.280  0.4995  146.1   4.369   61.7  0.1129   56.3  0.1821 -151.7
 2.300  0.5004  145.7   4.332   61.4  0.1137   56.2  0.1824 -152.2
 2.320  0.5013  145.3   4.294   61.1  0.1146   56.0  0.1827 -152.6
 2.340  0.5022  145.0   4.257   60.8  0.1155   55.9  0.1831 -153.1
 2.360  0.5031  144.6   4.220   60.4  0.1164   55.7  0.1835 -153.5
 2.380  0.5041  144.2   4.184   60.1  0.1172   55.5  0.1838 -154.0
 2.400  0.5051  143.8   4.147   59.7  0.1181   55.4  0.1842 -154.4
 2.420  0.5059  143.4   4.114   59.4  0.1189   55.2  0.1847 -154.9
 2.440  0.5068  143.0   4.082   59.1  0.1198   55.0  0.1852 -155.3
 2.460  0.5077  142.6   4.050   58.8  0.1206   54.9  0.1856 -155.7
 2.480  0.5086  142.3   4.018   58.5  0.1215   54.7  0.1861 -156.2
 2.500  0.5095  141.9   3.986   58.2  0.1223   54.5  0.1867 -156.6
 2.520  0.5105  141.5   3.954   57.9  0.1232   54.4  0.1872 -157.1
 2.540  0.5114  141.1   3.922   57.6  0.1240   54.2  0.1877 -157.5
 2.560  0.5124  140.7   3.890   57.3  0.1249   54.0  0.1883 -157.9
 2.580  0.5135  140.4   3.858   56.9  0.1257   53.9  0.1888 -158.4
 2.600  0.5145  140.0   3.827   56.6  0.1266   53.7  0.1894 -158.8
 2.620  0.5152  139.6   3.799   56.3  0.1274   53.5  0.1901 -159.2
 2.640  0.5160  139.3   3.771   56.0  0.1282   53.3  0.1907 -159.7
 2.660  0.5168  138.9   3.743   55.7  0.1290   53.2  0.1914 -160.1
 2.680  0.5176  138.5   3.715   55.4  0.1299   53.0  0.1921 -160.5
 2.700  0.5184  138.1   3.687   55.1  0.1307   52.8  0.1928 -160.9
 2.720  0.5192  137.8   3.659   54.8  0.1315   52.7  0.1935 -161.4
 2.740  0.5201  137.4   3.632   54.5  0.1323   52.5  0.1942 -161.8
 2.760  0.5210  137.0   3.605   54.2  0.1332   52.3  0.1949 -162.2
 2.780  0.5219  136.7   3.577   53.8  0.1340   52.2  0.1957 -162.6
 2.800  0.5228  136.3   3.550   53.5  0.1348   52.0  0.1964 -163.0
 2.820  0.5238  136.0   3.525   53.2  0.1356   51.8  0.1971 -163.4
 2.840  0.5248  135.6   3.501   52.9  0.1364   51.6  0.1979 -163.8
 2.860  0.5258  135.3   3.477   52.6  0.1372   51.5  0.1986 -164.2
 2.880  0.5268  134.9   3.452   52.4  0.1380   51.3  0.1994 -164.6
 2.900  0.5278  134.6   3.428   52.1  0.1388   51.1  0.2002 -164.9
 2.920  0.5289  134.2   3.404   51.8  0.1396   51.0  0.2010 -165.3
 2.940  0.5300  133.9   3.380   51.4  0.1405   50.8  0.2018 -165.7
 2.960  0.5311  133.6   3.356   51.1  0.1413   50.6  0.2026 -166.1
 2.980  0.5322  133.2   3.333   50.8  0.1421   50.5  0.2034 -166.4
 3.000  0.5333  132.9   3.309   50.5  0.1429   50.3  0.2042 -166.8
 3.100  0.5374  131.2   3.208   49.2  0.1466   49.3  0.2082 -168.6
 3.200  0.5420  129.6   3.109   47.9  0.1504   48.4  0.2123 -170.4
 3.300  0.5471  127.9   3.012   46.4  0.1542   47.5  0.2167 -172.1
 3.400  0.5525  126.4   2.917   44.9  0.1581   46.6  0.2212 -173.7
 3.500  0.5584  124.8   2.824   43.2  0.1620   45.8  0.2259 -175.3
 3.600  0.5638  123.3   2.747   42.0  0.1653   44.9  0.2305 -177.2
 3.700  0.5695  121.9   2.671   40.7  0.1687   44.0  0.2354 -179.0
 3.800  0.5756  120.4   2.597   39.4  0.1721   43.1  0.2405  179.2
 3.900  0.5820  119.1   2.524   37.9  0.1756   42.3  0.2459  177.5
 4.000  0.5888  117.7   2.453   36.4  0.1791   41.5  0.2514  175.9
 4.100  0.5942  116.5   2.392   35.2  0.1821   40.6  0.2573  174.2
 4.200  0.5999  115.2   2.332   34.0  0.1852   39.8  0.2633  172.6
 4.300  0.6058  114.0   2.274   32.7  0.1882   39.0  0.2696  171.0
 4.400  0.6120  112.9   2.216   31.3  0.1913   38.2  0.2761  169.5
 4.500  0.6185  111.7   2.160   29.9  0.1945   37.5  0.2827  168.1
 4.600  0.6226  110.6   2.113   28.8  0.1975   36.8  0.2874  166.9
 4.700  0.6268  109.5   2.066   27.7  0.2004   36.0  0.2922  165.7
 4.800  0.6314  108.4   2.021   26.6  0.2035   35.3  0.2972  164.6
 4.900  0.6361  107.3   1.976   25.4  0.2065   34.7  0.3022  163.5
 5.000  0.6411  106.2   1.932   24.1  0.2096   34.0  0.3074  162.5
 5.100  0.6439  105.3   1.896   23.1  0.2128   33.2  0.3105  161.6
 5.200  0.6469  104.3   1.860   22.1  0.2160   32.5  0.3136  160.7
 5.300  0.6500  103.4   1.824   21.0  0.2193   31.7  0.3168  159.9
 5.400  0.6533  102.5   1.790   19.9  0.2226   31.0  0.3201  159.0
 5.500  0.6568  101.6   1.756   18.7  0.2259   30.3  0.3235  158.2
 5.600  0.6589  100.8   1.727   17.7  0.2288   29.4  0.3271  157.4
 5.700  0.6612  100.0   1.699   16.6  0.2318   28.6  0.3307  156.5
 5.800  0.6636   99.2   1.671   15.5  0.2349   27.8  0.3344  155.7
 5.900  0.6661   98.5   1.644   14.4  0.2380   27.0  0.3382  155.0
 6.000  0.6687   97.7   1.617   13.2  0.2411   26.2  0.3420  154.2
 6.100  0.6692   96.9   1.592   12.2  0.2437   25.4  0.3444  153.7
 6.200  0.6698   96.1   1.568   11.2  0.2463   24.7  0.3468  153.2
 6.300  0.6705   95.4   1.544   10.2  0.2490   23.9  0.3493  152.7
 6.400  0.6713   94.6   1.521    9.1  0.2517   23.2  0.3518  152.2
 6.500  0.6723   93.8   1.498    8.0  0.2544   22.5  0.3543  151.7
 6.600  0.6718   92.9   1.479    7.0  0.2573   21.8  0.3538  151.3
 6.800  0.6712   91.0   1.443    5.1  0.2634   20.4  0.3529  150.6
 7.000  0.6713   89.2   1.408    3.0  0.2695   19.1  0.3521  149.8
 7.200  0.6728   87.0   1.378    0.9  0.2759   17.4  0.3516  148.4
 7.400  0.6753   84.8   1.350   -1.4  0.2826   15.8  0.3513  146.9
 7.600  0.6790   82.5   1.322   -3.7  0.2889   14.0  0.3529  145.0
 7.800  0.6843   80.0   1.295   -6.1  0.2949   12.1  0.3567  142.7
 8.000  0.6907   77.6   1.270   -8.6  0.3012   10.2  0.3611  140.5
 8.200  0.6963   75.0   1.238  -10.9  0.3052    8.0  0.3657  137.7
 8.400  0.7034   72.4   1.208  -13.4  0.3096    5.9  0.3711  134.9
 8.600  0.7126   69.9   1.176  -15.8  0.3124    3.8  0.3780  131.5
 8.800  0.7237   67.7   1.143  -18.1  0.3134    1.7  0.3872  127.6
 9.000  0.7358   65.5   1.111  -20.5  0.3149   -0.4  0.3981  123.8
 9.200  0.7520   63.7   1.074  -22.4  0.3137   -2.0  0.4152  119.4
 9.400  0.7690   61.9   1.039  -24.4  0.3127   -3.5  0.4346  115.3
 9.600  0.7840   60.3   1.005  -26.1  0.3116   -4.8  0.4544  111.7
 9.800  0.7969   58.8   0.971  -27.5  0.3102   -5.8  0.4742  108.6
10.000  0.8103   57.4   0.938  -29.1  0.3089   -6.8  0.4953  105.7
!
!  f       NFmin   Gammaopt  rn/50
! GHz       dB    MAG  ANG    -
 0.450      1.67  0.27 -170   0.11
 0.900      1.70  0.24 -162   0.13
 1.900      1.79  0.34 -141   0.14
 3.500      1.63  0.57 -118   0.22
!
! (c) 2016  Infineon Technologies AG, Munich
