! Infineon Technologies  Discrete & RF Semiconductors
! BFP460
! VCE =  3.0 V,  IC =  2.0 mA
! Common Emitter S-Parameters:                            Jan 2016
# GHz  S  MA  R  50
!  f         S11            S21            S12            S22
! GHz     MAG   ANG      MAG   ANG      MAG   ANG      MAG   ANG
 0.030  0.9439   -3.4   7.276  177.5  0.0062   86.7  0.9964   -2.3
 0.035  0.9437   -3.9   7.270  177.0  0.0072   86.6  0.9959   -2.6
 0.040  0.9435   -4.5   7.264  176.4  0.0082   86.5  0.9955   -3.0
 0.045  0.9434   -5.0   7.245  175.8  0.0092   86.1  0.9949   -3.1
 0.050  0.9433   -5.6   7.227  175.2  0.0103   85.7  0.9944   -3.3
 0.055  0.9426   -6.2   7.228  174.9  0.0113   85.7  0.9942   -3.6
 0.060  0.9421   -6.8   7.229  174.7  0.0123   85.7  0.9941   -4.0
 0.065  0.9424   -7.6   7.256  174.1  0.0133   85.5  0.9937   -4.3
 0.070  0.9428   -8.3   7.283  173.6  0.0144   85.4  0.9934   -4.7
 0.075  0.9434   -8.7   7.269  173.5  0.0154   85.1  0.9929   -5.0
 0.080  0.9440   -9.1   7.255  173.3  0.0164   84.8  0.9925   -5.4
 0.085  0.9413   -9.7   7.255  172.8  0.0174   84.2  0.9919   -5.7
 0.090  0.9388  -10.3   7.256  172.4  0.0184   83.7  0.9914   -6.1
 0.095  0.9402  -10.9   7.231  172.0  0.0193   83.3  0.9907   -6.4
 0.100  0.9417  -11.4   7.206  171.6  0.0203   83.0  0.9900   -6.8
 0.105  0.9418  -12.0   7.211  171.2  0.0214   82.7  0.9892   -7.1
 0.110  0.9420  -12.6   7.217  170.9  0.0225   82.4  0.9885   -7.5
 0.115  0.9400  -13.2   7.222  170.4  0.0234   81.9  0.9879   -7.8
 0.120  0.9381  -13.8   7.228  170.0  0.0244   81.5  0.9874   -8.2
 0.125  0.9378  -14.3   7.220  169.6  0.0253   81.3  0.9864   -8.5
 0.130  0.9376  -14.8   7.213  169.2  0.0263   81.1  0.9855   -8.8
 0.135  0.9375  -15.4   7.214  168.7  0.0273   80.6  0.9849   -9.1
 0.140  0.9376  -16.0   7.216  168.3  0.0284   80.1  0.9843   -9.4
 0.145  0.9360  -16.5   7.202  167.9  0.0293   79.8  0.9833   -9.7
 0.150  0.9345  -17.1   7.188  167.4  0.0303   79.5  0.9824  -10.1
 0.155  0.9334  -17.7   7.180  167.0  0.0313   79.1  0.9813  -10.4
 0.160  0.9323  -18.2   7.173  166.6  0.0322   78.7  0.9801  -10.8
 0.165  0.9314  -18.8   7.165  166.2  0.0332   78.3  0.9791  -11.1
 0.170  0.9305  -19.3   7.159  165.8  0.0341   78.0  0.9780  -11.4
 0.175  0.9297  -19.9   7.152  165.4  0.0351   77.7  0.9770  -11.7
 0.180  0.9291  -20.4   7.146  165.0  0.0360   77.4  0.9760  -12.1
 0.185  0.9285  -21.0   7.140  164.6  0.0370   77.1  0.9751  -12.4
 0.190  0.9279  -21.6   7.135  164.2  0.0380   76.8  0.9741  -12.7
 0.195  0.9275  -22.1   7.130  163.8  0.0389   76.5  0.9733  -13.1
 0.200  0.9272  -22.7   7.125  163.4  0.0399   76.3  0.9724  -13.4
 0.220  0.9224  -24.9   7.081  161.8  0.0436   74.8  0.9672  -14.7
 0.240  0.9190  -27.1   7.043  160.2  0.0473   73.6  0.9625  -16.0
 0.260  0.9148  -29.3   7.001  158.7  0.0510   72.3  0.9571  -17.2
 0.280  0.9096  -31.4   6.955  157.1  0.0545   71.0  0.9511  -18.4
 0.300  0.9058  -33.6   6.913  155.6  0.0581   69.8  0.9455  -19.7
 0.320  0.8993  -35.7   6.857  154.1  0.0614   68.5  0.9386  -20.9
 0.340  0.8941  -37.9   6.805  152.6  0.0648   67.3  0.9322  -22.1
 0.360  0.8884  -40.0   6.750  151.1  0.0680   66.1  0.9253  -23.3
 0.380  0.8822  -42.0   6.692  149.6  0.0712   64.9  0.9179  -24.4
 0.400  0.8770  -44.1   6.639  148.1  0.0743   63.8  0.9109  -25.5
 0.420  0.8700  -46.1   6.576  146.7  0.0772   62.6  0.9034  -26.6
 0.440  0.8641  -48.2   6.517  145.2  0.0802   61.4  0.8963  -27.7
 0.450  0.8616  -49.2   6.489  144.5  0.0817   60.9  0.8929  -28.3
 0.460  0.8581  -50.1   6.456  143.9  0.0830   60.3  0.8887  -28.8
 0.480  0.8517  -52.1   6.392  142.5  0.0858   59.3  0.8806  -29.8
 0.500  0.8463  -54.0   6.332  141.2  0.0885   58.3  0.8728  -30.8
 0.520  0.8381  -55.8   6.262  139.9  0.0909   57.2  0.8646  -31.7
 0.540  0.8308  -57.7   6.195  138.6  0.0933   56.1  0.8566  -32.7
 0.560  0.8244  -59.6   6.131  137.3  0.0957   55.1  0.8488  -33.7
 0.580  0.8189  -61.5   6.071  136.0  0.0982   54.1  0.8413  -34.7
 0.600  0.8144  -63.5   6.014  134.6  0.1007   53.2  0.8341  -35.7
 0.620  0.8064  -65.2   5.945  133.5  0.1027   52.2  0.8256  -36.6
 0.640  0.7991  -67.0   5.878  132.3  0.1047   51.3  0.8174  -37.5
 0.660  0.7926  -68.8   5.814  131.1  0.1067   50.3  0.8093  -38.4
 0.680  0.7869  -70.6   5.752  129.9  0.1088   49.5  0.8015  -39.3
 0.700  0.7820  -72.4   5.693  128.6  0.1109   48.6  0.7939  -40.3
 0.720  0.7749  -74.0   5.624  127.5  0.1126   47.7  0.7860  -41.0
 0.740  0.7684  -75.6   5.557  126.4  0.1143   46.9  0.7783  -41.8
 0.760  0.7625  -77.3   5.492  125.3  0.1160   46.1  0.7707  -42.6
 0.780  0.7573  -79.0   5.430  124.2  0.1177   45.3  0.7633  -43.4
 0.800  0.7527  -80.7   5.369  123.0  0.1195   44.5  0.7560  -44.2
 0.820  0.7462  -82.2   5.308  122.0  0.1209   43.7  0.7486  -44.9
 0.840  0.7402  -83.8   5.249  121.1  0.1223   43.0  0.7412  -45.6
 0.860  0.7347  -85.4   5.191  120.1  0.1237   42.3  0.7340  -46.3
 0.880  0.7299  -87.0   5.135  119.0  0.1251   41.6  0.7269  -47.1
 0.900  0.7256  -88.6   5.080  118.0  0.1266   40.9  0.7199  -47.8
 0.920  0.7196  -90.1   5.022  117.1  0.1277   40.2  0.7130  -48.4
 0.940  0.7140  -91.5   4.965  116.1  0.1289   39.5  0.7063  -49.0
 0.960  0.7089  -93.0   4.910  115.2  0.1300   38.9  0.6996  -49.7
 0.980  0.7044  -94.6   4.856  114.2  0.1312   38.2  0.6930  -50.3
 1.000  0.7003  -96.1   4.803  113.2  0.1324   37.6  0.6865  -51.0
 1.020  0.6950  -97.4   4.748  112.4  0.1334   37.0  0.6803  -51.6
 1.040  0.6901  -98.8   4.694  111.5  0.1343   36.4  0.6742  -52.2
 1.060  0.6855 -100.2   4.641  110.6  0.1353   35.8  0.6682  -52.8
 1.080  0.6814 -101.6   4.589  109.7  0.1363   35.2  0.6623  -53.4
 1.100  0.6777 -103.0   4.538  108.8  0.1373   34.6  0.6564  -54.0
 1.120  0.6732 -104.3   4.488  108.0  0.1381   34.0  0.6507  -54.5
 1.140  0.6690 -105.6   4.439  107.2  0.1389   33.5  0.6450  -55.1
 1.160  0.6653 -107.0   4.391  106.3  0.1397   33.0  0.6394  -55.6
 1.180  0.6618 -108.3   4.344  105.5  0.1405   32.4  0.6338  -56.1
 1.200  0.6588 -109.7   4.298  104.6  0.1413   31.9  0.6283  -56.7
 1.220  0.6549 -111.0   4.253  103.9  0.1420   31.4  0.6233  -57.2
 1.240  0.6513 -112.2   4.208  103.1  0.1426   30.9  0.6183  -57.7
 1.260  0.6480 -113.5   4.164  102.4  0.1433   30.4  0.6133  -58.2
 1.280  0.6451 -114.8   4.121  101.6  0.1440   30.0  0.6084  -58.8
 1.300  0.6425 -116.1   4.078  100.8  0.1447   29.5  0.6036  -59.3
 1.320  0.6390 -117.3   4.036  100.1  0.1452   29.1  0.5988  -59.7
 1.340  0.6358 -118.5   3.995   99.4  0.1457   28.7  0.5940  -60.2
 1.360  0.6328 -119.7   3.954   98.6  0.1462   28.2  0.5893  -60.6
 1.380  0.6302 -120.9   3.914   97.9  0.1468   27.8  0.5846  -61.0
 1.400  0.6278 -122.1   3.875   97.1  0.1473   27.4  0.5799  -61.5
 1.420  0.6246 -123.3   3.837   96.4  0.1477   27.0  0.5757  -61.9
 1.440  0.6216 -124.4   3.800   95.7  0.1481   26.6  0.5715  -62.4
 1.460  0.6188 -125.6   3.763   95.0  0.1485   26.2  0.5674  -62.8
 1.480  0.6164 -126.8   3.727   94.3  0.1490   25.8  0.5633  -63.2
 1.500  0.6142 -128.0   3.691   93.6  0.1494   25.4  0.5592  -63.7
 1.520  0.6115 -129.1   3.655   93.0  0.1497   25.1  0.5552  -64.1
 1.540  0.6090 -130.2   3.620   92.3  0.1501   24.7  0.5513  -64.5
 1.560  0.6068 -131.3   3.586   91.7  0.1505   24.4  0.5474  -64.9
 1.580  0.6048 -132.4   3.552   91.0  0.1508   24.0  0.5435  -65.3
 1.600  0.6030 -133.5   3.518   90.3  0.1512   23.7  0.5396  -65.7
 1.620  0.6010 -134.5   3.486   89.7  0.1515   23.4  0.5362  -66.1
 1.640  0.5992 -135.6   3.455   89.1  0.1518   23.0  0.5329  -66.4
 1.660  0.5976 -136.6   3.424   88.4  0.1521   22.7  0.5295  -66.8
 1.680  0.5962 -137.6   3.394   87.8  0.1524   22.3  0.5262  -67.2
 1.700  0.5950 -138.7   3.364   87.1  0.1527   22.0  0.5229  -67.6
 1.720  0.5931 -139.7   3.334   86.5  0.1529   21.7  0.5197  -68.0
 1.740  0.5915 -140.7   3.305   85.9  0.1531   21.4  0.5166  -68.3
 1.760  0.5900 -141.7   3.276   85.3  0.1533   21.1  0.5134  -68.7
 1.780  0.5887 -142.8   3.247   84.7  0.1536   20.8  0.5103  -69.1
 1.800  0.5876 -143.8   3.219   84.1  0.1538   20.5  0.5072  -69.5
 1.820  0.5861 -144.8   3.192   83.5  0.1540   20.2  0.5042  -69.9
 1.840  0.5847 -145.7   3.165   83.0  0.1541   19.9  0.5013  -70.2
 1.860  0.5834 -146.7   3.139   82.4  0.1543   19.7  0.4983  -70.6
 1.880  0.5824 -147.6   3.113   81.8  0.1545   19.4  0.4954  -70.9
 1.900  0.5815 -148.6   3.087   81.2  0.1547   19.1  0.4925  -71.3
 1.920  0.5802 -149.6   3.062   80.6  0.1548   18.9  0.4898  -71.7
 1.940  0.5790 -150.5   3.037   80.1  0.1549   18.6  0.4872  -72.0
 1.960  0.5780 -151.5   3.012   79.5  0.1551   18.4  0.4846  -72.4
 1.980  0.5772 -152.4   2.988   78.9  0.1552   18.1  0.4820  -72.7
 2.000  0.5765 -153.4   2.964   78.3  0.1553   17.9  0.4794  -73.1
 2.020  0.5753 -154.3   2.940   77.8  0.1554   17.7  0.4770  -73.4
 2.040  0.5743 -155.2   2.917   77.3  0.1555   17.4  0.4746  -73.8
 2.060  0.5735 -156.1   2.894   76.7  0.1556   17.2  0.4722  -74.1
 2.080  0.5727 -157.0   2.871   76.2  0.1557   17.0  0.4698  -74.5
 2.100  0.5721 -157.9   2.848   75.7  0.1558   16.7  0.4674  -74.8
 2.120  0.5717 -158.8   2.826   75.1  0.1559   16.5  0.4651  -75.2
 2.140  0.5714 -159.7   2.804   74.5  0.1560   16.3  0.4628  -75.5
 2.160  0.5712 -160.6   2.782   74.0  0.1561   16.1  0.4605  -75.9
 2.180  0.5712 -161.5   2.760   73.4  0.1562   15.8  0.4582  -76.2
 2.200  0.5713 -162.4   2.739   72.8  0.1563   15.6  0.4559  -76.6
 2.220  0.5706 -163.2   2.719   72.3  0.1563   15.4  0.4538  -76.9
 2.240  0.5701 -164.1   2.699   71.8  0.1563   15.2  0.4516  -77.3
 2.260  0.5697 -164.9   2.679   71.3  0.1563   15.0  0.4495  -77.6
 2.280  0.5693 -165.7   2.660   70.8  0.1563   14.8  0.4474  -78.0
 2.300  0.5692 -166.5   2.641   70.3  0.1563   14.7  0.4453  -78.3
 2.320  0.5691 -167.4   2.622   69.8  0.1563   14.5  0.4433  -78.7
 2.340  0.5691 -168.2   2.603   69.2  0.1563   14.3  0.4412  -79.0
 2.360  0.5693 -169.0   2.584   68.7  0.1563   14.1  0.4392  -79.4
 2.380  0.5696 -169.9   2.566   68.2  0.1563   13.9  0.4372  -79.7
 2.400  0.5700 -170.7   2.548   67.6  0.1563   13.7  0.4352  -80.1
 2.420  0.5697 -171.5   2.530   67.1  0.1563   13.5  0.4334  -80.4
 2.440  0.5695 -172.3   2.512   66.7  0.1563   13.4  0.4316  -80.8
 2.460  0.5694 -173.0   2.495   66.2  0.1562   13.2  0.4298  -81.1
 2.480  0.5694 -173.8   2.477   65.7  0.1562   13.1  0.4281  -81.5
 2.500  0.5695 -174.6   2.460   65.2  0.1562   12.9  0.4263  -81.9
 2.520  0.5697 -175.4   2.443   64.7  0.1562   12.7  0.4246  -82.2
 2.540  0.5700 -176.2   2.426   64.2  0.1561   12.6  0.4229  -82.6
 2.560  0.5704 -176.9   2.410   63.7  0.1561   12.4  0.4212  -83.0
 2.580  0.5710 -177.7   2.393   63.2  0.1561   12.3  0.4196  -83.3
 2.600  0.5716 -178.5   2.377   62.7  0.1561   12.1  0.4179  -83.7
 2.620  0.5715 -179.2   2.361   62.2  0.1560   12.0  0.4164  -84.1
 2.640  0.5716 -180.0   2.345   61.8  0.1560   11.8  0.4150  -84.4
 2.660  0.5717  179.3   2.330   61.3  0.1559   11.7  0.4135  -84.8
 2.680  0.5719  178.6   2.314   60.9  0.1558   11.6  0.4121  -85.1
 2.700  0.5722  177.8   2.299   60.4  0.1557   11.5  0.4107  -85.5
 2.720  0.5726  177.1   2.284   59.9  0.1557   11.3  0.4093  -85.9
 2.740  0.5731  176.4   2.269   59.4  0.1556   11.2  0.4079  -86.3
 2.760  0.5737  175.7   2.254   58.9  0.1555   11.1  0.4066  -86.6
 2.780  0.5744  174.9   2.239   58.4  0.1555   10.9  0.4052  -87.0
 2.800  0.5752  174.2   2.225   57.9  0.1554   10.8  0.4039  -87.4
 2.820  0.5754  173.5   2.211   57.5  0.1553   10.7  0.4026  -87.8
 2.840  0.5756  172.9   2.197   57.0  0.1552   10.6  0.4013  -88.1
 2.860  0.5760  172.2   2.183   56.6  0.1550   10.5  0.4001  -88.5
 2.880  0.5764  171.5   2.169   56.2  0.1549   10.4  0.3989  -88.9
 2.900  0.5769  170.8   2.156   55.7  0.1548   10.3  0.3976  -89.3
 2.920  0.5775  170.2   2.142   55.3  0.1547   10.2  0.3964  -89.7
 2.940  0.5782  169.5   2.129   54.8  0.1546   10.1  0.3952  -90.0
 2.960  0.5789  168.8   2.116   54.3  0.1544   10.0  0.3941  -90.4
 2.980  0.5797  168.2   2.103   53.9  0.1543    9.9  0.3929  -90.8
 3.000  0.5806  167.5   2.090   53.4  0.1542    9.8  0.3918  -91.2
 3.100  0.5811  164.4   2.028   51.5  0.1536    9.5  0.3871  -93.0
 3.200  0.5833  161.4   1.969   49.5  0.1530    9.2  0.3829  -94.9
 3.300  0.5871  158.4   1.912   47.4  0.1524    8.9  0.3790  -96.8
 3.400  0.5925  155.4   1.857   45.2  0.1518    8.6  0.3756  -98.7
 3.500  0.5995  152.5   1.806   42.8  0.1512    8.3  0.3726 -100.7
 3.600  0.6025  149.9   1.758   41.1  0.1507    8.3  0.3693 -102.7
 3.700  0.6067  147.3   1.711   39.3  0.1502    8.3  0.3664 -104.7
 3.800  0.6122  144.7   1.666   37.4  0.1497    8.3  0.3640 -106.7
 3.900  0.6188  142.2   1.623   35.4  0.1492    8.3  0.3621 -108.8
 4.000  0.6266  139.8   1.582   33.3  0.1487    8.3  0.3606 -110.9
 4.100  0.6305  137.7   1.542   31.7  0.1485    8.6  0.3599 -113.1
 4.200  0.6352  135.7   1.504   30.0  0.1483    8.8  0.3598 -115.3
 4.300  0.6407  133.6   1.467   28.2  0.1482    9.1  0.3602 -117.5
 4.400  0.6470  131.6   1.431   26.4  0.1480    9.3  0.3611 -119.7
 4.500  0.6541  129.7   1.397   24.4  0.1478    9.6  0.3626 -121.9
 4.600  0.6575  128.0   1.365   23.0  0.1482   10.1  0.3647 -123.9
 4.700  0.6615  126.4   1.334   21.5  0.1486   10.6  0.3673 -126.0
 4.800  0.6661  124.7   1.304   19.9  0.1491   11.0  0.3703 -127.9
 4.900  0.6712  123.1   1.275   18.2  0.1495   11.5  0.3738 -129.9
 5.000  0.6768  121.5   1.247   16.5  0.1500   12.0  0.3777 -131.8
 5.100  0.6799  120.1   1.221   15.2  0.1514   12.5  0.3811 -133.5
 5.200  0.6833  118.8   1.195   13.9  0.1529   12.9  0.3848 -135.2
 5.300  0.6871  117.4   1.171   12.5  0.1544   13.3  0.3888 -136.9
 5.400  0.6913  116.1   1.146   11.1  0.1558   13.8  0.3932 -138.5
 5.500  0.6959  114.8   1.123    9.6  0.1573   14.2  0.3979 -140.1
 5.600  0.6987  113.6   1.102    8.4  0.1594   14.5  0.4021 -141.9
 5.700  0.7018  112.5   1.082    7.1  0.1614   14.7  0.4067 -143.6
 5.800  0.7052  111.3   1.063    5.8  0.1635   14.9  0.4116 -145.3
 5.900  0.7089  110.2   1.043    4.5  0.1655   15.2  0.4170 -147.0
 6.000  0.7128  109.1   1.025    3.1  0.1676   15.4  0.4226 -148.6
 6.100  0.7137  108.1   1.007    2.0  0.1700   15.6  0.4273 -150.1
 6.200  0.7148  107.0   0.990    0.9  0.1723   15.7  0.4323 -151.6
 6.300  0.7161  106.0   0.973   -0.3  0.1747   15.9  0.4375 -153.1
 6.400  0.7177  104.9   0.956   -1.5  0.1770   16.0  0.4431 -154.5
 6.500  0.7195  103.9   0.940   -2.8  0.1794   16.2  0.4489 -155.9
 6.600  0.7195  102.8   0.925   -3.8  0.1824   16.3  0.4521 -157.0
 6.800  0.7203  100.5   0.897   -5.9  0.1884   16.4  0.4589 -159.0
 7.000  0.7222   98.2   0.870   -8.1  0.1944   16.5  0.4663 -161.0
 7.200  0.7252   95.6   0.848  -10.1  0.2020   16.1  0.4697 -163.4
 7.400  0.7297   93.1   0.828  -12.2  0.2096   15.8  0.4739 -165.8
 7.600  0.7350   90.3   0.808  -14.4  0.2175   15.1  0.4780 -168.6
 7.800  0.7415   87.3   0.789  -16.7  0.2257   14.2  0.4824 -171.8
 8.000  0.7501   84.3   0.772  -19.1  0.2340   13.3  0.4883 -174.9
 8.200  0.7547   81.1   0.750  -21.2  0.2416   11.7  0.4913 -178.5
 8.400  0.7615   78.0   0.730  -23.5  0.2493   10.2  0.4961  178.0
 8.600  0.7698   75.0   0.709  -25.6  0.2557    8.6  0.4992  174.1
 8.800  0.7793   72.2   0.688  -27.6  0.2609    6.7  0.5016  169.6
 9.000  0.7906   69.4   0.668  -29.7  0.2663    5.0  0.5070  165.2
 9.200  0.8034   67.1   0.646  -31.4  0.2691    3.5  0.5141  159.7
 9.400  0.8174   64.9   0.625  -33.2  0.2720    1.9  0.5257  154.4
 9.600  0.8294   62.9   0.604  -34.7  0.2744    0.6  0.5402  149.3
 9.800  0.8391   61.3   0.582  -36.1  0.2762   -0.5  0.5572  144.4
10.000  0.8494   59.6   0.560  -37.5  0.2780   -1.6  0.5779  139.9
!
!  f       NFmin   Gammaopt  rn/50
! GHz       dB    MAG  ANG    -
 0.450      0.68  0.58   19   0.26
 0.900      0.74  0.54   38   0.26
 1.900      1.17  0.35   94   0.17
 3.500      1.69  0.37 -166   0.13
!
! (c) 2016  Infineon Technologies AG, Munich
