! Infineon Technologies  Discrete & RF Semiconductors
! BFP460
! VCE =  2.5 V,  IC =  18 mA
! Common Emitter S-Parameters:                            Jan 2016
# GHz  S  MA  R  50
!  f         S11            S21            S12            S22
! GHz     MAG   ANG      MAG   ANG      MAG   ANG      MAG   ANG
 0.030  0.6366  -13.5  42.644  171.9  0.0052   85.1  0.9552   -8.5
 0.035  0.6338  -15.7  42.452  170.5  0.0060   83.7  0.9522   -9.9
 0.040  0.6319  -18.0  42.285  169.1  0.0069   82.6  0.9499  -11.4
 0.045  0.6305  -20.2  41.995  167.6  0.0077   81.2  0.9459  -12.7
 0.050  0.6301  -22.4  41.735  166.0  0.0085   80.1  0.9425  -14.1
 0.055  0.6282  -24.4  41.518  164.9  0.0092   79.5  0.9378  -15.5
 0.060  0.6271  -26.5  41.317  163.7  0.0100   79.0  0.9336  -16.9
 0.065  0.6241  -28.9  41.169  162.3  0.0107   78.4  0.9282  -18.3
 0.070  0.6221  -31.3  41.046  160.9  0.0114   77.8  0.9234  -19.7
 0.075  0.6218  -33.3  40.736  159.9  0.0123   76.2  0.9171  -21.0
 0.080  0.6223  -35.2  40.438  158.9  0.0132   74.8  0.9114  -22.4
 0.085  0.6171  -37.4  40.106  157.6  0.0139   73.9  0.9044  -23.7
 0.090  0.6128  -39.7  39.795  156.3  0.0146   73.1  0.8978  -25.0
 0.095  0.6109  -41.4  39.372  155.3  0.0153   72.7  0.8909  -26.3
 0.100  0.6095  -43.2  38.962  154.2  0.0160   72.3  0.8845  -27.6
 0.105  0.6088  -45.2  38.680  153.1  0.0166   71.4  0.8768  -28.8
 0.110  0.6088  -47.2  38.413  152.0  0.0173   70.6  0.8695  -30.0
 0.115  0.6051  -49.2  38.049  150.9  0.0179   69.9  0.8617  -31.2
 0.120  0.6022  -51.3  37.701  149.7  0.0186   69.2  0.8544  -32.5
 0.125  0.5978  -53.0  37.333  148.7  0.0192   68.4  0.8462  -33.6
 0.130  0.5939  -54.7  36.976  147.7  0.0198   67.7  0.8383  -34.7
 0.135  0.5913  -56.6  36.629  146.7  0.0204   67.1  0.8302  -35.8
 0.140  0.5894  -58.6  36.294  145.6  0.0210   66.6  0.8225  -37.0
 0.145  0.5856  -60.2  35.866  144.6  0.0215   65.9  0.8142  -38.1
 0.150  0.5823  -61.8  35.449  143.6  0.0221   65.2  0.8063  -39.2
 0.155  0.5778  -63.3  35.056  142.8  0.0226   64.6  0.7974  -40.1
 0.160  0.5738  -64.8  34.670  142.0  0.0230   64.1  0.7887  -41.0
 0.165  0.5701  -66.4  34.290  141.2  0.0235   63.6  0.7802  -41.9
 0.170  0.5669  -68.0  33.918  140.4  0.0240   63.1  0.7719  -42.8
 0.175  0.5641  -69.6  33.552  139.6  0.0244   62.6  0.7638  -43.8
 0.180  0.5618  -71.2  33.194  138.7  0.0249   62.1  0.7559  -44.7
 0.185  0.5599  -72.8  32.844  137.8  0.0254   61.7  0.7483  -45.7
 0.190  0.5584  -74.4  32.501  136.9  0.0258   61.2  0.7408  -46.7
 0.195  0.5574  -76.1  32.166  136.0  0.0263   60.8  0.7337  -47.7
 0.200  0.5569  -77.7  31.840  135.1  0.0268   60.4  0.7267  -48.8
 0.220  0.5450  -82.9  30.434  132.4  0.0283   58.8  0.6959  -51.8
 0.240  0.5378  -88.3  29.099  129.5  0.0298   57.4  0.6672  -55.1
 0.260  0.5312  -93.3  27.851  127.0  0.0311   56.3  0.6403  -58.2
 0.280  0.5238  -97.7  26.661  124.7  0.0323   55.3  0.6144  -60.8
 0.300  0.5195 -102.2  25.515  122.3  0.0335   54.4  0.5899  -63.7
 0.320  0.5124 -105.9  24.472  120.5  0.0345   53.7  0.5676  -65.8
 0.340  0.5075 -109.6  23.455  118.5  0.0355   53.1  0.5462  -68.2
 0.360  0.5029 -113.1  22.519  116.7  0.0364   52.6  0.5265  -70.3
 0.380  0.4981 -116.4  21.656  115.1  0.0373   52.2  0.5080  -72.4
 0.400  0.4950 -119.7  20.812  113.4  0.0382   51.8  0.4903  -74.5
 0.420  0.4906 -122.5  20.067  112.1  0.0390   51.6  0.4747  -76.1
 0.440  0.4875 -125.3  19.333  110.7  0.0399   51.4  0.4594  -77.9
 0.450  0.4863 -126.7  18.970  110.0  0.0403   51.3  0.4520  -78.8
 0.460  0.4847 -127.9  18.654  109.4  0.0407   51.3  0.4453  -79.6
 0.480  0.4821 -130.3  18.027  108.3  0.0415   51.2  0.4322  -81.1
 0.500  0.4804 -132.7  17.408  107.0  0.0423   51.1  0.4195  -82.8
 0.520  0.4777 -134.7  16.896  106.1  0.0431   51.1  0.4089  -84.0
 0.540  0.4756 -136.7  16.388  105.1  0.0438   51.1  0.3984  -85.3
 0.560  0.4740 -138.8  15.885  104.1  0.0446   51.0  0.3882  -86.7
 0.580  0.4731 -140.8  15.387  103.1  0.0453   51.0  0.3782  -88.1
 0.600  0.4728 -142.9  14.895  101.9  0.0461   51.0  0.3685  -89.6
 0.620  0.4710 -144.5  14.507  101.2  0.0469   51.1  0.3607  -90.7
 0.640  0.4696 -146.2  14.121  100.4  0.0476   51.1  0.3529  -91.8
 0.660  0.4685 -147.8  13.739   99.6  0.0484   51.2  0.3454  -93.0
 0.680  0.4679 -149.4  13.359   98.7  0.0491   51.2  0.3380  -94.2
 0.700  0.4676 -151.1  12.982   97.8  0.0499   51.3  0.3307  -95.5
 0.720  0.4668 -152.4  12.680   97.2  0.0506   51.4  0.3248  -96.4
 0.740  0.4662 -153.8  12.380   96.5  0.0514   51.5  0.3191  -97.4
 0.760  0.4659 -155.1  12.082   95.8  0.0521   51.6  0.3134  -98.4
 0.780  0.4658 -156.5  11.785   95.1  0.0529   51.7  0.3078  -99.4
 0.800  0.4660 -157.8  11.491   94.3  0.0536   51.8  0.3023 -100.5
 0.820  0.4653 -158.9  11.253   93.7  0.0544   51.9  0.2978 -101.3
 0.840  0.4648 -160.1  11.017   93.1  0.0552   52.0  0.2933 -102.2
 0.860  0.4644 -161.2  10.782   92.5  0.0559   52.1  0.2889 -103.1
 0.880  0.4643 -162.4  10.548   91.9  0.0567   52.2  0.2846 -104.0
 0.900  0.4643 -163.5  10.315   91.2  0.0575   52.3  0.2804 -105.0
 0.920  0.4639 -164.5  10.120   90.7  0.0583   52.4  0.2769 -105.8
 0.940  0.4636 -165.6   9.925   90.2  0.0591   52.5  0.2734 -106.6
 0.960  0.4635 -166.6   9.731   89.6  0.0598   52.6  0.2699 -107.4
 0.980  0.4636 -167.7   9.538   89.1  0.0606   52.7  0.2665 -108.2
 1.000  0.4638 -168.7   9.346   88.5  0.0614   52.8  0.2632 -109.1
 1.020  0.4637 -169.6   9.183   88.0  0.0622   52.9  0.2605 -109.8
 1.040  0.4637 -170.5   9.020   87.5  0.0630   52.9  0.2578 -110.5
 1.060  0.4638 -171.4   8.858   87.0  0.0638   53.0  0.2552 -111.3
 1.080  0.4640 -172.3   8.697   86.5  0.0646   53.0  0.2526 -112.0
 1.100  0.4643 -173.2   8.537   85.9  0.0654   53.1  0.2501 -112.8
 1.120  0.4643 -174.0   8.400   85.5  0.0662   53.1  0.2479 -113.5
 1.140  0.4643 -174.8   8.264   85.0  0.0670   53.2  0.2457 -114.2
 1.160  0.4644 -175.6   8.128   84.6  0.0678   53.2  0.2435 -114.9
 1.180  0.4647 -176.4   7.993   84.1  0.0686   53.3  0.2414 -115.6
 1.200  0.4650 -177.2   7.858   83.6  0.0694   53.3  0.2393 -116.3
 1.220  0.4652 -177.9   7.741   83.2  0.0702   53.3  0.2376 -116.9
 1.240  0.4655 -178.7   7.624   82.7  0.0710   53.4  0.2359 -117.6
 1.260  0.4658 -179.4   7.508   82.3  0.0719   53.4  0.2342 -118.2
 1.280  0.4663  179.8   7.392   81.8  0.0727   53.5  0.2326 -118.8
 1.300  0.4668  179.1   7.277   81.3  0.0735   53.5  0.2310 -119.5
 1.320  0.4669  178.4   7.176   80.9  0.0743   53.5  0.2295 -120.1
 1.340  0.4672  177.7   7.075   80.5  0.0751   53.5  0.2280 -120.7
 1.360  0.4674  177.0   6.975   80.1  0.0760   53.5  0.2266 -121.3
 1.380  0.4678  176.3   6.875   79.6  0.0768   53.5  0.2252 -121.9
 1.400  0.4682  175.6   6.776   79.2  0.0776   53.5  0.2238 -122.5
 1.420  0.4686  174.9   6.689   78.8  0.0784   53.5  0.2227 -123.0
 1.440  0.4692  174.2   6.601   78.4  0.0793   53.5  0.2216 -123.6
 1.460  0.4697  173.6   6.515   78.0  0.0801   53.4  0.2206 -124.2
 1.480  0.4704  172.9   6.428   77.6  0.0810   53.4  0.2195 -124.7
 1.500  0.4711  172.2   6.342   77.2  0.0818   53.4  0.2185 -125.3
 1.520  0.4712  171.6   6.264   76.8  0.0826   53.4  0.2175 -125.8
 1.540  0.4715  171.0   6.187   76.4  0.0834   53.4  0.2166 -126.4
 1.560  0.4717  170.3   6.109   76.0  0.0843   53.3  0.2157 -126.9
 1.580  0.4720  169.7   6.033   75.6  0.0851   53.3  0.2148 -127.5
 1.600  0.4724  169.1   5.956   75.2  0.0859   53.3  0.2139 -128.0
 1.620  0.4727  168.5   5.889   74.8  0.0867   53.3  0.2131 -128.5
 1.640  0.4731  168.0   5.822   74.4  0.0876   53.2  0.2124 -129.0
 1.660  0.4735  167.4   5.755   74.0  0.0884   53.2  0.2117 -129.5
 1.680  0.4740  166.9   5.688   73.6  0.0893   53.1  0.2110 -130.0
 1.700  0.4745  166.3   5.622   73.2  0.0901   53.1  0.2103 -130.5
 1.720  0.4751  165.7   5.560   72.9  0.0909   53.0  0.2097 -131.0
 1.740  0.4757  165.2   5.499   72.5  0.0918   53.0  0.2091 -131.5
 1.760  0.4764  164.6   5.438   72.1  0.0926   52.9  0.2086 -132.0
 1.780  0.4771  164.1   5.377   71.8  0.0935   52.9  0.2080 -132.5
 1.800  0.4779  163.5   5.316   71.4  0.0943   52.8  0.2075 -133.0
 1.820  0.4783  163.0   5.262   71.1  0.0951   52.7  0.2070 -133.5
 1.840  0.4788  162.4   5.208   70.7  0.0960   52.6  0.2065 -134.0
 1.860  0.4793  161.9   5.155   70.3  0.0968   52.6  0.2061 -134.5
 1.880  0.4798  161.3   5.101   70.0  0.0977   52.5  0.2056 -135.0
 1.900  0.4804  160.8   5.048   69.6  0.0985   52.4  0.2052 -135.5
 1.920  0.4811  160.3   4.999   69.2  0.0993   52.3  0.2049 -136.0
 1.940  0.4818  159.8   4.950   68.9  0.1002   52.2  0.2045 -136.5
 1.960  0.4825  159.2   4.901   68.5  0.1010   52.2  0.2042 -136.9
 1.980  0.4833  158.7   4.852   68.1  0.1019   52.1  0.2039 -137.4
 2.000  0.4841  158.2   4.804   67.7  0.1027   52.0  0.2036 -137.9
 2.020  0.4847  157.7   4.760   67.4  0.1035   51.9  0.2034 -138.4
 2.040  0.4853  157.2   4.717   67.1  0.1044   51.8  0.2032 -138.9
 2.060  0.4860  156.7   4.673   66.7  0.1052   51.7  0.2030 -139.4
 2.080  0.4867  156.2   4.630   66.4  0.1060   51.6  0.2028 -139.9
 2.100  0.4874  155.7   4.587   66.0  0.1068   51.5  0.2026 -140.3
 2.120  0.4882  155.2   4.544   65.7  0.1077   51.4  0.2025 -140.8
 2.140  0.4890  154.7   4.501   65.3  0.1085   51.3  0.2023 -141.3
 2.160  0.4899  154.2   4.459   65.0  0.1093   51.2  0.2022 -141.8
 2.180  0.4908  153.7   4.416   64.6  0.1102   51.1  0.2021 -142.3
 2.200  0.4917  153.2   4.374   64.2  0.1110   51.0  0.2020 -142.8
 2.220  0.4924  152.7   4.338   63.9  0.1118   50.9  0.2020 -143.3
 2.240  0.4931  152.3   4.301   63.6  0.1126   50.8  0.2020 -143.8
 2.260  0.4938  151.8   4.265   63.2  0.1135   50.7  0.2020 -144.3
 2.280  0.4946  151.3   4.229   62.9  0.1143   50.5  0.2020 -144.8
 2.300  0.4954  150.9   4.193   62.6  0.1151   50.4  0.2020 -145.3
 2.320  0.4962  150.4   4.157   62.2  0.1159   50.3  0.2021 -145.7
 2.340  0.4971  150.0   4.122   61.9  0.1167   50.2  0.2021 -146.2
 2.360  0.4980  149.5   4.086   61.5  0.1176   50.1  0.2022 -146.7
 2.380  0.4989  149.1   4.051   61.2  0.1184   50.0  0.2023 -147.2
 2.400  0.4999  148.6   4.016   60.8  0.1192   49.9  0.2024 -147.7
 2.420  0.5007  148.2   3.984   60.5  0.1200   49.8  0.2026 -148.2
 2.440  0.5016  147.7   3.953   60.2  0.1208   49.6  0.2029 -148.7
 2.460  0.5025  147.3   3.922   59.8  0.1216   49.5  0.2031 -149.2
 2.480  0.5035  146.8   3.890   59.5  0.1224   49.4  0.2034 -149.7
 2.500  0.5044  146.4   3.859   59.2  0.1232   49.2  0.2037 -150.2
 2.520  0.5054  145.9   3.828   58.8  0.1240   49.1  0.2040 -150.7
 2.540  0.5064  145.5   3.798   58.5  0.1248   49.0  0.2043 -151.2
 2.560  0.5075  145.1   3.767   58.1  0.1256   48.8  0.2046 -151.7
 2.580  0.5086  144.6   3.736   57.8  0.1264   48.7  0.2049 -152.2
 2.600  0.5097  144.2   3.706   57.4  0.1272   48.6  0.2053 -152.7
 2.620  0.5105  143.8   3.679   57.1  0.1280   48.5  0.2057 -153.2
 2.640  0.5113  143.4   3.652   56.8  0.1288   48.3  0.2062 -153.6
 2.660  0.5122  143.0   3.626   56.5  0.1296   48.2  0.2066 -154.1
 2.680  0.5131  142.6   3.599   56.2  0.1304   48.1  0.2071 -154.5
 2.700  0.5140  142.2   3.573   55.9  0.1311   47.9  0.2076 -155.0
 2.720  0.5149  141.8   3.546   55.5  0.1319   47.8  0.2081 -155.4
 2.740  0.5159  141.4   3.520   55.2  0.1327   47.7  0.2086 -155.9
 2.760  0.5169  141.0   3.494   54.9  0.1335   47.5  0.2091 -156.3
 2.780  0.5179  140.6   3.468   54.5  0.1343   47.4  0.2097 -156.8
 2.800  0.5189  140.2   3.442   54.2  0.1351   47.3  0.2102 -157.2
 2.820  0.5198  139.8   3.418   53.9  0.1359   47.1  0.2107 -157.6
 2.840  0.5208  139.4   3.394   53.6  0.1366   47.0  0.2113 -158.1
 2.860  0.5218  139.1   3.371   53.3  0.1374   46.8  0.2118 -158.5
 2.880  0.5228  138.7   3.347   53.0  0.1381   46.7  0.2124 -158.9
 2.900  0.5238  138.3   3.324   52.7  0.1389   46.5  0.2130 -159.4
 2.920  0.5248  138.0   3.300   52.4  0.1396   46.4  0.2136 -159.8
 2.940  0.5259  137.6   3.277   52.1  0.1404   46.2  0.2142 -160.2
 2.960  0.5270  137.2   3.254   51.8  0.1412   46.1  0.2148 -160.7
 2.980  0.5281  136.9   3.231   51.4  0.1419   45.9  0.2155 -161.1
 3.000  0.5292  136.5   3.208   51.1  0.1427   45.8  0.2161 -161.5
 3.100  0.5334  134.6   3.110   49.8  0.1463   45.0  0.2192 -163.5
 3.200  0.5381  132.8   3.015   48.3  0.1499   44.2  0.2225 -165.5
 3.300  0.5434  131.0   2.921   46.8  0.1536   43.4  0.2261 -167.4
 3.400  0.5492  129.2   2.829   45.2  0.1573   42.7  0.2299 -169.2
 3.500  0.5555  127.5   2.740   43.5  0.1610   42.0  0.2340 -171.0
 3.600  0.5608  125.9   2.665   42.2  0.1642   41.2  0.2379 -173.0
 3.700  0.5666  124.3   2.592   40.9  0.1675   40.3  0.2421 -175.0
 3.800  0.5728  122.8   2.520   39.5  0.1708   39.6  0.2466 -176.9
 3.900  0.5793  121.3   2.450   38.0  0.1741   38.8  0.2513 -178.7
 4.000  0.5863  119.8   2.382   36.4  0.1775   38.1  0.2563  179.5
 4.100  0.5916  118.5   2.323   35.2  0.1804   37.4  0.2616  177.7
 4.200  0.5972  117.2   2.264   34.0  0.1833   36.6  0.2672  175.9
 4.300  0.6030  115.9   2.207   32.6  0.1862   35.9  0.2730  174.2
 4.400  0.6092  114.6   2.152   31.3  0.1892   35.3  0.2791  172.6
 4.500  0.6157  113.4   2.097   29.8  0.1922   34.6  0.2853  171.1
 4.600  0.6198  112.2   2.051   28.7  0.1951   33.9  0.2897  169.8
 4.700  0.6241  111.0   2.005   27.6  0.1980   33.3  0.2943  168.6
 4.800  0.6287  109.9   1.961   26.4  0.2009   32.6  0.2990  167.4
 4.900  0.6335  108.7   1.917   25.1  0.2038   32.0  0.3038  166.2
 5.000  0.6386  107.6   1.874   23.8  0.2068   31.4  0.3088  165.1
 5.100  0.6415  106.6   1.839   22.8  0.2099   30.7  0.3118  164.2
 5.200  0.6445  105.6   1.804   21.7  0.2131   30.0  0.3148  163.2
 5.300  0.6478  104.6   1.770   20.6  0.2163   29.3  0.3179  162.3
 5.400  0.6512  103.7   1.737   19.5  0.2195   28.6  0.3211  161.5
 5.500  0.6548  102.7   1.704   18.3  0.2227   28.0  0.3244  160.6
 5.600  0.6570  101.9   1.676   17.3  0.2256   27.2  0.3279  159.7
 5.700  0.6594  101.1   1.648   16.2  0.2285   26.4  0.3315  158.9
 5.800  0.6619  100.3   1.621   15.1  0.2315   25.7  0.3352  158.0
 5.900  0.6645   99.6   1.595   13.9  0.2345   24.9  0.3389  157.2
 6.000  0.6672   98.8   1.569   12.7  0.2375   24.2  0.3427  156.4
 6.100  0.6676   98.0   1.545   11.7  0.2400   23.5  0.3451  155.9
 6.200  0.6681   97.2   1.521   10.7  0.2426   22.8  0.3476  155.3
 6.300  0.6688   96.3   1.498    9.6  0.2452   22.1  0.3501  154.8
 6.400  0.6696   95.5   1.475    8.5  0.2478   21.5  0.3526  154.3
 6.500  0.6705   94.7   1.453    7.4  0.2505   20.8  0.3552  153.8
 6.600  0.6700   93.8   1.435    6.4  0.2535   20.1  0.3549  153.4
 6.800  0.6695   91.9   1.399    4.4  0.2595   18.8  0.3543  152.7
 7.000  0.6697   90.0   1.365    2.3  0.2656   17.5  0.3538  151.9
 7.200  0.6715   87.8   1.336    0.2  0.2720   15.9  0.3534  150.4
 7.400  0.6742   85.6   1.310   -2.1  0.2787   14.3  0.3532  148.9
 7.600  0.6783   83.2   1.283   -4.4  0.2850   12.6  0.3549  146.9
 7.800  0.6840   80.7   1.257   -6.8  0.2909   10.8  0.3586  144.6
 8.000  0.6910   78.2   1.233   -9.3  0.2972    9.0  0.3629  142.4
 8.200  0.6964   75.6   1.201  -11.7  0.3013    6.9  0.3673  139.5
 8.400  0.7033   73.0   1.171  -14.2  0.3059    4.8  0.3726  136.8
 8.600  0.7125   70.5   1.140  -16.6  0.3087    2.8  0.3793  133.3
 8.800  0.7239   68.2   1.108  -18.9  0.3099    0.7  0.3880  129.3
 9.000  0.7365   65.9   1.078  -21.3  0.3114   -1.3  0.3986  125.5
 9.200  0.7526   64.0   1.043  -23.2  0.3103   -2.9  0.4151  120.9
 9.400  0.7694   62.2   1.009  -25.2  0.3094   -4.5  0.4340  116.8
 9.600  0.7844   60.5   0.975  -26.9  0.3084   -5.8  0.4536  113.1
 9.800  0.7973   59.0   0.942  -28.4  0.3071   -6.7  0.4733  109.9
10.000  0.8108   57.6   0.910  -30.0  0.3059   -7.7  0.4943  107.0
!
!  f       NFmin   Gammaopt  rn/50
! GHz       dB    MAG  ANG    -
 0.450      1.21  0.04  164   0.13
 0.900      1.13  0.18  150   0.14
 1.900      1.33  0.16 -152   0.12
 3.500      1.29  0.41 -126   0.14
!
! (c) 2016  Infineon Technologies AG, Munich
