! Infineon Technologies  Discrete & RF Semiconductors
! BFP460
! VCE =  3.0 V,  IC =  12 mA
! Common Emitter S-Parameters:                            Jan 2016
# GHz  S  MA  R  50
!  f         S11            S21            S12            S22
! GHz     MAG   ANG      MAG   ANG      MAG   ANG      MAG   ANG
 0.030  0.7335  -10.0  32.638  173.3  0.0054   84.1  0.9709   -6.8
 0.035  0.7314  -11.5  32.539  172.1  0.0062   83.8  0.9688   -7.9
 0.040  0.7299  -13.1  32.455  170.9  0.0071   83.6  0.9670   -9.0
 0.045  0.7276  -14.8  32.266  169.8  0.0081   82.0  0.9643   -9.9
 0.050  0.7259  -16.6  32.090  168.6  0.0091   80.8  0.9618  -10.9
 0.055  0.7249  -18.2  31.986  167.7  0.0099   80.6  0.9587  -12.0
 0.060  0.7245  -19.8  31.890  166.8  0.0107   80.4  0.9560  -13.1
 0.065  0.7211  -21.6  31.861  165.7  0.0115   79.5  0.9526  -14.2
 0.070  0.7184  -23.4  31.844  164.5  0.0124   78.8  0.9495  -15.3
 0.075  0.7182  -24.9  31.678  163.7  0.0132   78.0  0.9453  -16.3
 0.080  0.7185  -26.3  31.518  162.9  0.0141   77.3  0.9415  -17.4
 0.085  0.7156  -28.0  31.356  161.9  0.0148   76.6  0.9366  -18.4
 0.090  0.7133  -29.8  31.204  160.8  0.0155   75.9  0.9321  -19.5
 0.095  0.7106  -31.2  30.953  159.9  0.0163   75.3  0.9275  -20.5
 0.100  0.7083  -32.7  30.709  159.0  0.0172   74.7  0.9232  -21.5
 0.105  0.7077  -34.3  30.573  158.1  0.0179   74.0  0.9178  -22.5
 0.110  0.7076  -35.9  30.446  157.1  0.0187   73.4  0.9126  -23.5
 0.115  0.7029  -37.4  30.263  156.2  0.0194   72.7  0.9072  -24.5
 0.120  0.6988  -39.0  30.089  155.2  0.0202   72.1  0.9020  -25.5
 0.125  0.6953  -40.4  29.888  154.4  0.0209   71.4  0.8962  -26.4
 0.130  0.6923  -41.8  29.693  153.5  0.0216   70.8  0.8906  -27.3
 0.135  0.6886  -43.3  29.511  152.6  0.0222   70.1  0.8847  -28.2
 0.140  0.6853  -44.8  29.337  151.6  0.0229   69.5  0.8791  -29.2
 0.145  0.6830  -46.2  29.085  150.7  0.0236   68.9  0.8729  -30.1
 0.150  0.6812  -47.6  28.841  149.8  0.0243   68.3  0.8670  -31.0
 0.155  0.6764  -48.9  28.606  149.1  0.0249   67.7  0.8599  -31.8
 0.160  0.6720  -50.2  28.376  148.3  0.0254   67.1  0.8531  -32.6
 0.165  0.6679  -51.5  28.151  147.6  0.0260   66.5  0.8463  -33.4
 0.170  0.6642  -52.9  27.931  146.8  0.0266   65.9  0.8398  -34.2
 0.175  0.6609  -54.2  27.717  146.0  0.0272   65.4  0.8334  -35.0
 0.180  0.6580  -55.6  27.507  145.2  0.0278   64.9  0.8272  -35.9
 0.185  0.6554  -57.0  27.303  144.4  0.0283   64.4  0.8212  -36.7
 0.190  0.6532  -58.4  27.104  143.6  0.0289   64.0  0.8154  -37.6
 0.195  0.6514  -59.8  26.911  142.7  0.0295   63.5  0.8097  -38.5
 0.200  0.6500  -61.2  26.724  141.9  0.0301   63.1  0.8043  -39.4
 0.220  0.6351  -65.9  25.813  139.3  0.0320   61.2  0.7777  -42.2
 0.240  0.6246  -70.7  24.960  136.5  0.0340   59.6  0.7531  -45.1
 0.260  0.6143  -75.2  24.127  133.9  0.0358   58.1  0.7290  -47.9
 0.280  0.6029  -79.4  23.295  131.6  0.0373   56.8  0.7047  -50.4
 0.300  0.5949  -83.7  22.502  129.2  0.0388   55.6  0.6819  -53.0
 0.320  0.5839  -87.4  21.731  127.3  0.0401   54.5  0.6598  -55.1
 0.340  0.5754  -91.2  20.986  125.2  0.0414   53.5  0.6386  -57.2
 0.360  0.5671  -94.8  20.284  123.3  0.0426   52.6  0.6186  -59.3
 0.380  0.5585  -98.0  19.614  121.5  0.0437   51.9  0.5994  -61.2
 0.400  0.5518 -101.4  18.963  119.7  0.0448   51.2  0.5810  -63.2
 0.420  0.5447 -104.4  18.360  118.3  0.0458   50.6  0.5639  -64.8
 0.440  0.5390 -107.4  17.769  116.7  0.0467   50.0  0.5473  -66.5
 0.450  0.5368 -109.0  17.479  115.9  0.0472   49.7  0.5392  -67.4
 0.460  0.5336 -110.3  17.215  115.3  0.0476   49.5  0.5317  -68.1
 0.480  0.5279 -112.9  16.693  114.0  0.0485   49.1  0.5170  -69.6
 0.500  0.5234 -115.5  16.181  112.6  0.0494   48.7  0.5026  -71.1
 0.520  0.5178 -117.7  15.739  111.6  0.0502   48.4  0.4901  -72.3
 0.540  0.5129 -120.0  15.302  110.5  0.0510   48.2  0.4779  -73.5
 0.560  0.5089 -122.4  14.872  109.3  0.0517   47.9  0.4659  -74.7
 0.580  0.5058 -124.7  14.447  108.1  0.0525   47.6  0.4541  -76.1
 0.600  0.5035 -127.1  14.030  106.8  0.0533   47.4  0.4426  -77.5
 0.620  0.4997 -128.9  13.684  106.0  0.0540   47.3  0.4330  -78.5
 0.640  0.4965 -130.8  13.342  105.1  0.0547   47.2  0.4235  -79.6
 0.660  0.4938 -132.7  13.002  104.1  0.0554   47.0  0.4142  -80.7
 0.680  0.4916 -134.6  12.667  103.1  0.0561   46.9  0.4050  -81.8
 0.700  0.4900 -136.5  12.335  102.1  0.0568   46.8  0.3960  -83.0
 0.720  0.4875 -138.1  12.060  101.4  0.0575   46.8  0.3885  -83.9
 0.740  0.4853 -139.6  11.787  100.6  0.0582   46.7  0.3812  -84.8
 0.760  0.4835 -141.2  11.517   99.8  0.0588   46.7  0.3739  -85.7
 0.780  0.4821 -142.8  11.249   99.0  0.0595   46.6  0.3668  -86.7
 0.800  0.4810 -144.4  10.983   98.1  0.0602   46.6  0.3597  -87.7
 0.820  0.4794 -145.8  10.764   97.5  0.0609   46.6  0.3538  -88.5
 0.840  0.4781 -147.1  10.546   96.8  0.0616   46.6  0.3480  -89.3
 0.860  0.4770 -148.5  10.329   96.1  0.0622   46.6  0.3423  -90.1
 0.880  0.4763 -149.9  10.114   95.4  0.0629   46.6  0.3366  -90.9
 0.900  0.4758 -151.3   9.901   94.7  0.0636   46.6  0.3310  -91.8
 0.920  0.4744 -152.5   9.719   94.1  0.0643   46.6  0.3262  -92.5
 0.940  0.4732 -153.7   9.537   93.5  0.0650   46.7  0.3215  -93.3
 0.960  0.4722 -154.9   9.357   92.9  0.0656   46.7  0.3169  -94.0
 0.980  0.4715 -156.1   9.178   92.3  0.0663   46.8  0.3122  -94.8
 1.000  0.4709 -157.3   9.000   91.6  0.0670   46.8  0.3077  -95.6
 1.020  0.4702 -158.4   8.847   91.1  0.0677   46.8  0.3039  -96.2
 1.040  0.4697 -159.5   8.694   90.5  0.0684   46.9  0.3002  -96.9
 1.060  0.4694 -160.5   8.543   89.9  0.0690   46.9  0.2965  -97.6
 1.080  0.4692 -161.6   8.392   89.3  0.0697   47.0  0.2928  -98.3
 1.100  0.4692 -162.7   8.242   88.7  0.0704   47.0  0.2892  -99.0
 1.120  0.4686 -163.7   8.112   88.2  0.0711   47.0  0.2860  -99.6
 1.140  0.4682 -164.6   7.983   87.7  0.0718   47.1  0.2829 -100.2
 1.160  0.4679 -165.6   7.854   87.2  0.0724   47.1  0.2798 -100.9
 1.180  0.4677 -166.5   7.726   86.7  0.0731   47.2  0.2767 -101.5
 1.200  0.4677 -167.5   7.599   86.1  0.0738   47.2  0.2737 -102.2
 1.220  0.4676 -168.4   7.488   85.6  0.0745   47.2  0.2712 -102.8
 1.240  0.4675 -169.3   7.378   85.2  0.0752   47.3  0.2687 -103.4
 1.260  0.4676 -170.1   7.269   84.7  0.0760   47.3  0.2662 -104.0
 1.280  0.4678 -171.0   7.160   84.2  0.0767   47.4  0.2637 -104.6
 1.300  0.4681 -171.9   7.051   83.7  0.0774   47.4  0.2613 -105.2
 1.320  0.4679 -172.7   6.955   83.2  0.0781   47.4  0.2590 -105.7
 1.340  0.4677 -173.5   6.860   82.8  0.0788   47.4  0.2568 -106.3
 1.360  0.4677 -174.4   6.765   82.3  0.0795   47.5  0.2546 -106.9
 1.380  0.4677 -175.2   6.670   81.8  0.0802   47.5  0.2524 -107.4
 1.400  0.4679 -176.0   6.576   81.3  0.0809   47.5  0.2502 -108.0
 1.420  0.4680 -176.8   6.492   80.9  0.0816   47.5  0.2485 -108.5
 1.440  0.4682 -177.6   6.408   80.5  0.0823   47.5  0.2467 -109.1
 1.460  0.4685 -178.3   6.325   80.0  0.0831   47.6  0.2450 -109.6
 1.480  0.4688 -179.1   6.242   79.6  0.0838   47.6  0.2434 -110.1
 1.500  0.4693 -179.9   6.159   79.1  0.0845   47.6  0.2417 -110.7
 1.520  0.4694  179.4   6.085   78.7  0.0852   47.6  0.2401 -111.2
 1.540  0.4696  178.7   6.010   78.3  0.0859   47.6  0.2386 -111.7
 1.560  0.4699  177.9   5.937   77.9  0.0867   47.6  0.2370 -112.2
 1.580  0.4703  177.2   5.863   77.4  0.0874   47.6  0.2355 -112.8
 1.600  0.4707  176.5   5.790   77.0  0.0881   47.6  0.2340 -113.3
 1.620  0.4709  175.8   5.725   76.6  0.0888   47.6  0.2327 -113.8
 1.640  0.4712  175.2   5.660   76.2  0.0896   47.6  0.2314 -114.3
 1.660  0.4716  174.5   5.596   75.8  0.0903   47.5  0.2302 -114.8
 1.680  0.4720  173.9   5.532   75.3  0.0911   47.5  0.2289 -115.3
 1.700  0.4725  173.2   5.468   74.9  0.0918   47.5  0.2277 -115.8
 1.720  0.4727  172.6   5.409   74.5  0.0925   47.5  0.2266 -116.3
 1.740  0.4729  171.9   5.350   74.2  0.0933   47.5  0.2255 -116.8
 1.760  0.4732  171.3   5.291   73.8  0.0940   47.4  0.2245 -117.3
 1.780  0.4735  170.6   5.232   73.4  0.0948   47.4  0.2234 -117.8
 1.800  0.4739  170.0   5.174   73.0  0.0955   47.4  0.2224 -118.3
 1.820  0.4745  169.4   5.122   72.6  0.0962   47.4  0.2214 -118.8
 1.840  0.4751  168.8   5.071   72.2  0.0970   47.3  0.2205 -119.3
 1.860  0.4757  168.2   5.020   71.8  0.0977   47.3  0.2195 -119.8
 1.880  0.4764  167.6   4.969   71.4  0.0985   47.2  0.2186 -120.3
 1.900  0.4772  167.0   4.918   71.0  0.0992   47.2  0.2177 -120.8
 1.920  0.4776  166.4   4.870   70.6  0.0999   47.2  0.2169 -121.3
 1.940  0.4780  165.8   4.823   70.2  0.1007   47.1  0.2161 -121.7
 1.960  0.4785  165.2   4.776   69.8  0.1014   47.1  0.2154 -122.2
 1.980  0.4790  164.6   4.729   69.4  0.1022   47.0  0.2146 -122.7
 2.000  0.4796  164.0   4.682   69.0  0.1029   47.0  0.2139 -123.2
 2.020  0.4802  163.4   4.640   68.7  0.1036   46.9  0.2132 -123.7
 2.040  0.4808  162.9   4.597   68.3  0.1044   46.9  0.2126 -124.2
 2.060  0.4814  162.3   4.555   68.0  0.1051   46.8  0.2120 -124.7
 2.080  0.4821  161.7   4.513   67.6  0.1059   46.7  0.2114 -125.2
 2.100  0.4829  161.2   4.472   67.2  0.1066   46.7  0.2108 -125.7
 2.120  0.4837  160.6   4.430   66.9  0.1073   46.6  0.2102 -126.2
 2.140  0.4845  160.1   4.389   66.5  0.1081   46.6  0.2097 -126.7
 2.160  0.4854  159.5   4.348   66.1  0.1088   46.5  0.2091 -127.3
 2.180  0.4863  159.0   4.307   65.7  0.1096   46.5  0.2086 -127.8
 2.200  0.4873  158.4   4.266   65.3  0.1103   46.4  0.2081 -128.3
 2.220  0.4880  157.9   4.231   65.0  0.1110   46.3  0.2077 -128.8
 2.240  0.4887  157.4   4.196   64.6  0.1118   46.2  0.2072 -129.3
 2.260  0.4894  156.9   4.161   64.3  0.1125   46.1  0.2068 -129.8
 2.280  0.4902  156.3   4.126   63.9  0.1133   46.1  0.2065 -130.4
 2.300  0.4911  155.8   4.091   63.6  0.1140   46.0  0.2061 -130.9
 2.320  0.4919  155.3   4.057   63.2  0.1147   45.9  0.2057 -131.4
 2.340  0.4928  154.8   4.023   62.8  0.1155   45.8  0.2054 -131.9
 2.360  0.4938  154.3   3.989   62.5  0.1162   45.8  0.2051 -132.4
 2.380  0.4948  153.8   3.955   62.1  0.1170   45.7  0.2048 -133.0
 2.400  0.4958  153.3   3.921   61.7  0.1177   45.6  0.2045 -133.5
 2.420  0.4966  152.8   3.890   61.4  0.1184   45.5  0.2043 -134.0
 2.440  0.4974  152.3   3.860   61.0  0.1192   45.4  0.2042 -134.6
 2.460  0.4982  151.8   3.830   60.7  0.1199   45.3  0.2040 -135.1
 2.480  0.4991  151.4   3.799   60.4  0.1207   45.2  0.2039 -135.6
 2.500  0.5001  150.9   3.769   60.0  0.1214   45.1  0.2038 -136.1
 2.520  0.5010  150.4   3.739   59.7  0.1221   45.0  0.2038 -136.7
 2.540  0.5020  149.9   3.710   59.3  0.1229   45.0  0.2037 -137.2
 2.560  0.5030  149.4   3.680   58.9  0.1236   44.9  0.2036 -137.7
 2.580  0.5041  149.0   3.650   58.6  0.1244   44.8  0.2036 -138.3
 2.600  0.5052  148.5   3.621   58.2  0.1251   44.7  0.2036 -138.8
 2.620  0.5059  148.0   3.595   57.9  0.1258   44.6  0.2037 -139.3
 2.640  0.5067  147.6   3.569   57.6  0.1265   44.5  0.2038 -139.8
 2.660  0.5075  147.1   3.543   57.2  0.1272   44.4  0.2039 -140.3
 2.680  0.5083  146.7   3.517   56.9  0.1279   44.2  0.2040 -140.8
 2.700  0.5092  146.2   3.491   56.6  0.1286   44.1  0.2041 -141.4
 2.720  0.5100  145.8   3.465   56.2  0.1293   44.0  0.2043 -141.9
 2.740  0.5110  145.3   3.440   55.9  0.1300   43.9  0.2045 -142.4
 2.760  0.5119  144.9   3.414   55.5  0.1307   43.8  0.2047 -142.9
 2.780  0.5129  144.4   3.389   55.2  0.1314   43.7  0.2049 -143.4
 2.800  0.5139  144.0   3.364   54.8  0.1321   43.6  0.2051 -143.9
 2.820  0.5149  143.6   3.341   54.5  0.1328   43.5  0.2054 -144.4
 2.840  0.5158  143.2   3.318   54.2  0.1335   43.4  0.2056 -144.9
 2.860  0.5169  142.8   3.295   53.9  0.1342   43.3  0.2059 -145.4
 2.880  0.5179  142.3   3.273   53.5  0.1349   43.1  0.2062 -145.9
 2.900  0.5190  141.9   3.250   53.2  0.1356   43.0  0.2065 -146.4
 2.920  0.5201  141.5   3.228   52.9  0.1364   42.9  0.2068 -146.9
 2.940  0.5212  141.1   3.205   52.5  0.1371   42.8  0.2072 -147.3
 2.960  0.5223  140.7   3.183   52.2  0.1378   42.7  0.2075 -147.8
 2.980  0.5235  140.3   3.161   51.9  0.1385   42.6  0.2079 -148.3
 3.000  0.5247  139.9   3.139   51.5  0.1392   42.5  0.2083 -148.8
 3.100  0.5288  137.9   3.044   50.1  0.1425   41.8  0.2101 -151.1
 3.200  0.5335  136.0   2.950   48.7  0.1459   41.2  0.2123 -153.4
 3.300  0.5388  134.1   2.858   47.1  0.1493   40.6  0.2148 -155.6
 3.400  0.5447  132.2   2.769   45.5  0.1527   40.0  0.2176 -157.7
 3.500  0.5512  130.4   2.682   43.7  0.1561   39.4  0.2207 -159.8
 3.600  0.5564  128.6   2.609   42.4  0.1592   38.7  0.2235 -162.1
 3.700  0.5621  126.9   2.538   41.0  0.1622   38.0  0.2267 -164.4
 3.800  0.5682  125.2   2.468   39.6  0.1653   37.3  0.2302 -166.5
 3.900  0.5749  123.6   2.399   38.0  0.1685   36.7  0.2341 -168.7
 4.000  0.5820  122.0   2.333   36.4  0.1716   36.1  0.2382 -170.7
 4.100  0.5875  120.6   2.275   35.2  0.1744   35.4  0.2427 -172.8
 4.200  0.5933  119.2   2.218   33.8  0.1771   34.8  0.2475 -174.8
 4.300  0.5994  117.9   2.162   32.5  0.1799   34.2  0.2527 -176.7
 4.400  0.6058  116.6   2.108   31.0  0.1828   33.6  0.2581 -178.5
 4.500  0.6126  115.3   2.055   29.5  0.1856   33.0  0.2637  179.7
 4.600  0.6167  114.1   2.010   28.4  0.1884   32.4  0.2679  178.3
 4.700  0.6210  112.8   1.966   27.2  0.1911   31.8  0.2723  176.9
 4.800  0.6256  111.6   1.922   25.9  0.1939   31.3  0.2769  175.5
 4.900  0.6305  110.5   1.880   24.7  0.1968   30.7  0.2816  174.3
 5.000  0.6357  109.3   1.838   23.3  0.1996   30.2  0.2864  173.0
 5.100  0.6386  108.3   1.803   22.2  0.2026   29.6  0.2895  172.0
 5.200  0.6417  107.3   1.768   21.2  0.2057   28.9  0.2927  171.0
 5.300  0.6450  106.3   1.735   20.0  0.2088   28.3  0.2960  170.1
 5.400  0.6485  105.3   1.701   18.8  0.2119   27.8  0.2994  169.1
 5.500  0.6522  104.3   1.669   17.6  0.2150   27.2  0.3028  168.2
 5.600  0.6546  103.4   1.641   16.5  0.2179   26.5  0.3066  167.3
 5.700  0.6571  102.6   1.614   15.4  0.2207   25.8  0.3104  166.3
 5.800  0.6598  101.8   1.587   14.2  0.2237   25.1  0.3143  165.4
 5.900  0.6626  100.9   1.561   13.0  0.2266   24.4  0.3183  164.6
 6.000  0.6656  100.1   1.536   11.8  0.2296   23.8  0.3224  163.7
 6.100  0.6662   99.3   1.512   10.8  0.2321   23.1  0.3253  163.1
 6.200  0.6669   98.4   1.489    9.7  0.2347   22.4  0.3283  162.5
 6.300  0.6678   97.6   1.466    8.7  0.2372   21.8  0.3313  161.9
 6.400  0.6688   96.7   1.444    7.5  0.2399   21.1  0.3343  161.4
 6.500  0.6700   95.9   1.422    6.4  0.2425   20.5  0.3374  160.8
 6.600  0.6695   95.0   1.404    5.4  0.2454   19.9  0.3376  160.4
 6.800  0.6690   93.1   1.368    3.4  0.2512   18.7  0.3381  159.7
 7.000  0.6693   91.2   1.335    1.3  0.2572   17.5  0.3386  158.9
 7.200  0.6712   88.9   1.306   -0.9  0.2636   16.0  0.3388  157.4
 7.400  0.6742   86.7   1.280   -3.1  0.2702   14.6  0.3391  155.9
 7.600  0.6786   84.3   1.253   -5.5  0.2765   13.0  0.3411  154.0
 7.800  0.6845   81.8   1.227   -7.9  0.2826   11.2  0.3449  151.6
 8.000  0.6918   79.3   1.203  -10.4  0.2890    9.5  0.3493  149.3
 8.200  0.6975   76.5   1.172  -12.8  0.2934    7.5  0.3535  146.3
 8.400  0.7047   73.8   1.143  -15.4  0.2982    5.5  0.3587  143.4
 8.600  0.7141   71.3   1.113  -17.8  0.3013    3.5  0.3648  139.8
 8.800  0.7255   68.9   1.081  -20.1  0.3029    1.4  0.3727  135.6
 9.000  0.7381   66.6   1.051  -22.5  0.3048   -0.6  0.3826  131.6
 9.200  0.7542   64.7   1.017  -24.4  0.3041   -2.1  0.3983  126.8
 9.400  0.7711   62.8   0.984  -26.4  0.3037   -3.6  0.4165  122.4
 9.600  0.7860   61.1   0.951  -28.2  0.3030   -4.9  0.4358  118.5
 9.800  0.7989   59.6   0.919  -29.8  0.3021   -5.9  0.4558  115.0
10.000  0.8123   58.1   0.887  -31.4  0.3013   -6.9  0.4772  111.9
!
!  f       NFmin   Gammaopt  rn/50
! GHz       dB    MAG  ANG    -
 0.450      1.03  0.09   22   0.14
 1.900      1.19  0.09 -179   0.12
 3.500      1.20  0.36 -133   0.12
!
! (c) 2016  Infineon Technologies AG, Munich
