! Infineon Technologies  Discrete & RF Semiconductors
! BFP460
! VCE =  4.0 V,  IC =  30 mA
! Common Emitter S-Parameters:                            Jan 2016
# GHz  S  MA  R  50
!  f         S11            S21            S12            S22
! GHz     MAG   ANG      MAG   ANG      MAG   ANG      MAG   ANG
 0.030  0.5127  -17.3  54.416  169.7  0.0046   81.8  0.9312   -9.9
 0.035  0.5102  -20.2  54.044  168.1  0.0053   81.3  0.9272  -11.6
 0.040  0.5091  -23.2  53.716  166.4  0.0060   80.9  0.9240  -13.3
 0.045  0.5064  -25.9  53.187  164.8  0.0066   79.0  0.9183  -14.8
 0.050  0.5049  -28.6  52.699  163.2  0.0072   77.4  0.9133  -16.4
 0.055  0.5039  -31.4  52.294  161.8  0.0080   77.1  0.9073  -18.0
 0.060  0.5042  -34.3  51.921  160.4  0.0088   76.8  0.9021  -19.7
 0.065  0.5033  -37.2  51.569  158.9  0.0094   75.7  0.8945  -21.3
 0.070  0.5038  -40.2  51.254  157.3  0.0100   74.7  0.8876  -22.9
 0.075  0.5033  -42.7  50.718  156.1  0.0107   73.9  0.8793  -24.4
 0.080  0.5038  -45.1  50.206  154.8  0.0114   73.2  0.8717  -26.0
 0.085  0.5012  -47.8  49.634  153.4  0.0120   72.4  0.8624  -27.5
 0.090  0.4998  -50.6  49.092  152.0  0.0126   71.7  0.8537  -29.0
 0.095  0.4976  -52.8  48.430  150.8  0.0131   70.7  0.8446  -30.4
 0.100  0.4961  -55.1  47.789  149.6  0.0136   69.8  0.8360  -31.8
 0.105  0.4970  -57.4  47.284  148.4  0.0141   69.2  0.8262  -33.2
 0.110  0.4988  -59.7  46.802  147.1  0.0147   68.6  0.8169  -34.6
 0.115  0.4957  -62.1  46.205  145.9  0.0151   67.9  0.8072  -35.9
 0.120  0.4934  -64.5  45.629  144.6  0.0156   67.3  0.7979  -37.2
 0.125  0.4901  -66.6  45.040  143.6  0.0161   66.6  0.7878  -38.4
 0.130  0.4874  -68.7  44.466  142.5  0.0167   66.0  0.7781  -39.7
 0.135  0.4857  -70.8  43.910  141.4  0.0171   65.4  0.7684  -40.9
 0.140  0.4847  -73.0  43.371  140.3  0.0175   64.9  0.7591  -42.1
 0.145  0.4832  -75.0  42.728  139.3  0.0179   64.4  0.7492  -43.2
 0.150  0.4822  -77.0  42.099  138.2  0.0184   63.9  0.7397  -44.4
 0.155  0.4793  -78.6  41.528  137.4  0.0187   63.4  0.7298  -45.3
 0.160  0.4767  -80.3  40.965  136.6  0.0191   63.0  0.7200  -46.2
 0.165  0.4746  -82.0  40.410  135.8  0.0194   62.5  0.7105  -47.1
 0.170  0.4728  -83.7  39.864  135.0  0.0198   62.1  0.7011  -48.1
 0.175  0.4715  -85.4  39.327  134.1  0.0201   61.7  0.6920  -49.1
 0.180  0.4706  -87.1  38.799  133.2  0.0205   61.3  0.6830  -50.1
 0.185  0.4701  -88.8  38.280  132.3  0.0208   61.0  0.6743  -51.1
 0.190  0.4701  -90.5  37.771  131.4  0.0212   60.6  0.6658  -52.2
 0.195  0.4704  -92.2  37.273  130.4  0.0215   60.2  0.6575  -53.3
 0.200  0.4712  -93.9  36.786  129.4  0.0219   59.9  0.6495  -54.4
 0.220  0.4646  -99.4  34.883  126.9  0.0231   58.9  0.6174  -57.3
 0.240  0.4623 -105.0  33.056  124.0  0.0242   57.9  0.5870  -60.6
 0.260  0.4605 -109.9  31.395  121.5  0.0253   57.2  0.5594  -63.5
 0.280  0.4579 -114.1  29.865  119.4  0.0262   56.7  0.5337  -66.0
 0.300  0.4578 -118.4  28.380  117.1  0.0272   56.2  0.5091  -68.8
 0.320  0.4549 -121.9  27.104  115.5  0.0281   56.0  0.4880  -70.9
 0.340  0.4537 -125.5  25.852  113.7  0.0290   55.8  0.4675  -73.1
 0.360  0.4524 -128.7  24.715  112.0  0.0298   55.7  0.4490  -75.2
 0.380  0.4503 -131.6  23.684  110.6  0.0306   55.6  0.4322  -77.0
 0.400  0.4494 -134.5  22.669  109.0  0.0314   55.5  0.4158  -79.0
 0.420  0.4482 -137.0  21.802  107.8  0.0322   55.6  0.4018  -80.6
 0.440  0.4479 -139.5  20.945  106.6  0.0331   55.7  0.3880  -82.2
 0.450  0.4480 -140.7  20.520  105.9  0.0335   55.7  0.3813  -83.1
 0.460  0.4474 -141.7  20.160  105.4  0.0339   55.8  0.3755  -83.8
 0.480  0.4468 -143.8  19.444  104.3  0.0347   55.9  0.3640  -85.2
 0.500  0.4467 -145.9  18.735  103.2  0.0355   56.1  0.3528  -86.7
 0.520  0.4458 -147.6  18.162  102.4  0.0363   56.3  0.3437  -87.8
 0.540  0.4452 -149.3  17.593  101.6  0.0371   56.4  0.3348  -89.0
 0.560  0.4451 -151.1  17.028  100.7  0.0379   56.6  0.3260  -90.3
 0.580  0.4453 -152.8  16.467   99.7  0.0387   56.8  0.3173  -91.6
 0.600  0.4460 -154.5  15.911   98.7  0.0395   56.9  0.3089  -93.0
 0.620  0.4455 -155.9  15.484   98.0  0.0403   57.1  0.3023  -94.0
 0.640  0.4452 -157.3  15.059   97.3  0.0411   57.2  0.2959  -95.1
 0.660  0.4452 -158.6  14.637   96.6  0.0419   57.3  0.2895  -96.2
 0.680  0.4455 -160.0  14.217   95.8  0.0427   57.5  0.2832  -97.3
 0.700  0.4460 -161.4  13.800   95.0  0.0435   57.6  0.2771  -98.5
 0.720  0.4458 -162.5  13.472   94.4  0.0443   57.8  0.2723  -99.4
 0.740  0.4459 -163.7  13.146   93.8  0.0451   57.9  0.2675 -100.2
 0.760  0.4461 -164.8  12.821   93.2  0.0460   58.0  0.2628 -101.2
 0.780  0.4464 -166.0  12.498   92.5  0.0468   58.2  0.2582 -102.1
 0.800  0.4470 -167.1  12.177   91.8  0.0476   58.3  0.2536 -103.1
 0.820  0.4472 -168.0  11.920   91.3  0.0485   58.4  0.2500 -103.9
 0.840  0.4475 -169.0  11.664   90.8  0.0493   58.5  0.2464 -104.7
 0.860  0.4480 -169.9  11.409   90.3  0.0502   58.6  0.2428 -105.6
 0.880  0.4485 -170.9  11.155   89.7  0.0510   58.7  0.2393 -106.5
 0.900  0.4492 -171.8  10.902   89.1  0.0519   58.8  0.2359 -107.4
 0.920  0.4491 -172.7  10.692   88.6  0.0527   58.9  0.2331 -108.1
 0.940  0.4491 -173.6  10.482   88.1  0.0536   59.0  0.2303 -108.9
 0.960  0.4492 -174.4  10.274   87.6  0.0544   59.0  0.2276 -109.6
 0.980  0.4495 -175.3  10.066   87.1  0.0553   59.1  0.2249 -110.4
 1.000  0.4498 -176.2   9.859   86.5  0.0561   59.2  0.2223 -111.2
 1.020  0.4500 -177.0   9.685   86.1  0.0570   59.2  0.2202 -111.9
 1.040  0.4502 -177.8   9.512   85.6  0.0578   59.3  0.2181 -112.6
 1.060  0.4505 -178.5   9.339   85.2  0.0587   59.3  0.2160 -113.3
 1.080  0.4509 -179.3   9.167   84.7  0.0595   59.4  0.2140 -114.0
 1.100  0.4514  179.9   8.996   84.2  0.0604   59.4  0.2120 -114.7
 1.120  0.4516  179.2   8.850   83.8  0.0613   59.4  0.2103 -115.3
 1.140  0.4520  178.5   8.705   83.4  0.0621   59.4  0.2086 -115.9
 1.160  0.4523  177.8   8.560   82.9  0.0630   59.4  0.2069 -116.6
 1.180  0.4528  177.1   8.416   82.5  0.0638   59.4  0.2052 -117.2
 1.200  0.4533  176.4   8.272   82.0  0.0647   59.4  0.2036 -117.9
 1.220  0.4535  175.8   8.148   81.6  0.0656   59.4  0.2023 -118.5
 1.240  0.4538  175.1   8.024   81.2  0.0665   59.4  0.2011 -119.0
 1.260  0.4542  174.5   7.900   80.8  0.0673   59.4  0.1998 -119.6
 1.280  0.4546  173.8   7.777   80.4  0.0682   59.4  0.1986 -120.2
 1.300  0.4551  173.2   7.654   80.0  0.0691   59.4  0.1974 -120.8
 1.320  0.4553  172.6   7.547   79.6  0.0700   59.4  0.1963 -121.3
 1.340  0.4556  172.0   7.441   79.2  0.0709   59.3  0.1952 -121.9
 1.360  0.4560  171.4   7.335   78.8  0.0717   59.3  0.1941 -122.5
 1.380  0.4564  170.8   7.229   78.4  0.0726   59.2  0.1930 -123.0
 1.400  0.4568  170.2   7.124   78.0  0.0735   59.2  0.1920 -123.6
 1.420  0.4573  169.6   7.031   77.6  0.0744   59.1  0.1912 -124.1
 1.440  0.4578  169.0   6.939   77.2  0.0753   59.1  0.1905 -124.6
 1.460  0.4584  168.3   6.846   76.8  0.0761   59.0  0.1897 -125.1
 1.480  0.4591  167.7   6.755   76.4  0.0770   59.0  0.1890 -125.7
 1.500  0.4598  167.1   6.663   76.0  0.0779   58.9  0.1883 -126.2
 1.520  0.4603  166.6   6.581   75.7  0.0788   58.8  0.1876 -126.7
 1.540  0.4608  166.0   6.499   75.3  0.0797   58.8  0.1869 -127.2
 1.560  0.4614  165.5   6.418   74.9  0.0805   58.7  0.1863 -127.7
 1.580  0.4620  164.9   6.337   74.6  0.0814   58.7  0.1856 -128.2
 1.600  0.4626  164.4   6.256   74.2  0.0823   58.6  0.1850 -128.7
 1.620  0.4630  163.9   6.185   73.9  0.0832   58.5  0.1845 -129.2
 1.640  0.4635  163.4   6.113   73.5  0.0840   58.4  0.1840 -129.7
 1.660  0.4639  162.9   6.042   73.1  0.0849   58.4  0.1836 -130.1
 1.680  0.4644  162.4   5.972   72.8  0.0857   58.3  0.1831 -130.6
 1.700  0.4650  161.9   5.901   72.4  0.0866   58.2  0.1827 -131.1
 1.720  0.4655  161.4   5.836   72.1  0.0875   58.1  0.1823 -131.6
 1.740  0.4661  160.9   5.771   71.7  0.0884   58.0  0.1820 -132.0
 1.760  0.4667  160.3   5.706   71.3  0.0893   57.9  0.1816 -132.5
 1.780  0.4673  159.8   5.641   71.0  0.0902   57.8  0.1813 -132.9
 1.800  0.4680  159.3   5.577   70.6  0.0911   57.7  0.1810 -133.4
 1.820  0.4687  158.8   5.520   70.3  0.0920   57.6  0.1807 -133.9
 1.840  0.4694  158.3   5.464   69.9  0.0928   57.5  0.1804 -134.3
 1.860  0.4701  157.9   5.408   69.6  0.0937   57.4  0.1801 -134.8
 1.880  0.4709  157.4   5.352   69.3  0.0945   57.3  0.1799 -135.2
 1.900  0.4717  156.9   5.296   68.9  0.0954   57.2  0.1796 -135.7
 1.920  0.4721  156.4   5.244   68.6  0.0963   57.1  0.1795 -136.2
 1.940  0.4725  155.9   5.192   68.2  0.0972   57.0  0.1793 -136.6
 1.960  0.4729  155.4   5.141   67.8  0.0980   56.8  0.1792 -137.1
 1.980  0.4734  154.9   5.089   67.5  0.0989   56.7  0.1791 -137.5
 2.000  0.4739  154.4   5.038   67.1  0.0998   56.6  0.1790 -138.0
 2.020  0.4747  154.0   4.992   66.8  0.1007   56.5  0.1789 -138.5
 2.040  0.4755  153.5   4.946   66.5  0.1015   56.3  0.1789 -139.0
 2.060  0.4763  153.1   4.900   66.2  0.1024   56.2  0.1789 -139.4
 2.080  0.4771  152.6   4.855   65.9  0.1032   56.1  0.1788 -139.9
 2.100  0.4780  152.2   4.809   65.5  0.1041   55.9  0.1788 -140.4
 2.120  0.4789  151.7   4.764   65.2  0.1050   55.8  0.1788 -140.9
 2.140  0.4798  151.3   4.718   64.9  0.1058   55.7  0.1789 -141.4
 2.160  0.4808  150.9   4.673   64.5  0.1067   55.5  0.1789 -141.8
 2.180  0.4818  150.4   4.629   64.2  0.1075   55.4  0.1789 -142.3
 2.200  0.4828  150.0   4.584   63.8  0.1084   55.3  0.1790 -142.8
 2.220  0.4836  149.6   4.546   63.5  0.1092   55.2  0.1791 -143.3
 2.240  0.4843  149.1   4.508   63.2  0.1101   55.0  0.1792 -143.8
 2.260  0.4852  148.7   4.470   62.9  0.1109   54.9  0.1794 -144.2
 2.280  0.4860  148.3   4.432   62.5  0.1118   54.8  0.1795 -144.7
 2.300  0.4869  147.9   4.394   62.2  0.1126   54.6  0.1797 -145.2
 2.320  0.4878  147.5   4.357   61.9  0.1135   54.5  0.1799 -145.7
 2.340  0.4887  147.0   4.319   61.6  0.1143   54.4  0.1801 -146.2
 2.360  0.4896  146.6   4.282   61.2  0.1152   54.2  0.1803 -146.6
 2.380  0.4906  146.2   4.245   60.9  0.1160   54.1  0.1805 -147.1
 2.400  0.4916  145.8   4.208   60.5  0.1169   54.0  0.1807 -147.6
 2.420  0.4925  145.4   4.175   60.2  0.1177   53.8  0.1810 -148.1
 2.440  0.4934  145.0   4.142   59.9  0.1186   53.7  0.1814 -148.6
 2.460  0.4943  144.6   4.109   59.6  0.1194   53.5  0.1817 -149.1
 2.480  0.4953  144.1   4.077   59.3  0.1202   53.3  0.1821 -149.5
 2.500  0.4962  143.7   4.044   59.0  0.1210   53.2  0.1825 -150.0
 2.520  0.4972  143.3   4.011   58.6  0.1219   53.0  0.1829 -150.5
 2.540  0.4983  142.9   3.979   58.3  0.1227   52.9  0.1833 -151.0
 2.560  0.4993  142.5   3.947   58.0  0.1235   52.7  0.1837 -151.5
 2.580  0.5004  142.1   3.915   57.6  0.1244   52.6  0.1842 -151.9
 2.600  0.5015  141.7   3.883   57.3  0.1252   52.4  0.1846 -152.4
 2.620  0.5023  141.3   3.855   57.0  0.1260   52.2  0.1851 -152.9
 2.640  0.5031  140.9   3.826   56.7  0.1268   52.1  0.1857 -153.3
 2.660  0.5039  140.5   3.798   56.4  0.1276   51.9  0.1862 -153.8
 2.680  0.5048  140.2   3.770   56.1  0.1284   51.7  0.1868 -154.3
 2.700  0.5056  139.8   3.743   55.8  0.1292   51.6  0.1874 -154.7
 2.720  0.5065  139.4   3.715   55.4  0.1300   51.4  0.1880 -155.2
 2.740  0.5074  139.0   3.687   55.1  0.1308   51.3  0.1886 -155.7
 2.760  0.5084  138.6   3.660   54.8  0.1316   51.1  0.1892 -156.1
 2.780  0.5093  138.3   3.632   54.4  0.1324   51.0  0.1899 -156.6
 2.800  0.5103  137.9   3.605   54.1  0.1332   50.8  0.1905 -157.0
 2.820  0.5112  137.5   3.580   53.8  0.1340   50.6  0.1911 -157.4
 2.840  0.5121  137.2   3.555   53.5  0.1348   50.5  0.1918 -157.9
 2.860  0.5131  136.8   3.531   53.2  0.1356   50.3  0.1924 -158.3
 2.880  0.5141  136.5   3.506   53.0  0.1363   50.1  0.1931 -158.7
 2.900  0.5151  136.1   3.481   52.7  0.1371   50.0  0.1937 -159.1
 2.920  0.5161  135.8   3.457   52.4  0.1379   49.8  0.1944 -159.6
 2.940  0.5171  135.4   3.432   52.0  0.1387   49.7  0.1951 -160.0
 2.960  0.5181  135.1   3.408   51.7  0.1395   49.5  0.1958 -160.4
 2.980  0.5192  134.7   3.384   51.4  0.1403   49.4  0.1965 -160.8
 3.000  0.5203  134.4   3.360   51.1  0.1411   49.2  0.1972 -161.2
 3.100  0.5246  132.7   3.257   49.8  0.1448   48.3  0.2007 -163.2
 3.200  0.5294  130.9   3.157   48.4  0.1485   47.4  0.2045 -165.2
 3.300  0.5347  129.3   3.058   46.9  0.1522   46.6  0.2085 -167.1
 3.400  0.5404  127.6   2.961   45.4  0.1560   45.8  0.2127 -168.9
 3.500  0.5466  126.0   2.867   43.7  0.1598   45.0  0.2171 -170.6
 3.600  0.5521  124.5   2.789   42.5  0.1631   44.1  0.2213 -172.7
 3.700  0.5580  123.0   2.713   41.2  0.1665   43.2  0.2259 -174.6
 3.800  0.5642  121.5   2.638   39.8  0.1699   42.4  0.2306 -176.5
 3.900  0.5708  120.1   2.565   38.3  0.1733   41.6  0.2357 -178.4
 4.000  0.5778  118.7   2.493   36.8  0.1768   40.8  0.2409  179.9
 4.100  0.5834  117.4   2.431   35.6  0.1798   40.0  0.2465  178.0
 4.200  0.5892  116.1   2.370   34.4  0.1828   39.2  0.2524  176.3
 4.300  0.5954  114.9   2.311   33.1  0.1858   38.4  0.2585  174.6
 4.400  0.6018  113.7   2.252   31.7  0.1889   37.7  0.2648  172.9
 4.500  0.6085  112.5   2.195   30.3  0.1920   37.0  0.2713  171.4
 4.600  0.6126  111.3   2.147   29.2  0.1949   36.3  0.2759  170.1
 4.700  0.6170  110.2   2.100   28.1  0.1979   35.6  0.2807  168.9
 4.800  0.6217  109.1   2.054   26.9  0.2009   34.9  0.2855  167.7
 4.900  0.6265  108.0   2.008   25.7  0.2039   34.2  0.2905  166.6
 5.000  0.6316  106.9   1.964   24.4  0.2069   33.6  0.2956  165.5
 5.100  0.6345  105.9   1.927   23.4  0.2101   32.8  0.2987  164.6
 5.200  0.6376  105.0   1.890   22.3  0.2133   32.1  0.3019  163.6
 5.300  0.6408  104.1   1.854   21.2  0.2165   31.4  0.3052  162.7
 5.400  0.6442  103.1   1.819   20.1  0.2198   30.7  0.3086  161.9
 5.500  0.6478  102.2   1.784   18.9  0.2231   30.0  0.3120  161.0
 5.600  0.6500  101.4   1.755   17.9  0.2260   29.2  0.3156  160.1
 5.700  0.6524  100.6   1.726   16.8  0.2290   28.4  0.3193  159.3
 5.800  0.6548   99.8   1.697   15.7  0.2320   27.6  0.3230  158.5
 5.900  0.6574   99.1   1.670   14.5  0.2350   26.8  0.3268  157.7
 6.000  0.6601   98.3   1.643   13.3  0.2381   26.1  0.3307  156.9
 6.100  0.6606   97.5   1.618   12.3  0.2407   25.3  0.3332  156.4
 6.200  0.6612   96.7   1.593   11.3  0.2433   24.6  0.3358  155.8
 6.300  0.6620   95.9   1.569   10.3  0.2459   23.8  0.3384  155.3
 6.400  0.6629   95.1   1.545    9.2  0.2486   23.1  0.3410  154.8
 6.500  0.6639   94.3   1.522    8.1  0.2513   22.4  0.3436  154.3
 6.600  0.6634   93.4   1.503    7.2  0.2542   21.7  0.3433  153.9
 6.800  0.6629   91.5   1.465    5.2  0.2603   20.3  0.3427  153.2
 7.000  0.6631   89.7   1.429    3.1  0.2664   19.0  0.3422  152.4
 7.200  0.6649   87.5   1.399    1.0  0.2728   17.3  0.3418  151.0
 7.400  0.6677   85.3   1.371   -1.2  0.2795   15.8  0.3416  149.5
 7.600  0.6717   83.0   1.343   -3.5  0.2858   14.0  0.3433  147.6
 7.800  0.6773   80.5   1.315   -5.9  0.2918   12.2  0.3470  145.3
 8.000  0.6841   78.1   1.289   -8.5  0.2981   10.4  0.3513  143.1
 8.200  0.6897   75.5   1.256  -10.8  0.3022    8.2  0.3557  140.2
 8.400  0.6967   72.9   1.225  -13.3  0.3068    6.1  0.3610  137.5
 8.600  0.7060   70.4   1.192  -15.7  0.3096    4.1  0.3678  134.0
 8.800  0.7176   68.1   1.159  -18.0  0.3108    2.0  0.3767  129.9
 9.000  0.7303   65.9   1.127  -20.4  0.3123   -0.1  0.3875  126.1
 9.200  0.7467   64.1   1.090  -22.3  0.3112   -1.7  0.4043  121.5
 9.400  0.7639   62.3   1.055  -24.3  0.3104   -3.2  0.4236  117.3
 9.600  0.7791   60.7   1.020  -26.0  0.3095   -4.5  0.4434  113.6
 9.800  0.7923   59.2   0.986  -27.6  0.3082   -5.5  0.4634  110.4
10.000  0.8061   57.8   0.952  -29.2  0.3071   -6.5  0.4847  107.4
!
!  f       NFmin   Gammaopt  rn/50
! GHz       dB    MAG  ANG    -
 0.450      1.47  0.19 -172   0.12
 0.900      1.49  0.17 -164   0.13
 1.900      1.61  0.28 -144   0.13
 3.500      1.51  0.49 -120   0.18
!
! (c) 2016  Infineon Technologies AG, Munich
