! Infineon Technologies  Discrete & RF Semiconductors
! BFP460
! VCE =  1.5 V,  IC =  4.0 mA
! Common Emitter S-Parameters:                            Jan 2016
# GHz  S  MA  R  50
!  f         S11            S21            S12            S22
! GHz     MAG   ANG      MAG   ANG      MAG   ANG      MAG   ANG
 0.030  0.8913   -5.3  13.430  176.8  0.0067   86.7  0.9870   -3.6
 0.035  0.8909   -6.1  13.422  176.0  0.0078   86.1  0.9863   -4.1
 0.040  0.8907   -7.0  13.416  175.2  0.0089   85.6  0.9857   -4.7
 0.045  0.8909   -7.8  13.381  174.3  0.0099   85.0  0.9851   -5.2
 0.050  0.8912   -8.6  13.349  173.4  0.0110   84.6  0.9845   -5.8
 0.055  0.8884   -9.6  13.343  173.0  0.0121   84.7  0.9836   -6.4
 0.060  0.8859  -10.7  13.338  172.5  0.0132   84.7  0.9828   -7.0
 0.065  0.8867  -11.6  13.378  171.8  0.0143   83.9  0.9818   -7.6
 0.070  0.8877  -12.5  13.420  171.1  0.0154   83.2  0.9809   -8.2
 0.075  0.8871  -13.2  13.388  170.7  0.0165   82.6  0.9797   -8.8
 0.080  0.8866  -14.0  13.356  170.3  0.0177   82.0  0.9787   -9.4
 0.085  0.8859  -14.9  13.346  169.7  0.0187   81.6  0.9772   -9.9
 0.090  0.8854  -15.8  13.337  169.1  0.0198   81.2  0.9757  -10.5
 0.095  0.8846  -16.6  13.279  168.5  0.0208   80.7  0.9743  -11.1
 0.100  0.8839  -17.4  13.222  167.9  0.0219   80.2  0.9730  -11.7
 0.105  0.8823  -18.3  13.216  167.4  0.0230   79.8  0.9713  -12.2
 0.110  0.8810  -19.2  13.211  166.9  0.0241   79.5  0.9696  -12.8
 0.115  0.8798  -20.2  13.201  166.3  0.0250   78.9  0.9679  -13.3
 0.120  0.8789  -21.2  13.192  165.6  0.0260   78.3  0.9663  -13.9
 0.125  0.8765  -21.9  13.161  165.1  0.0270   77.7  0.9643  -14.5
 0.130  0.8743  -22.7  13.131  164.5  0.0281   77.2  0.9624  -15.1
 0.135  0.8735  -23.5  13.116  163.9  0.0291   76.8  0.9604  -15.6
 0.140  0.8729  -24.4  13.102  163.2  0.0302   76.5  0.9585  -16.1
 0.145  0.8708  -25.2  13.052  162.6  0.0312   76.0  0.9563  -16.7
 0.150  0.8688  -26.1  13.004  162.0  0.0322   75.6  0.9543  -17.3
 0.155  0.8664  -26.9  12.968  161.5  0.0331   75.0  0.9515  -17.8
 0.160  0.8641  -27.7  12.932  160.9  0.0341   74.5  0.9487  -18.4
 0.165  0.8621  -28.6  12.898  160.4  0.0350   74.0  0.9461  -18.9
 0.170  0.8602  -29.4  12.865  159.8  0.0360   73.5  0.9435  -19.4
 0.175  0.8584  -30.2  12.833  159.3  0.0369   73.1  0.9410  -20.0
 0.180  0.8569  -31.0  12.803  158.7  0.0379   72.6  0.9386  -20.5
 0.185  0.8556  -31.9  12.773  158.2  0.0388   72.2  0.9363  -21.1
 0.190  0.8544  -32.7  12.745  157.6  0.0398   71.8  0.9340  -21.6
 0.195  0.8534  -33.6  12.718  157.1  0.0407   71.5  0.9319  -22.1
 0.200  0.8526  -34.4  12.692  156.5  0.0417   71.1  0.9298  -22.7
 0.220  0.8423  -37.6  12.519  154.4  0.0453   69.3  0.9178  -24.7
 0.240  0.8346  -40.8  12.363  152.3  0.0489   67.7  0.9069  -26.7
 0.260  0.8264  -43.9  12.196  150.2  0.0523   66.1  0.8949  -28.7
 0.280  0.8173  -46.9  12.015  148.3  0.0554   64.5  0.8818  -30.6
 0.300  0.8105  -49.9  11.849  146.3  0.0586   63.0  0.8697  -32.6
 0.320  0.8002  -52.8  11.649  144.5  0.0614   61.5  0.8560  -34.3
 0.340  0.7920  -55.7  11.462  142.6  0.0643   60.1  0.8431  -36.1
 0.360  0.7834  -58.5  11.273  140.8  0.0669   58.8  0.8298  -37.8
 0.380  0.7741  -61.2  11.079  139.0  0.0695   57.4  0.8160  -39.5
 0.400  0.7665  -64.0  10.897  137.2  0.0720   56.2  0.8030  -41.2
 0.420  0.7559  -66.6  10.700  135.6  0.0742   55.0  0.7896  -42.7
 0.440  0.7470  -69.2  10.511  133.9  0.0765   53.8  0.7768  -44.3
 0.450  0.7431  -70.6  10.420  133.1  0.0776   53.3  0.7706  -45.1
 0.460  0.7382  -71.8  10.324  132.4  0.0786   52.8  0.7639  -45.8
 0.480  0.7294  -74.2  10.138  130.9  0.0806   51.7  0.7508  -47.2
 0.500  0.7219  -76.7   9.958  129.4  0.0826   50.7  0.7381  -48.6
 0.520  0.7119  -78.9   9.773  128.1  0.0842   49.7  0.7255  -49.8
 0.540  0.7030  -81.1   9.594  126.8  0.0858   48.7  0.7133  -51.0
 0.560  0.6952  -83.4   9.419  125.4  0.0874   47.8  0.7014  -52.3
 0.580  0.6885  -85.7   9.251  123.9  0.0890   46.9  0.6898  -53.6
 0.600  0.6830  -88.1   9.089  122.4  0.0907   46.0  0.6786  -54.9
 0.620  0.6747  -90.1   8.924  121.3  0.0919   45.2  0.6673  -56.0
 0.640  0.6673  -92.1   8.763  120.1  0.0932   44.5  0.6562  -57.1
 0.660  0.6607  -94.2   8.606  118.9  0.0945   43.7  0.6454  -58.2
 0.680  0.6549  -96.3   8.452  117.7  0.0958   43.0  0.6349  -59.4
 0.700  0.6501  -98.4   8.303  116.4  0.0971   42.3  0.6246  -60.6
 0.720  0.6434 -100.2   8.158  115.4  0.0981   41.7  0.6149  -61.5
 0.740  0.6374 -101.9   8.016  114.4  0.0991   41.0  0.6054  -62.4
 0.760  0.6320 -103.8   7.876  113.4  0.1001   40.4  0.5960  -63.3
 0.780  0.6272 -105.6   7.739  112.3  0.1011   39.8  0.5868  -64.3
 0.800  0.6231 -107.5   7.605  111.2  0.1021   39.2  0.5778  -65.3
 0.820  0.6177 -109.1   7.482  110.3  0.1029   38.7  0.5694  -66.1
 0.840  0.6129 -110.8   7.361  109.4  0.1037   38.2  0.5611  -66.9
 0.860  0.6086 -112.5   7.242  108.5  0.1045   37.7  0.5530  -67.8
 0.880  0.6048 -114.2   7.125  107.6  0.1054   37.3  0.5450  -68.7
 0.900  0.6015 -115.9   7.010  106.6  0.1062   36.8  0.5371  -69.6
 0.920  0.5969 -117.4   6.902  105.8  0.1069   36.4  0.5299  -70.3
 0.940  0.5926 -118.9   6.795  105.0  0.1076   35.9  0.5228  -71.1
 0.960  0.5888 -120.4   6.689  104.1  0.1083   35.5  0.5158  -71.8
 0.980  0.5854 -121.9   6.585  103.2  0.1090   35.1  0.5089  -72.6
 1.000  0.5824 -123.5   6.483  102.3  0.1097   34.7  0.5021  -73.4
 1.020  0.5789 -124.9   6.388  101.6  0.1103   34.4  0.4959  -74.1
 1.040  0.5757 -126.2   6.293  100.8  0.1108   34.0  0.4898  -74.7
 1.060  0.5729 -127.6   6.200  100.1  0.1114   33.7  0.4838  -75.4
 1.080  0.5704 -129.0   6.108   99.3  0.1120   33.3  0.4779  -76.2
 1.100  0.5682 -130.4   6.017   98.5  0.1126   33.0  0.4720  -76.9
 1.120  0.5653 -131.7   5.934   97.8  0.1131   32.7  0.4666  -77.5
 1.140  0.5627 -132.9   5.852   97.2  0.1136   32.4  0.4612  -78.1
 1.160  0.5603 -134.2   5.770   96.5  0.1142   32.2  0.4559  -78.8
 1.180  0.5583 -135.5   5.690   95.7  0.1147   31.9  0.4507  -79.4
 1.200  0.5565 -136.8   5.610   95.0  0.1152   31.6  0.4455  -80.1
 1.220  0.5543 -138.0   5.537   94.4  0.1157   31.4  0.4409  -80.7
 1.240  0.5524 -139.2   5.464   93.7  0.1162   31.1  0.4364  -81.3
 1.260  0.5507 -140.4   5.392   93.1  0.1166   30.9  0.4319  -81.9
 1.280  0.5492 -141.6   5.321   92.4  0.1171   30.6  0.4275  -82.5
 1.300  0.5480 -142.8   5.251   91.7  0.1176   30.4  0.4231  -83.1
 1.320  0.5462 -143.9   5.186   91.1  0.1180   30.2  0.4189  -83.6
 1.340  0.5445 -144.9   5.122   90.5  0.1184   30.0  0.4148  -84.1
 1.360  0.5431 -146.0   5.058   89.9  0.1188   29.9  0.4106  -84.7
 1.380  0.5419 -147.1   4.995   89.3  0.1192   29.7  0.4065  -85.2
 1.400  0.5408 -148.2   4.933   88.6  0.1196   29.5  0.4025  -85.8
 1.420  0.5393 -149.3   4.875   88.0  0.1200   29.3  0.3990  -86.3
 1.440  0.5380 -150.3   4.818   87.5  0.1204   29.1  0.3955  -86.8
 1.460  0.5369 -151.4   4.762   86.9  0.1208   29.0  0.3920  -87.3
 1.480  0.5360 -152.5   4.706   86.3  0.1212   28.8  0.3886  -87.9
 1.500  0.5353 -153.6   4.650   85.7  0.1216   28.6  0.3852  -88.4
 1.520  0.5342 -154.6   4.598   85.2  0.1220   28.5  0.3820  -88.9
 1.540  0.5332 -155.6   4.546   84.7  0.1223   28.4  0.3788  -89.4
 1.560  0.5324 -156.5   4.495   84.1  0.1227   28.2  0.3756  -89.9
 1.580  0.5317 -157.5   4.444   83.6  0.1230   28.1  0.3724  -90.4
 1.600  0.5312 -158.5   4.394   83.0  0.1234   28.0  0.3693  -90.9
 1.620  0.5304 -159.4   4.348   82.5  0.1238   27.9  0.3666  -91.3
 1.640  0.5298 -160.3   4.303   82.0  0.1242   27.7  0.3638  -91.8
 1.660  0.5293 -161.2   4.258   81.4  0.1245   27.6  0.3611  -92.3
 1.680  0.5289 -162.1   4.213   80.9  0.1249   27.4  0.3585  -92.7
 1.700  0.5287 -163.0   4.169   80.3  0.1253   27.3  0.3558  -93.2
 1.720  0.5281 -163.9   4.127   79.8  0.1256   27.2  0.3533  -93.7
 1.740  0.5277 -164.7   4.086   79.3  0.1260   27.1  0.3508  -94.1
 1.760  0.5274 -165.6   4.044   78.8  0.1263   27.0  0.3484  -94.6
 1.780  0.5272 -166.4   4.004   78.2  0.1267   26.9  0.3460  -95.1
 1.800  0.5271 -167.3   3.963   77.7  0.1270   26.8  0.3436  -95.6
 1.820  0.5268 -168.1   3.926   77.2  0.1273   26.7  0.3413  -96.0
 1.840  0.5266 -168.9   3.889   76.8  0.1277   26.6  0.3391  -96.5
 1.860  0.5265 -169.8   3.852   76.3  0.1280   26.5  0.3369  -97.0
 1.880  0.5266 -170.6   3.815   75.8  0.1284   26.4  0.3347  -97.4
 1.900  0.5267 -171.4   3.779   75.3  0.1287   26.3  0.3325  -97.9
 1.920  0.5265 -172.2   3.744   74.8  0.1290   26.2  0.3305  -98.3
 1.940  0.5265 -173.0   3.710   74.3  0.1294   26.1  0.3286  -98.8
 1.960  0.5265 -173.8   3.676   73.8  0.1297   26.1  0.3266  -99.2
 1.980  0.5267 -174.6   3.642   73.3  0.1301   26.0  0.3247  -99.6
 2.000  0.5269 -175.4   3.609   72.8  0.1304   25.9  0.3228 -100.1
 2.020  0.5268 -176.2   3.578   72.4  0.1307   25.8  0.3210 -100.5
 2.040  0.5268 -176.9   3.547   71.9  0.1311   25.7  0.3192 -101.0
 2.060  0.5268 -177.7   3.516   71.5  0.1314   25.7  0.3175 -101.4
 2.080  0.5270 -178.4   3.486   71.1  0.1318   25.6  0.3158 -101.9
 2.100  0.5272 -179.2   3.455   70.6  0.1321   25.5  0.3140 -102.3
 2.120  0.5276 -179.9   3.425   70.1  0.1325   25.4  0.3124 -102.8
 2.140  0.5280  179.3   3.395   69.7  0.1328   25.3  0.3107 -103.3
 2.160  0.5285  178.6   3.366   69.2  0.1332   25.3  0.3090 -103.7
 2.180  0.5291  177.8   3.336   68.7  0.1335   25.2  0.3074 -104.2
 2.200  0.5298  177.1   3.307   68.2  0.1339   25.1  0.3058 -104.7
 2.220  0.5299  176.4   3.281   67.8  0.1342   25.0  0.3043 -105.1
 2.240  0.5300  175.7   3.255   67.4  0.1345   25.0  0.3028 -105.6
 2.260  0.5302  175.0   3.229   67.0  0.1349   24.9  0.3013 -106.0
 2.280  0.5306  174.3   3.203   66.5  0.1352   24.9  0.2999 -106.5
 2.300  0.5309  173.6   3.177   66.1  0.1355   24.8  0.2985 -106.9
 2.320  0.5314  172.9   3.152   65.6  0.1358   24.7  0.2970 -107.4
 2.340  0.5319  172.3   3.127   65.2  0.1361   24.7  0.2957 -107.9
 2.360  0.5325  171.6   3.101   64.7  0.1365   24.6  0.2943 -108.3
 2.380  0.5332  170.9   3.077   64.3  0.1368   24.6  0.2929 -108.8
 2.400  0.5340  170.2   3.052   63.8  0.1371   24.5  0.2916 -109.3
 2.420  0.5345  169.6   3.029   63.4  0.1374   24.4  0.2904 -109.8
 2.440  0.5351  168.9   3.006   63.0  0.1377   24.4  0.2893 -110.3
 2.460  0.5357  168.3   2.983   62.6  0.1381   24.3  0.2882 -110.7
 2.480  0.5364  167.6   2.961   62.2  0.1384   24.3  0.2871 -111.2
 2.500  0.5372  167.0   2.939   61.8  0.1387   24.2  0.2860 -111.7
 2.520  0.5380  166.3   2.916   61.4  0.1390   24.1  0.2849 -112.2
 2.540  0.5389  165.7   2.894   60.9  0.1393   24.1  0.2839 -112.7
 2.560  0.5399  165.1   2.872   60.5  0.1397   24.0  0.2829 -113.2
 2.580  0.5409  164.4   2.851   60.0  0.1400   24.0  0.2819 -113.7
 2.600  0.5420  163.8   2.829   59.6  0.1403   23.9  0.2809 -114.2
 2.620  0.5424  163.2   2.809   59.2  0.1406   23.8  0.2800 -114.7
 2.640  0.5430  162.6   2.789   58.8  0.1409   23.8  0.2792 -115.2
 2.660  0.5435  162.0   2.769   58.4  0.1413   23.7  0.2784 -115.6
 2.680  0.5441  161.4   2.750   58.0  0.1416   23.7  0.2776 -116.1
 2.700  0.5448  160.8   2.730   57.6  0.1419   23.6  0.2768 -116.6
 2.720  0.5456  160.2   2.711   57.2  0.1422   23.6  0.2760 -117.1
 2.740  0.5464  159.7   2.692   56.8  0.1425   23.5  0.2753 -117.6
 2.760  0.5472  159.1   2.673   56.4  0.1429   23.5  0.2746 -118.1
 2.780  0.5481  158.5   2.654   55.9  0.1432   23.4  0.2739 -118.6
 2.800  0.5491  157.9   2.635   55.5  0.1435   23.4  0.2732 -119.1
 2.820  0.5497  157.4   2.617   55.1  0.1438   23.4  0.2726 -119.6
 2.840  0.5504  156.8   2.600   54.8  0.1441   23.3  0.2720 -120.1
 2.860  0.5511  156.3   2.583   54.4  0.1445   23.3  0.2714 -120.5
 2.880  0.5518  155.7   2.566   54.0  0.1448   23.2  0.2709 -121.0
 2.900  0.5526  155.2   2.549   53.6  0.1451   23.2  0.2704 -121.5
 2.920  0.5535  154.6   2.532   53.2  0.1454   23.2  0.2698 -122.0
 2.940  0.5544  154.1   2.515   52.8  0.1457   23.1  0.2694 -122.5
 2.960  0.5553  153.6   2.498   52.4  0.1461   23.1  0.2689 -123.0
 2.980  0.5564  153.0   2.481   52.0  0.1464   23.0  0.2684 -123.5
 3.000  0.5574  152.5   2.465   51.6  0.1467   23.0  0.2680 -124.0
 3.100  0.5602  150.0   2.391   50.0  0.1483   22.8  0.2662 -126.2
 3.200  0.5641  147.5   2.319   48.3  0.1499   22.5  0.2649 -128.5
 3.300  0.5691  145.0   2.249   46.5  0.1516   22.3  0.2640 -130.8
 3.400  0.5750  142.6   2.181   44.5  0.1532   22.1  0.2635 -133.1
 3.500  0.5820  140.3   2.116   42.5  0.1548   21.9  0.2634 -135.4
 3.600  0.5864  138.1   2.058   41.0  0.1564   21.7  0.2630 -137.8
 3.700  0.5916  136.0   2.002   39.4  0.1581   21.5  0.2631 -140.1
 3.800  0.5977  133.9   1.948   37.7  0.1597   21.3  0.2636 -142.5
 3.900  0.6045  131.9   1.896   35.9  0.1614   21.1  0.2646 -144.8
 4.000  0.6120  129.9   1.845   34.0  0.1630   20.9  0.2660 -147.1
 4.100  0.6165  128.2   1.799   32.6  0.1646   20.7  0.2682 -149.4
 4.200  0.6216  126.5   1.754   31.1  0.1662   20.5  0.2708 -151.6
 4.300  0.6272  124.8   1.710   29.6  0.1679   20.3  0.2739 -153.8
 4.400  0.6334  123.2   1.668   27.9  0.1695   20.2  0.2773 -155.9
 4.500  0.6400  121.6   1.627   26.2  0.1711   20.0  0.2811 -158.0
 4.600  0.6437  120.2   1.591   24.9  0.1729   19.9  0.2847 -159.7
 4.700  0.6478  118.7   1.555   23.6  0.1748   19.8  0.2885 -161.3
 4.800  0.6522  117.3   1.520   22.2  0.1766   19.7  0.2925 -162.9
 4.900  0.6571  116.0   1.487   20.7  0.1785   19.6  0.2968 -164.5
 5.000  0.6623  114.6   1.454   19.2  0.1803   19.5  0.3013 -166.0
 5.100  0.6651  113.4   1.425   18.0  0.1827   19.3  0.3048 -167.3
 5.200  0.6682  112.2   1.397   16.8  0.1851   19.1  0.3085 -168.5
 5.300  0.6715  111.1   1.370   15.6  0.1875   18.9  0.3123 -169.7
 5.400  0.6751  109.9   1.343   14.3  0.1899   18.8  0.3162 -170.9
 5.500  0.6790  108.8   1.317   12.9  0.1923   18.6  0.3203 -172.0
 5.600  0.6815  107.8   1.294   11.8  0.1948   18.3  0.3247 -173.2
 5.700  0.6841  106.9   1.272   10.6  0.1973   17.9  0.3293 -174.5
 5.800  0.6870  106.0   1.250    9.4  0.1998   17.6  0.3340 -175.6
 5.900  0.6900  105.0   1.229    8.1  0.2023   17.3  0.3388 -176.8
 6.000  0.6932  104.1   1.209    6.8  0.2048   17.0  0.3438 -177.9
 6.100  0.6939  103.2   1.190    5.7  0.2071   16.6  0.3480 -178.8
 6.200  0.6947  102.2   1.171    4.6  0.2095   16.3  0.3523 -179.8
 6.300  0.6958  101.3   1.152    3.5  0.2119   16.0  0.3567  179.3
 6.400  0.6970  100.3   1.134    2.3  0.2142   15.6  0.3612  178.5
 6.500  0.6984   99.4   1.117    1.1  0.2166   15.3  0.3658  177.6
 6.600  0.6982   98.4   1.102    0.1  0.2194   15.0  0.3678  177.0
 6.800  0.6985   96.3   1.073   -2.0  0.2250   14.3  0.3718  175.8
 7.000  0.6997   94.3   1.045   -4.2  0.2307   13.7  0.3760  174.7
 7.200  0.7022   91.9   1.021   -6.3  0.2373   12.7  0.3784  172.9
 7.400  0.7060   89.6   0.999   -8.6  0.2439   11.8  0.3811  171.2
 7.600  0.7108   87.0   0.978  -10.9  0.2506   10.6  0.3846  169.0
 7.800  0.7172   84.2   0.956  -13.3  0.2573    9.2  0.3891  166.4
 8.000  0.7252   81.5   0.937  -15.8  0.2641    7.9  0.3945  163.8
 8.200  0.7306   78.6   0.912  -18.1  0.2695    6.1  0.3986  160.6
 8.400  0.7380   75.7   0.889  -20.6  0.2752    4.3  0.4039  157.4
 8.600  0.7469   73.0   0.865  -23.0  0.2794    2.6  0.4090  153.7
 8.800  0.7573   70.3   0.840  -25.2  0.2821    0.7  0.4149  149.4
 9.000  0.7693   67.8   0.816  -27.5  0.2852   -1.1  0.4230  145.2
 9.200  0.7835   65.7   0.789  -29.3  0.2857   -2.5  0.4357  140.0
 9.400  0.7988   63.6   0.763  -31.3  0.2864   -4.0  0.4518  135.2
 9.600  0.8120   61.8   0.737  -33.0  0.2868   -5.2  0.4699  130.8
 9.800  0.8228   60.1   0.711  -34.4  0.2867   -6.1  0.4894  126.8
10.000  0.8343   58.5   0.685  -35.9  0.2868   -7.0  0.5111  123.2
!
!  f       NFmin   Gammaopt  rn/50
! GHz       dB    MAG  ANG    -
 0.450      0.75  0.40   17   0.18
 0.900      0.77  0.41   35   0.18
 1.900      1.06  0.21   94   0.13
 3.500      1.30  0.35 -157   0.09
!
! (c) 2016  Infineon Technologies AG, Munich
