! Infineon Technologies  Discrete & RF Semiconductors
! BFP460
! VCE =  2.0 V,  IC =  12 mA
! Common Emitter S-Parameters:                            Jan 2016
# GHz  S  MA  R  50
!  f         S11            S21            S12            S22
! GHz     MAG   ANG      MAG   ANG      MAG   ANG      MAG   ANG
 0.030  0.7268  -10.7  32.728  173.7  0.0057   86.1  0.9656   -7.0
 0.035  0.7253  -12.4  32.635  172.5  0.0067   84.6  0.9637   -8.1
 0.040  0.7244  -14.1  32.558  171.2  0.0077   83.5  0.9621   -9.3
 0.045  0.7222  -15.6  32.395  169.8  0.0085   82.0  0.9595  -10.5
 0.050  0.7204  -17.1  32.251  168.4  0.0093   80.8  0.9573  -11.7
 0.055  0.7168  -19.1  32.147  167.5  0.0102   80.8  0.9540  -12.8
 0.060  0.7141  -21.2  32.051  166.5  0.0112   80.8  0.9511  -14.0
 0.065  0.7132  -22.8  32.014  165.4  0.0121   79.7  0.9475  -15.1
 0.070  0.7128  -24.5  31.989  164.2  0.0131   78.8  0.9442  -16.3
 0.075  0.7123  -26.1  31.815  163.4  0.0139   78.1  0.9400  -17.4
 0.080  0.7123  -27.8  31.648  162.5  0.0148   77.5  0.9361  -18.6
 0.085  0.7094  -29.5  31.485  161.5  0.0156   76.5  0.9310  -19.7
 0.090  0.7072  -31.3  31.332  160.4  0.0164   75.6  0.9262  -20.8
 0.095  0.7040  -32.8  31.073  159.5  0.0172   74.9  0.9213  -21.9
 0.100  0.7012  -34.3  30.822  158.5  0.0181   74.2  0.9168  -23.0
 0.105  0.7005  -35.9  30.676  157.6  0.0189   73.4  0.9112  -24.0
 0.110  0.7003  -37.5  30.539  156.6  0.0197   72.7  0.9060  -25.1
 0.115  0.6959  -39.2  30.346  155.6  0.0204   72.1  0.9002  -26.1
 0.120  0.6921  -40.9  30.163  154.6  0.0212   71.5  0.8948  -27.2
 0.125  0.6887  -42.3  29.946  153.7  0.0219   70.8  0.8887  -28.2
 0.130  0.6858  -43.7  29.737  152.8  0.0226   70.1  0.8828  -29.2
 0.135  0.6819  -45.3  29.542  151.9  0.0233   69.4  0.8767  -30.2
 0.140  0.6785  -46.9  29.356  150.9  0.0241   68.8  0.8709  -31.2
 0.145  0.6752  -48.4  29.095  150.0  0.0247   68.2  0.8645  -32.2
 0.150  0.6723  -49.9  28.841  149.0  0.0254   67.7  0.8584  -33.2
 0.155  0.6678  -51.2  28.596  148.3  0.0260   67.0  0.8510  -34.0
 0.160  0.6636  -52.6  28.355  147.5  0.0266   66.4  0.8438  -34.9
 0.165  0.6598  -53.9  28.120  146.7  0.0272   65.8  0.8368  -35.7
 0.170  0.6563  -55.3  27.889  146.0  0.0278   65.3  0.8300  -36.6
 0.175  0.6532  -56.6  27.664  145.2  0.0284   64.7  0.8234  -37.5
 0.180  0.6505  -58.0  27.444  144.4  0.0290   64.2  0.8169  -38.4
 0.185  0.6482  -59.4  27.230  143.5  0.0296   63.7  0.8107  -39.3
 0.190  0.6463  -60.9  27.022  142.7  0.0302   63.2  0.8047  -40.2
 0.195  0.6448  -62.3  26.819  141.9  0.0308   62.7  0.7989  -41.1
 0.200  0.6437  -63.7  26.622  141.0  0.0314   62.3  0.7933  -42.1
 0.220  0.6288  -68.5  25.671  138.4  0.0334   60.5  0.7661  -45.0
 0.240  0.6186  -73.5  24.778  135.6  0.0354   58.8  0.7411  -48.1
 0.260  0.6088  -78.2  23.917  133.0  0.0372   57.4  0.7167  -51.0
 0.280  0.5983  -82.4  23.069  130.7  0.0387   56.0  0.6923  -53.6
 0.300  0.5912  -86.8  22.261  128.2  0.0403   54.7  0.6695  -56.5
 0.320  0.5808  -90.6  21.474  126.3  0.0416   53.7  0.6473  -58.7
 0.340  0.5729  -94.4  20.714  124.2  0.0429   52.7  0.6261  -61.1
 0.360  0.5653  -98.0  19.998  122.3  0.0441   51.8  0.6062  -63.3
 0.380  0.5572 -101.3  19.319  120.6  0.0452   51.0  0.5873  -65.3
 0.400  0.5511 -104.7  18.659  118.7  0.0463   50.3  0.5691  -67.4
 0.420  0.5445 -107.6  18.053  117.3  0.0473   49.8  0.5523  -69.1
 0.440  0.5392 -110.6  17.459  115.7  0.0483   49.2  0.5360  -70.9
 0.450  0.5372 -112.1  17.167  114.9  0.0488   49.0  0.5281  -71.9
 0.460  0.5341 -113.4  16.904  114.3  0.0492   48.8  0.5208  -72.7
 0.480  0.5289 -116.0  16.384  113.0  0.0501   48.4  0.5064  -74.3
 0.500  0.5247 -118.7  15.872  111.7  0.0509   48.0  0.4925  -76.0
 0.520  0.5198 -120.9  15.432  110.7  0.0517   47.7  0.4804  -77.3
 0.540  0.5156 -123.1  14.998  109.6  0.0525   47.5  0.4685  -78.6
 0.560  0.5123 -125.4  14.568  108.5  0.0532   47.3  0.4569  -80.0
 0.580  0.5097 -127.7  14.145  107.3  0.0540   47.0  0.4456  -81.5
 0.600  0.5080 -130.0  13.729  106.0  0.0548   46.8  0.4346  -83.0
 0.620  0.5045 -131.8  13.387  105.2  0.0555   46.7  0.4254  -84.1
 0.640  0.5015 -133.7  13.048  104.3  0.0562   46.6  0.4163  -85.2
 0.660  0.4991 -135.5  12.712  103.4  0.0570   46.5  0.4074  -86.4
 0.680  0.4972 -137.4  12.379  102.4  0.0577   46.4  0.3986  -87.7
 0.700  0.4958 -139.3  12.050  101.4  0.0584   46.3  0.3901  -89.0
 0.720  0.4936 -140.8  11.780  100.7  0.0591   46.3  0.3830  -90.0
 0.740  0.4918 -142.3  11.511   99.9  0.0598   46.2  0.3761  -91.0
 0.760  0.4903 -143.8  11.245   99.1  0.0605   46.2  0.3692  -92.0
 0.780  0.4892 -145.4  10.981   98.3  0.0612   46.1  0.3625  -93.1
 0.800  0.4884 -146.9  10.720   97.4  0.0619   46.1  0.3559  -94.2
 0.820  0.4870 -148.2  10.504   96.8  0.0626   46.1  0.3503  -95.1
 0.840  0.4859 -149.6  10.290   96.1  0.0633   46.2  0.3448  -96.0
 0.860  0.4851 -151.0  10.077   95.4  0.0640   46.2  0.3394  -96.9
 0.880  0.4845 -152.3   9.866   94.7  0.0647   46.3  0.3340  -97.9
 0.900  0.4842 -153.7   9.656   94.0  0.0654   46.3  0.3288  -98.9
 0.920  0.4830 -154.9   9.477   93.4  0.0661   46.3  0.3243  -99.7
 0.940  0.4820 -156.0   9.299   92.9  0.0668   46.4  0.3200 -100.5
 0.960  0.4813 -157.2   9.122   92.3  0.0674   46.4  0.3156 -101.4
 0.980  0.4807 -158.3   8.946   91.6  0.0681   46.5  0.3114 -102.2
 1.000  0.4803 -159.5   8.771   91.0  0.0688   46.5  0.3072 -103.1
 1.020  0.4796 -160.5   8.621   90.5  0.0695   46.5  0.3037 -103.8
 1.040  0.4791 -161.6   8.472   89.9  0.0702   46.6  0.3002 -104.6
 1.060  0.4787 -162.6   8.324   89.4  0.0710   46.6  0.2968 -105.3
 1.080  0.4785 -163.7   8.177   88.8  0.0717   46.7  0.2935 -106.1
 1.100  0.4784 -164.7   8.030   88.2  0.0724   46.7  0.2902 -106.9
 1.120  0.4780 -165.7   7.903   87.7  0.0731   46.7  0.2873 -107.6
 1.140  0.4777 -166.6   7.777   87.2  0.0738   46.8  0.2844 -108.3
 1.160  0.4776 -167.6   7.652   86.7  0.0745   46.8  0.2815 -109.0
 1.180  0.4776 -168.5   7.527   86.2  0.0752   46.9  0.2787 -109.8
 1.200  0.4777 -169.5   7.403   85.6  0.0759   46.9  0.2760 -110.5
 1.220  0.4776 -170.4   7.295   85.1  0.0766   46.9  0.2737 -111.1
 1.240  0.4777 -171.2   7.187   84.7  0.0774   46.9  0.2715 -111.8
 1.260  0.4778 -172.1   7.079   84.2  0.0781   47.0  0.2693 -112.4
 1.280  0.4780 -172.9   6.972   83.7  0.0789   47.0  0.2671 -113.1
 1.300  0.4784 -173.8   6.866   83.2  0.0796   47.0  0.2650 -113.8
 1.320  0.4782 -174.6   6.772   82.8  0.0803   47.0  0.2630 -114.4
 1.340  0.4781 -175.3   6.678   82.3  0.0810   47.1  0.2609 -115.0
 1.360  0.4781 -176.1   6.585   81.9  0.0818   47.1  0.2590 -115.6
 1.380  0.4782 -176.8   6.492   81.4  0.0825   47.2  0.2570 -116.3
 1.400  0.4783 -177.6   6.399   80.9  0.0832   47.2  0.2551 -116.9
 1.420  0.4785 -178.4   6.317   80.5  0.0840   47.2  0.2535 -117.5
 1.440  0.4787 -179.1   6.236   80.0  0.0847   47.2  0.2520 -118.0
 1.460  0.4791 -179.9   6.155   79.6  0.0855   47.2  0.2505 -118.6
 1.480  0.4795  179.4   6.074   79.1  0.0862   47.2  0.2490 -119.2
 1.500  0.4800  178.6   5.994   78.6  0.0870   47.2  0.2476 -119.8
 1.520  0.4802  177.9   5.921   78.2  0.0877   47.2  0.2462 -120.4
 1.540  0.4804  177.2   5.849   77.8  0.0885   47.2  0.2448 -120.9
 1.560  0.4807  176.4   5.777   77.4  0.0892   47.2  0.2435 -121.5
 1.580  0.4811  175.7   5.705   77.0  0.0900   47.2  0.2422 -122.1
 1.600  0.4816  175.0   5.633   76.6  0.0907   47.2  0.2409 -122.7
 1.620  0.4819  174.4   5.570   76.2  0.0915   47.2  0.2398 -123.2
 1.640  0.4823  173.7   5.507   75.8  0.0922   47.2  0.2387 -123.7
 1.660  0.4827  173.1   5.444   75.4  0.0930   47.1  0.2377 -124.2
 1.680  0.4832  172.4   5.382   74.9  0.0937   47.1  0.2366 -124.8
 1.700  0.4837  171.8   5.320   74.5  0.0945   47.1  0.2356 -125.3
 1.720  0.4839  171.2   5.263   74.1  0.0953   47.1  0.2347 -125.8
 1.740  0.4841  170.6   5.205   73.8  0.0961   47.1  0.2338 -126.4
 1.760  0.4844  170.0   5.148   73.4  0.0968   47.0  0.2330 -126.9
 1.780  0.4848  169.4   5.092   73.0  0.0976   47.0  0.2321 -127.5
 1.800  0.4852  168.8   5.035   72.6  0.0984   47.0  0.2313 -128.0
 1.820  0.4856  168.2   4.984   72.2  0.0991   47.0  0.2305 -128.5
 1.840  0.4860  167.6   4.933   71.8  0.0999   46.9  0.2297 -129.0
 1.860  0.4865  166.9   4.883   71.4  0.1006   46.9  0.2289 -129.5
 1.880  0.4871  166.3   4.833   71.0  0.1014   46.8  0.2281 -130.0
 1.900  0.4877  165.7   4.783   70.6  0.1021   46.8  0.2274 -130.5
 1.920  0.4883  165.1   4.737   70.2  0.1029   46.8  0.2268 -131.0
 1.940  0.4889  164.5   4.691   69.8  0.1037   46.7  0.2261 -131.5
 1.960  0.4896  164.0   4.645   69.4  0.1044   46.7  0.2255 -132.1
 1.980  0.4904  163.4   4.599   69.0  0.1052   46.6  0.2250 -132.6
 2.000  0.4912  162.8   4.554   68.6  0.1060   46.6  0.2244 -133.1
 2.020  0.4918  162.3   4.513   68.3  0.1068   46.5  0.2239 -133.6
 2.040  0.4924  161.7   4.472   67.9  0.1075   46.5  0.2234 -134.1
 2.060  0.4930  161.2   4.431   67.6  0.1083   46.4  0.2230 -134.6
 2.080  0.4938  160.6   4.390   67.2  0.1091   46.3  0.2225 -135.1
 2.100  0.4945  160.1   4.349   66.8  0.1098   46.2  0.2221 -135.6
 2.120  0.4953  159.5   4.309   66.5  0.1106   46.2  0.2217 -136.1
 2.140  0.4961  159.0   4.269   66.1  0.1114   46.1  0.2213 -136.7
 2.160  0.4970  158.5   4.229   65.7  0.1122   46.0  0.2210 -137.2
 2.180  0.4979  157.9   4.189   65.3  0.1129   46.0  0.2206 -137.7
 2.200  0.4989  157.4   4.149   64.9  0.1137   45.9  0.2203 -138.2
 2.220  0.4995  156.9   4.115   64.6  0.1145   45.8  0.2200 -138.7
 2.240  0.5002  156.4   4.081   64.2  0.1152   45.7  0.2198 -139.2
 2.260  0.5009  155.9   4.047   63.9  0.1160   45.6  0.2196 -139.7
 2.280  0.5017  155.4   4.013   63.5  0.1167   45.6  0.2194 -140.2
 2.300  0.5025  154.9   3.979   63.2  0.1175   45.5  0.2192 -140.7
 2.320  0.5033  154.4   3.946   62.8  0.1183   45.4  0.2190 -141.3
 2.340  0.5042  153.9   3.912   62.4  0.1190   45.3  0.2189 -141.8
 2.360  0.5051  153.4   3.879   62.1  0.1198   45.3  0.2187 -142.3
 2.380  0.5060  152.9   3.846   61.7  0.1205   45.2  0.2186 -142.8
 2.400  0.5070  152.4   3.813   61.3  0.1213   45.1  0.2185 -143.3
 2.420  0.5077  151.9   3.783   61.0  0.1220   45.0  0.2185 -143.8
 2.440  0.5085  151.4   3.753   60.6  0.1228   44.9  0.2185 -144.3
 2.460  0.5094  150.9   3.724   60.3  0.1235   44.8  0.2186 -144.8
 2.480  0.5102  150.5   3.694   60.0  0.1243   44.7  0.2187 -145.3
 2.500  0.5111  150.0   3.665   59.6  0.1250   44.6  0.2187 -145.9
 2.520  0.5120  149.5   3.636   59.3  0.1258   44.5  0.2188 -146.4
 2.540  0.5130  149.0   3.606   58.9  0.1265   44.4  0.2189 -146.9
 2.560  0.5140  148.5   3.577   58.5  0.1273   44.3  0.2191 -147.4
 2.580  0.5150  148.1   3.549   58.2  0.1280   44.2  0.2192 -147.9
 2.600  0.5161  147.6   3.520   57.8  0.1288   44.1  0.2194 -148.4
 2.620  0.5169  147.2   3.495   57.5  0.1295   44.0  0.2196 -148.9
 2.640  0.5178  146.7   3.469   57.2  0.1302   43.9  0.2199 -149.4
 2.660  0.5186  146.3   3.444   56.9  0.1310   43.8  0.2201 -149.9
 2.680  0.5195  145.8   3.419   56.5  0.1317   43.6  0.2204 -150.3
 2.700  0.5205  145.4   3.394   56.2  0.1324   43.5  0.2207 -150.8
 2.720  0.5214  144.9   3.369   55.9  0.1331   43.4  0.2210 -151.3
 2.740  0.5224  144.5   3.344   55.5  0.1338   43.3  0.2213 -151.8
 2.760  0.5235  144.1   3.319   55.2  0.1346   43.2  0.2217 -152.3
 2.780  0.5245  143.6   3.294   54.9  0.1353   43.1  0.2220 -152.7
 2.800  0.5256  143.2   3.270   54.5  0.1360   43.0  0.2224 -153.2
 2.820  0.5265  142.8   3.247   54.2  0.1367   42.9  0.2228 -153.7
 2.840  0.5273  142.4   3.225   53.9  0.1375   42.7  0.2232 -154.1
 2.860  0.5283  142.0   3.202   53.6  0.1382   42.6  0.2236 -154.6
 2.880  0.5292  141.5   3.180   53.2  0.1389   42.5  0.2240 -155.1
 2.900  0.5302  141.1   3.158   52.9  0.1396   42.4  0.2244 -155.5
 2.920  0.5312  140.7   3.136   52.6  0.1404   42.3  0.2249 -156.0
 2.940  0.5322  140.3   3.113   52.2  0.1411   42.1  0.2253 -156.4
 2.960  0.5332  139.9   3.092   51.9  0.1418   42.0  0.2258 -156.9
 2.980  0.5343  139.5   3.070   51.6  0.1426   41.9  0.2263 -157.3
 3.000  0.5354  139.1   3.048   51.2  0.1433   41.8  0.2268 -157.8
 3.100  0.5394  137.2   2.956   49.8  0.1467   41.1  0.2292 -159.9
 3.200  0.5441  135.2   2.865   48.4  0.1501   40.4  0.2319 -162.0
 3.300  0.5493  133.4   2.776   46.8  0.1536   39.8  0.2349 -164.0
 3.400  0.5551  131.5   2.690   45.2  0.1570   39.2  0.2381 -166.0
 3.500  0.5615  129.7   2.606   43.4  0.1605   38.6  0.2417 -167.9
 3.600  0.5667  128.0   2.535   42.1  0.1636   37.9  0.2450 -170.0
 3.700  0.5723  126.3   2.465   40.7  0.1667   37.2  0.2486 -172.0
 3.800  0.5785  124.6   2.396   39.2  0.1698   36.5  0.2526 -174.0
 3.900  0.5851  123.0   2.330   37.7  0.1729   35.8  0.2568 -175.9
 4.000  0.5922  121.4   2.265   36.0  0.1761   35.2  0.2613 -177.8
 4.100  0.5974  120.0   2.209   34.8  0.1789   34.5  0.2662 -179.7
 4.200  0.6029  118.6   2.154   33.5  0.1817   33.9  0.2713  178.5
 4.300  0.6087  117.3   2.099   32.2  0.1845   33.2  0.2767  176.8
 4.400  0.6149  116.0   2.047   30.8  0.1873   32.6  0.2824  175.1
 4.500  0.6214  114.7   1.995   29.3  0.1902   32.0  0.2883  173.5
 4.600  0.6253  113.5   1.951   28.2  0.1929   31.4  0.2925  172.2
 4.700  0.6296  112.2   1.908   27.0  0.1957   30.8  0.2969  170.9
 4.800  0.6341  111.0   1.865   25.7  0.1985   30.3  0.3014  169.7
 4.900  0.6389  109.9   1.824   24.5  0.2013   29.7  0.3060  168.5
 5.000  0.6439  108.7   1.783   23.1  0.2041   29.2  0.3108  167.4
 5.100  0.6468  107.7   1.749   22.1  0.2071   28.5  0.3137  166.4
 5.200  0.6498  106.7   1.716   21.0  0.2102   27.9  0.3168  165.5
 5.300  0.6531  105.7   1.683   19.9  0.2133   27.3  0.3199  164.6
 5.400  0.6565  104.7   1.651   18.7  0.2165   26.7  0.3230  163.7
 5.500  0.6602  103.7   1.620   17.5  0.2196   26.1  0.3263  162.8
 5.600  0.6623  102.9   1.593   16.4  0.2224   25.4  0.3298  161.9
 5.700  0.6646  102.0   1.567   15.3  0.2253   24.6  0.3335  161.0
 5.800  0.6669  101.2   1.541   14.2  0.2282   23.9  0.3372  160.2
 5.900  0.6694  100.4   1.516   13.0  0.2311   23.3  0.3410  159.3
 6.000  0.6721   99.6   1.492   11.8  0.2341   22.6  0.3448  158.5
 6.100  0.6727   98.8   1.469   10.8  0.2366   21.9  0.3474  157.9
 6.200  0.6734   98.0   1.447    9.7  0.2391   21.3  0.3499  157.4
 6.300  0.6742   97.1   1.425    8.7  0.2417   20.6  0.3526  156.9
 6.400  0.6752   96.3   1.404    7.5  0.2443   20.0  0.3552  156.3
 6.500  0.6763   95.5   1.383    6.4  0.2469   19.4  0.3579  155.8
 6.600  0.6757   94.5   1.365    5.4  0.2498   18.8  0.3577  155.4
 6.800  0.6750   92.6   1.331    3.4  0.2557   17.5  0.3574  154.6
 7.000  0.6752   90.6   1.298    1.3  0.2617   16.3  0.3572  153.8
 7.200  0.6770   88.4   1.271   -0.8  0.2682   14.8  0.3571  152.3
 7.400  0.6799   86.2   1.246   -3.0  0.2748   13.3  0.3572  150.8
 7.600  0.6840   83.8   1.221   -5.3  0.2811   11.7  0.3590  148.8
 7.800  0.6898   81.2   1.196   -7.7  0.2872    9.9  0.3628  146.5
 8.000  0.6969   78.7   1.173  -10.3  0.2935    8.2  0.3672  144.3
 8.200  0.7025   76.0   1.143  -12.7  0.2977    6.1  0.3715  141.4
 8.400  0.7096   73.4   1.114  -15.2  0.3022    4.1  0.3767  138.6
 8.600  0.7188   70.9   1.085  -17.6  0.3051    2.1  0.3830  135.1
 8.800  0.7300   68.5   1.054  -19.9  0.3063    0.0  0.3914  131.1
 9.000  0.7424   66.2   1.025  -22.3  0.3080   -2.0  0.4016  127.2
 9.200  0.7582   64.3   0.991  -24.2  0.3070   -3.5  0.4177  122.6
 9.400  0.7748   62.4   0.959  -26.2  0.3063   -5.0  0.4364  118.4
 9.600  0.7895   60.7   0.927  -27.9  0.3054   -6.3  0.4557  114.7
 9.800  0.8020   59.2   0.895  -29.4  0.3042   -7.2  0.4752  111.5
10.000  0.8151   57.7   0.864  -31.0  0.3031   -8.2  0.4961  108.5
!
!  f       NFmin   Gammaopt  rn/50
! GHz       dB    MAG  ANG    -
 0.450      1.03  0.09   22   0.14
 1.900      1.19  0.09 -179   0.12
 3.500      1.20  0.36 -133   0.12
!
! (c) 2016  Infineon Technologies AG, Munich
