! Infineon Technologies  Discrete & RF Semiconductors
! BFP460
! VCE =  2.5 V,  IC =  10 mA
! Common Emitter S-Parameters:                            Jan 2016
# GHz  S  MA  R  50
!  f         S11            S21            S12            S22
! GHz     MAG   ANG      MAG   ANG      MAG   ANG      MAG   ANG
 0.030  0.7658   -9.1  28.620  174.2  0.0057   85.7  0.9741   -6.1
 0.035  0.7654  -10.6  28.553  173.1  0.0066   85.0  0.9725   -7.1
 0.040  0.7656  -12.1  28.496  172.0  0.0075   84.4  0.9711   -8.1
 0.045  0.7620  -13.5  28.370  170.8  0.0084   84.0  0.9690   -9.0
 0.050  0.7589  -15.0  28.257  169.5  0.0093   83.7  0.9672  -10.0
 0.055  0.7595  -16.6  28.177  168.7  0.0102   82.6  0.9646  -11.0
 0.060  0.7606  -18.1  28.103  167.9  0.0112   81.7  0.9623  -12.0
 0.065  0.7561  -19.5  28.110  166.8  0.0120   80.7  0.9595  -13.0
 0.070  0.7521  -21.0  28.127  165.8  0.0128   79.8  0.9569  -14.0
 0.075  0.7536  -22.5  27.994  165.1  0.0137   79.2  0.9536  -15.0
 0.080  0.7555  -23.9  27.866  164.4  0.0147   78.7  0.9506  -16.0
 0.085  0.7518  -25.4  27.747  163.4  0.0155   77.9  0.9465  -16.9
 0.090  0.7487  -27.0  27.636  162.4  0.0164   77.1  0.9427  -17.9
 0.095  0.7466  -28.3  27.444  161.6  0.0172   76.4  0.9388  -18.8
 0.100  0.7450  -29.7  27.259  160.7  0.0180   75.8  0.9351  -19.8
 0.105  0.7437  -31.1  27.162  159.9  0.0188   75.0  0.9304  -20.7
 0.110  0.7429  -32.5  27.071  159.0  0.0197   74.3  0.9260  -21.6
 0.115  0.7388  -34.0  26.942  158.1  0.0205   73.7  0.9212  -22.5
 0.120  0.7353  -35.5  26.820  157.2  0.0213   73.1  0.9167  -23.5
 0.125  0.7323  -36.7  26.659  156.4  0.0221   72.5  0.9117  -24.3
 0.130  0.7296  -38.0  26.503  155.6  0.0229   71.9  0.9069  -25.2
 0.135  0.7265  -39.3  26.373  154.7  0.0236   71.3  0.9018  -26.1
 0.140  0.7239  -40.7  26.250  153.8  0.0244   70.8  0.8969  -27.1
 0.145  0.7203  -42.1  26.049  153.0  0.0251   70.1  0.8916  -27.9
 0.150  0.7171  -43.5  25.854  152.1  0.0259   69.4  0.8864  -28.7
 0.155  0.7127  -44.7  25.671  151.4  0.0265   68.8  0.8801  -29.5
 0.160  0.7086  -45.9  25.492  150.7  0.0272   68.1  0.8739  -30.2
 0.165  0.7049  -47.1  25.318  149.9  0.0278   67.6  0.8679  -31.0
 0.170  0.7014  -48.4  25.147  149.2  0.0285   67.0  0.8621  -31.8
 0.175  0.6983  -49.6  24.981  148.4  0.0291   66.5  0.8564  -32.6
 0.180  0.6956  -50.9  24.819  147.7  0.0298   65.9  0.8509  -33.4
 0.185  0.6931  -52.1  24.662  146.9  0.0304   65.5  0.8456  -34.3
 0.190  0.6910  -53.4  24.509  146.1  0.0311   65.0  0.8404  -35.1
 0.195  0.6893  -54.7  24.361  145.3  0.0317   64.5  0.8355  -35.9
 0.200  0.6879  -56.0  24.218  144.5  0.0324   64.1  0.8307  -36.8
 0.220  0.6732  -60.5  23.482  141.9  0.0345   62.2  0.8063  -39.5
 0.240  0.6628  -65.2  22.798  139.1  0.0367   60.6  0.7838  -42.3
 0.260  0.6524  -69.5  22.119  136.6  0.0387   59.0  0.7613  -45.0
 0.280  0.6408  -73.5  21.429  134.3  0.0405   57.5  0.7382  -47.5
 0.300  0.6324  -77.6  20.776  131.9  0.0423   56.2  0.7166  -50.1
 0.320  0.6201  -81.3  20.122  130.0  0.0438   55.0  0.6952  -52.2
 0.340  0.6104  -85.1  19.492  127.9  0.0453   53.9  0.6748  -54.4
 0.360  0.6012  -88.6  18.890  126.0  0.0466   52.9  0.6553  -56.4
 0.380  0.5918  -91.8  18.309  124.2  0.0479   52.0  0.6363  -58.4
 0.400  0.5844  -95.2  17.746  122.3  0.0491   51.1  0.6181  -60.4
 0.420  0.5759  -98.1  17.215  120.8  0.0502   50.4  0.6010  -62.0
 0.440  0.5689 -101.2  16.698  119.1  0.0513   49.6  0.5843  -63.7
 0.450  0.5660 -102.7  16.444  118.3  0.0518   49.3  0.5762  -64.6
 0.460  0.5623 -104.0  16.208  117.7  0.0523   49.0  0.5686  -65.3
 0.480  0.5558 -106.6  15.742  116.3  0.0532   48.4  0.5536  -66.8
 0.500  0.5505 -109.3  15.285  114.9  0.0542   47.9  0.5390  -68.4
 0.520  0.5438 -111.6  14.883  113.8  0.0550   47.5  0.5260  -69.6
 0.540  0.5380 -113.9  14.487  112.7  0.0558   47.1  0.5133  -70.8
 0.560  0.5332 -116.3  14.096  111.5  0.0567   46.7  0.5008  -72.2
 0.580  0.5293 -118.7  13.712  110.2  0.0575   46.4  0.4886  -73.5
 0.600  0.5263 -121.2  13.335  108.9  0.0583   46.0  0.4767  -75.0
 0.620  0.5218 -123.1  13.015  108.0  0.0590   45.8  0.4666  -76.0
 0.640  0.5178 -125.0  12.699  107.1  0.0597   45.5  0.4566  -77.1
 0.660  0.5145 -126.9  12.385  106.1  0.0605   45.3  0.4468  -78.3
 0.680  0.5117 -128.9  12.076  105.1  0.0612   45.1  0.4371  -79.5
 0.700  0.5096 -130.9  11.771  104.0  0.0619   44.9  0.4277  -80.7
 0.720  0.5064 -132.5  11.515  103.2  0.0626   44.8  0.4197  -81.6
 0.740  0.5035 -134.2  11.261  102.4  0.0633   44.7  0.4119  -82.5
 0.760  0.5011 -135.8  11.009  101.6  0.0639   44.5  0.4041  -83.4
 0.780  0.4991 -137.5  10.760  100.7  0.0646   44.4  0.3965  -84.4
 0.800  0.4976 -139.2  10.513   99.8  0.0653   44.3  0.3890  -85.4
 0.820  0.4955 -140.6  10.307   99.1  0.0659   44.3  0.3826  -86.2
 0.840  0.4938 -142.1  10.103   98.4  0.0666   44.2  0.3763  -87.0
 0.860  0.4924 -143.6   9.900   97.7  0.0672   44.2  0.3701  -87.9
 0.880  0.4913 -145.0   9.699   96.9  0.0679   44.1  0.3639  -88.8
 0.900  0.4905 -146.5   9.500   96.1  0.0685   44.1  0.3579  -89.7
 0.920  0.4887 -147.8   9.328   95.5  0.0691   44.1  0.3527  -90.4
 0.940  0.4871 -149.0   9.157   94.9  0.0698   44.1  0.3476  -91.2
 0.960  0.4857 -150.3   8.987   94.3  0.0704   44.0  0.3425  -92.0
 0.980  0.4846 -151.6   8.818   93.6  0.0711   44.0  0.3375  -92.8
 1.000  0.4837 -152.9   8.650   92.9  0.0717   44.0  0.3326  -93.6
 1.020  0.4826 -154.0   8.504   92.3  0.0723   44.0  0.3284  -94.3
 1.040  0.4817 -155.1   8.359   91.8  0.0730   44.0  0.3243  -94.9
 1.060  0.4810 -156.3   8.215   91.2  0.0736   44.0  0.3203  -95.6
 1.080  0.4805 -157.4   8.072   90.5  0.0743   44.0  0.3163  -96.4
 1.100  0.4801 -158.5   7.930   89.9  0.0749   44.0  0.3123  -97.1
 1.120  0.4794 -159.5   7.807   89.4  0.0756   44.0  0.3088  -97.7
 1.140  0.4789 -160.5   7.685   88.9  0.0762   44.1  0.3053  -98.4
 1.160  0.4785 -161.6   7.563   88.3  0.0769   44.1  0.3019  -99.0
 1.180  0.4783 -162.6   7.442   87.8  0.0775   44.2  0.2985  -99.7
 1.200  0.4782 -163.6   7.322   87.2  0.0782   44.2  0.2952 -100.4
 1.220  0.4777 -164.5   7.216   86.7  0.0789   44.2  0.2924 -101.0
 1.240  0.4774 -165.5   7.110   86.2  0.0795   44.2  0.2895 -101.6
 1.260  0.4772 -166.4   7.005   85.7  0.0802   44.3  0.2868 -102.2
 1.280  0.4771 -167.4   6.900   85.2  0.0808   44.3  0.2840 -102.8
 1.300  0.4771 -168.3   6.796   84.6  0.0815   44.3  0.2813 -103.4
 1.320  0.4769 -169.2   6.704   84.1  0.0822   44.3  0.2788 -104.0
 1.340  0.4767 -170.0   6.613   83.7  0.0828   44.3  0.2763 -104.5
 1.360  0.4767 -170.9   6.523   83.2  0.0835   44.4  0.2738 -105.1
 1.380  0.4768 -171.7   6.433   82.7  0.0841   44.4  0.2714 -105.7
 1.400  0.4770 -172.6   6.343   82.2  0.0848   44.4  0.2690 -106.3
 1.420  0.4769 -173.4   6.262   81.8  0.0855   44.4  0.2670 -106.8
 1.440  0.4769 -174.2   6.182   81.3  0.0861   44.4  0.2651 -107.4
 1.460  0.4770 -175.1   6.102   80.9  0.0868   44.4  0.2632 -107.9
 1.480  0.4772 -175.9   6.023   80.4  0.0874   44.4  0.2613 -108.4
 1.500  0.4775 -176.7   5.944   79.9  0.0881   44.4  0.2594 -109.0
 1.520  0.4775 -177.5   5.873   79.5  0.0888   44.4  0.2576 -109.5
 1.540  0.4775 -178.2   5.801   79.1  0.0895   44.4  0.2558 -110.1
 1.560  0.4776 -179.0   5.731   78.6  0.0901   44.4  0.2541 -110.6
 1.580  0.4778 -179.7   5.660   78.2  0.0908   44.4  0.2523 -111.1
 1.600  0.4781  179.5   5.590   77.7  0.0915   44.4  0.2506 -111.7
 1.620  0.4782  178.8   5.528   77.3  0.0922   44.4  0.2491 -112.2
 1.640  0.4783  178.1   5.466   76.9  0.0929   44.4  0.2477 -112.7
 1.660  0.4785  177.5   5.405   76.5  0.0936   44.4  0.2462 -113.2
 1.680  0.4788  176.8   5.344   76.0  0.0943   44.4  0.2448 -113.7
 1.700  0.4791  176.1   5.283   75.6  0.0950   44.4  0.2434 -114.2
 1.720  0.4793  175.4   5.226   75.2  0.0957   44.4  0.2421 -114.7
 1.740  0.4796  174.7   5.169   74.8  0.0964   44.4  0.2409 -115.2
 1.760  0.4800  174.1   5.113   74.4  0.0971   44.3  0.2397 -115.7
 1.780  0.4804  173.4   5.057   73.9  0.0978   44.3  0.2385 -116.3
 1.800  0.4809  172.7   5.001   73.5  0.0985   44.3  0.2373 -116.8
 1.820  0.4812  172.1   4.951   73.1  0.0992   44.3  0.2362 -117.3
 1.840  0.4816  171.5   4.901   72.7  0.0999   44.3  0.2351 -117.7
 1.860  0.4821  170.8   4.851   72.3  0.1006   44.2  0.2340 -118.2
 1.880  0.4825  170.2   4.802   71.9  0.1013   44.2  0.2329 -118.7
 1.900  0.4831  169.6   4.753   71.5  0.1020   44.2  0.2319 -119.2
 1.920  0.4835  169.0   4.707   71.1  0.1027   44.2  0.2310 -119.7
 1.940  0.4839  168.4   4.662   70.7  0.1034   44.1  0.2300 -120.2
 1.960  0.4844  167.7   4.617   70.3  0.1041   44.1  0.2291 -120.7
 1.980  0.4849  167.1   4.572   69.9  0.1048   44.0  0.2283 -121.2
 2.000  0.4855  166.5   4.527   69.5  0.1055   44.0  0.2274 -121.7
 2.020  0.4861  165.9   4.486   69.1  0.1062   43.9  0.2266 -122.2
 2.040  0.4867  165.3   4.446   68.8  0.1069   43.9  0.2258 -122.7
 2.060  0.4874  164.7   4.405   68.4  0.1076   43.8  0.2251 -123.2
 2.080  0.4882  164.1   4.365   68.0  0.1083   43.8  0.2243 -123.7
 2.100  0.4890  163.5   4.325   67.6  0.1090   43.7  0.2236 -124.2
 2.120  0.4898  162.9   4.285   67.2  0.1098   43.7  0.2229 -124.7
 2.140  0.4907  162.3   4.246   66.8  0.1105   43.6  0.2222 -125.2
 2.160  0.4916  161.8   4.206   66.4  0.1112   43.6  0.2216 -125.8
 2.180  0.4926  161.2   4.167   66.0  0.1119   43.5  0.2209 -126.3
 2.200  0.4937  160.6   4.128   65.6  0.1126   43.5  0.2203 -126.8
 2.220  0.4943  160.1   4.094   65.3  0.1133   43.4  0.2197 -127.3
 2.240  0.4949  159.5   4.060   64.9  0.1140   43.4  0.2192 -127.8
 2.260  0.4956  159.0   4.026   64.6  0.1147   43.3  0.2187 -128.3
 2.280  0.4963  158.5   3.992   64.2  0.1154   43.3  0.2182 -128.9
 2.300  0.4971  157.9   3.959   63.8  0.1161   43.2  0.2177 -129.4
 2.320  0.4979  157.4   3.926   63.5  0.1168   43.1  0.2173 -129.9
 2.340  0.4988  156.9   3.892   63.1  0.1175   43.1  0.2168 -130.4
 2.360  0.4997  156.3   3.859   62.7  0.1182   43.0  0.2164 -130.9
 2.380  0.5006  155.8   3.827   62.3  0.1189   43.0  0.2160 -131.5
 2.400  0.5016  155.3   3.794   61.9  0.1196   42.9  0.2156 -132.0
 2.420  0.5023  154.8   3.765   61.6  0.1203   42.8  0.2153 -132.5
 2.440  0.5031  154.3   3.735   61.2  0.1210   42.7  0.2151 -133.1
 2.460  0.5039  153.8   3.706   60.9  0.1217   42.7  0.2148 -133.6
 2.480  0.5048  153.2   3.677   60.5  0.1224   42.6  0.2146 -134.1
 2.500  0.5056  152.7   3.648   60.2  0.1231   42.5  0.2144 -134.6
 2.520  0.5066  152.2   3.619   59.8  0.1238   42.4  0.2142 -135.2
 2.540  0.5076  151.7   3.591   59.4  0.1245   42.3  0.2141 -135.7
 2.560  0.5086  151.2   3.562   59.1  0.1252   42.3  0.2139 -136.2
 2.580  0.5096  150.7   3.534   58.7  0.1259   42.2  0.2138 -136.8
 2.600  0.5107  150.2   3.506   58.3  0.1266   42.1  0.2137 -137.3
 2.620  0.5115  149.7   3.481   58.0  0.1273   42.0  0.2137 -137.8
 2.640  0.5123  149.3   3.455   57.7  0.1280   41.9  0.2137 -138.4
 2.660  0.5131  148.8   3.430   57.3  0.1286   41.8  0.2137 -138.9
 2.680  0.5140  148.4   3.405   57.0  0.1293   41.7  0.2137 -139.4
 2.700  0.5149  147.9   3.380   56.7  0.1300   41.6  0.2138 -140.0
 2.720  0.5158  147.5   3.355   56.3  0.1307   41.5  0.2138 -140.5
 2.740  0.5168  147.0   3.330   56.0  0.1314   41.4  0.2139 -141.0
 2.760  0.5178  146.6   3.306   55.6  0.1320   41.3  0.2140 -141.5
 2.780  0.5188  146.1   3.281   55.3  0.1327   41.2  0.2142 -142.1
 2.800  0.5199  145.7   3.257   54.9  0.1334   41.1  0.2143 -142.6
 2.820  0.5208  145.3   3.235   54.6  0.1341   41.0  0.2145 -143.1
 2.840  0.5217  144.8   3.213   54.3  0.1348   40.9  0.2146 -143.6
 2.860  0.5226  144.4   3.190   53.9  0.1354   40.8  0.2148 -144.1
 2.880  0.5235  144.0   3.168   53.6  0.1361   40.7  0.2150 -144.5
 2.900  0.5245  143.5   3.147   53.3  0.1368   40.6  0.2153 -145.0
 2.920  0.5255  143.1   3.125   52.9  0.1375   40.5  0.2155 -145.5
 2.940  0.5266  142.7   3.103   52.6  0.1382   40.5  0.2158 -146.0
 2.960  0.5277  142.2   3.082   52.2  0.1388   40.4  0.2160 -146.4
 2.980  0.5288  141.8   3.060   51.9  0.1395   40.3  0.2163 -146.9
 3.000  0.5299  141.4   3.039   51.5  0.1402   40.2  0.2166 -147.4
 3.100  0.5338  139.3   2.946   50.1  0.1434   39.6  0.2181 -149.7
 3.200  0.5383  137.3   2.856   48.6  0.1466   39.0  0.2199 -152.0
 3.300  0.5436  135.3   2.767   47.0  0.1499   38.4  0.2221 -154.2
 3.400  0.5495  133.3   2.681   45.3  0.1531   37.8  0.2246 -156.4
 3.500  0.5560  131.4   2.597   43.5  0.1564   37.3  0.2274 -158.5
 3.600  0.5612  129.6   2.527   42.2  0.1593   36.7  0.2299 -160.8
 3.700  0.5669  127.8   2.457   40.8  0.1623   36.0  0.2328 -163.0
 3.800  0.5731  126.1   2.390   39.3  0.1653   35.4  0.2360 -165.2
 3.900  0.5799  124.4   2.324   37.7  0.1683   34.9  0.2396 -167.3
 4.000  0.5871  122.8   2.260   36.1  0.1713   34.3  0.2435 -169.4
 4.100  0.5925  121.4   2.204   34.8  0.1740   33.7  0.2478 -171.5
 4.200  0.5982  120.0   2.149   33.5  0.1767   33.1  0.2524 -173.5
 4.300  0.6043  118.6   2.095   32.1  0.1795   32.5  0.2573 -175.4
 4.400  0.6107  117.2   2.043   30.6  0.1822   31.9  0.2625 -177.3
 4.500  0.6175  115.9   1.992   29.1  0.1850   31.4  0.2680 -179.1
 4.600  0.6214  114.6   1.948   28.0  0.1877   30.9  0.2721  179.5
 4.700  0.6256  113.4   1.905   26.7  0.1904   30.3  0.2764  178.0
 4.800  0.6301  112.2   1.862   25.5  0.1931   29.8  0.2809  176.7
 4.900  0.6349  111.0   1.821   24.2  0.1958   29.3  0.2855  175.4
 5.000  0.6400  109.8   1.780   22.8  0.1985   28.8  0.2902  174.1
 5.100  0.6429  108.8   1.746   21.7  0.2015   28.2  0.2933  173.1
 5.200  0.6461  107.7   1.713   20.6  0.2045   27.6  0.2965  172.1
 5.300  0.6494  106.7   1.680   19.5  0.2075   27.1  0.2997  171.1
 5.400  0.6530  105.7   1.648   18.3  0.2105   26.5  0.3031  170.1
 5.500  0.6567  104.7   1.617   17.0  0.2136   26.0  0.3065  169.2
 5.600  0.6591  103.8   1.590   15.9  0.2164   25.3  0.3103  168.2
 5.700  0.6616  103.0   1.564   14.8  0.2193   24.6  0.3141  167.3
 5.800  0.6642  102.1   1.538   13.6  0.2222   24.0  0.3181  166.4
 5.900  0.6670  101.2   1.513   12.4  0.2251   23.3  0.3221  165.5
 6.000  0.6700  100.4   1.489   11.2  0.2281   22.7  0.3262  164.6
 6.100  0.6705   99.6   1.466   10.2  0.2306   22.1  0.3292  164.0
 6.200  0.6711   98.7   1.443    9.1  0.2331   21.4  0.3323  163.4
 6.300  0.6718   97.9   1.421    8.1  0.2357   20.8  0.3353  162.8
 6.400  0.6728   97.0   1.399    6.9  0.2383   20.2  0.3385  162.3
 6.500  0.6738   96.2   1.378    5.8  0.2409   19.6  0.3416  161.7
 6.600  0.6734   95.2   1.360    4.8  0.2438   19.0  0.3419  161.3
 6.800  0.6733   93.3   1.326    2.8  0.2496   17.8  0.3426  160.5
 7.000  0.6739   91.4   1.293    0.6  0.2555   16.7  0.3434  159.7
 7.200  0.6759   89.1   1.265   -1.5  0.2619   15.2  0.3437  158.2
 7.400  0.6789   86.9   1.239   -3.8  0.2685   13.9  0.3442  156.7
 7.600  0.6832   84.5   1.213   -6.1  0.2749   12.3  0.3463  154.8
 7.800  0.6892   81.9   1.188   -8.6  0.2810   10.6  0.3501  152.4
 8.000  0.6965   79.4   1.165  -11.2  0.2874    8.9  0.3546  150.0
 8.200  0.7021   76.6   1.135  -13.6  0.2918    6.9  0.3588  147.1
 8.400  0.7093   73.9   1.106  -16.1  0.2966    4.9  0.3640  144.2
 8.600  0.7187   71.4   1.077  -18.5  0.2998    2.9  0.3700  140.6
 8.800  0.7301   68.9   1.047  -20.8  0.3014    0.9  0.3777  136.4
 9.000  0.7427   66.6   1.018  -23.2  0.3034   -1.1  0.3873  132.4
 9.200  0.7583   64.6   0.985  -25.1  0.3028   -2.6  0.4027  127.5
 9.400  0.7748   62.7   0.953  -27.1  0.3024   -4.1  0.4208  123.1
 9.600  0.7894   61.0   0.921  -28.9  0.3018   -5.4  0.4400  119.1
 9.800  0.8019   59.5   0.889  -30.5  0.3009   -6.3  0.4598  115.7
10.000  0.8150   58.0   0.858  -32.1  0.3001   -7.3  0.4811  112.5
!
!  f       NFmin   Gammaopt  rn/50
! GHz       dB    MAG  ANG    -
 0.450      0.95  0.14   16   0.15
 0.900      1.19  0.11   57   0.14
 1.900      1.15  0.07  152   0.12
 3.500      1.18  0.34 -137   0.11
!
! (c) 2016  Infineon Technologies AG, Munich
