! Infineon Technologies  Discrete & RF Semiconductors
! BFP460
! VCE =  2.0 V,  IC =  60 mA
! Common Emitter S-Parameters:                            Jan 2016
# GHz  S  MA  R  50
!  f         S11            S21            S12            S22
! GHz     MAG   ANG      MAG   ANG      MAG   ANG      MAG   ANG
 0.030  0.2840  -38.5  66.511  167.8  0.0043   84.3  0.8553  -12.7
 0.035  0.2867  -43.9  65.878  165.6  0.0049   82.8  0.8499  -15.1
 0.040  0.2919  -49.2  65.346  163.3  0.0056   81.6  0.8460  -17.5
 0.045  0.2956  -54.0  64.494  161.0  0.0062   79.8  0.8377  -19.9
 0.050  0.3013  -58.7  63.745  158.7  0.0068   78.4  0.8309  -22.3
 0.055  0.3089  -63.3  62.956  156.8  0.0073   76.3  0.8208  -24.5
 0.060  0.3183  -67.6  62.236  154.9  0.0078   74.5  0.8120  -26.8
 0.065  0.3242  -72.5  61.384  153.0  0.0083   73.2  0.8006  -28.9
 0.070  0.3323  -77.1  60.604  151.0  0.0089   72.1  0.7903  -31.1
 0.075  0.3398  -80.5  59.629  149.4  0.0094   71.7  0.7784  -33.1
 0.080  0.3484  -83.7  58.703  147.7  0.0100   71.4  0.7674  -35.2
 0.085  0.3546  -87.4  57.627  146.0  0.0104   70.3  0.7542  -37.1
 0.090  0.3622  -90.9  56.605  144.2  0.0109   69.2  0.7418  -39.0
 0.095  0.3650  -93.4  55.503  142.8  0.0113   68.2  0.7292  -40.8
 0.100  0.3685  -95.9  54.436  141.3  0.0117   67.3  0.7173  -42.6
 0.105  0.3749  -98.5  53.499  139.9  0.0120   66.7  0.7044  -44.2
 0.110  0.3820 -101.0  52.597  138.4  0.0124   66.1  0.6921  -45.9
 0.115  0.3862 -103.7  51.566  137.1  0.0128   65.5  0.6795  -47.5
 0.120  0.3913 -106.3  50.563  135.7  0.0132   65.0  0.6675  -49.1
 0.125  0.3946 -108.5  49.603  134.5  0.0135   64.6  0.6553  -50.5
 0.130  0.3985 -110.7  48.665  133.3  0.0138   64.2  0.6435  -52.0
 0.135  0.4030 -112.7  47.764  132.2  0.0141   63.8  0.6317  -53.4
 0.140  0.4079 -114.7  46.883  131.0  0.0145   63.5  0.6204  -54.9
 0.145  0.4107 -116.6  45.932  129.9  0.0148   62.9  0.6093  -56.1
 0.150  0.4140 -118.5  44.997  128.8  0.0151   62.3  0.5985  -57.4
 0.155  0.4155 -120.0  44.207  128.1  0.0154   62.1  0.5882  -58.3
 0.160  0.4173 -121.5  43.424  127.3  0.0156   61.9  0.5781  -59.3
 0.165  0.4194 -122.9  42.649  126.5  0.0159   61.7  0.5682  -60.3
 0.170  0.4217 -124.4  41.882  125.7  0.0161   61.6  0.5584  -61.4
 0.175  0.4243 -125.8  41.124  124.9  0.0164   61.4  0.5488  -62.4
 0.180  0.4272 -127.2  40.375  124.0  0.0167   61.2  0.5395  -63.5
 0.185  0.4303 -128.6  39.635  123.1  0.0169   61.1  0.5303  -64.7
 0.190  0.4337 -130.0  38.906  122.2  0.0172   60.9  0.5214  -65.9
 0.195  0.4373 -131.4  38.188  121.2  0.0174   60.7  0.5127  -67.1
 0.200  0.4412 -132.7  37.481  120.2  0.0177   60.6  0.5042  -68.4
 0.220  0.4461 -136.7  35.124  117.9  0.0186   60.4  0.4747  -71.5
 0.240  0.4532 -140.7  32.829  115.3  0.0195   60.3  0.4467  -74.9
 0.260  0.4590 -144.1  30.821  113.0  0.0204   60.3  0.4223  -78.0
 0.280  0.4629 -147.0  29.065  111.2  0.0213   60.4  0.4008  -80.7
 0.300  0.4680 -149.9  27.344  109.1  0.0221   60.5  0.3803  -83.6
 0.320  0.4712 -152.1  25.967  107.7  0.0230   60.8  0.3637  -85.7
 0.340  0.4751 -154.3  24.606  106.2  0.0239   61.1  0.3477  -88.1
 0.360  0.4777 -156.3  23.390  104.8  0.0247   61.4  0.3336  -90.2
 0.380  0.4788 -158.2  22.314  103.6  0.0256   61.7  0.3211  -92.1
 0.400  0.4805 -160.1  21.249  102.3  0.0265   62.0  0.3091  -94.2
 0.420  0.4817 -161.6  20.374  101.3  0.0274   62.3  0.2991  -95.8
 0.440  0.4833 -163.1  19.506  100.3  0.0283   62.5  0.2894  -97.6
 0.450  0.4842 -163.9  19.075   99.7  0.0287   62.6  0.2846  -98.5
 0.460  0.4847 -164.6  18.719   99.3  0.0291   62.7  0.2806  -99.2
 0.480  0.4860 -165.9  18.010   98.4  0.0300   63.0  0.2727 -100.8
 0.500  0.4875 -167.2  17.305   97.5  0.0309   63.3  0.2651 -102.4
 0.520  0.4882 -168.3  16.752   96.8  0.0318   63.5  0.2591 -103.6
 0.540  0.4890 -169.4  16.202   96.1  0.0327   63.8  0.2532 -104.9
 0.560  0.4900 -170.5  15.654   95.4  0.0336   64.0  0.2475 -106.3
 0.580  0.4912 -171.5  15.110   94.6  0.0345   64.2  0.2418 -107.7
 0.600  0.4926 -172.6  14.568   93.7  0.0354   64.4  0.2364 -109.2
 0.620  0.4931 -173.5  14.165   93.1  0.0363   64.6  0.2323 -110.3
 0.640  0.4938 -174.4  13.764   92.5  0.0372   64.7  0.2283 -111.4
 0.660  0.4945 -175.2  13.365   91.9  0.0382   64.9  0.2244 -112.5
 0.680  0.4954 -176.1  12.967   91.2  0.0391   65.1  0.2206 -113.7
 0.700  0.4964 -177.0  12.571   90.5  0.0400   65.2  0.2169 -114.9
 0.720  0.4970 -177.8  12.265   90.0  0.0409   65.3  0.2140 -115.8
 0.740  0.4976 -178.5  11.961   89.5  0.0418   65.3  0.2112 -116.8
 0.760  0.4984 -179.3  11.657   89.0  0.0428   65.4  0.2085 -117.8
 0.780  0.4992  180.0  11.354   88.4  0.0437   65.4  0.2058 -118.8
 0.800  0.5001  179.2  11.053   87.8  0.0446   65.5  0.2032 -119.8
 0.820  0.5005  178.5  10.815   87.4  0.0455   65.6  0.2012 -120.6
 0.840  0.5010  177.9  10.577   86.9  0.0465   65.6  0.1992 -121.5
 0.860  0.5015  177.2  10.340   86.4  0.0474   65.7  0.1972 -122.3
 0.880  0.5021  176.6  10.104   85.9  0.0484   65.7  0.1953 -123.2
 0.900  0.5028  175.9   9.869   85.4  0.0493   65.8  0.1935 -124.1
 0.920  0.5031  175.3   9.676   85.0  0.0502   65.8  0.1920 -124.8
 0.940  0.5035  174.7   9.483   84.5  0.0512   65.8  0.1906 -125.6
 0.960  0.5039  174.0   9.291   84.1  0.0521   65.8  0.1891 -126.3
 0.980  0.5044  173.4   9.099   83.6  0.0531   65.8  0.1878 -127.1
 1.000  0.5049  172.8   8.908   83.1  0.0540   65.8  0.1864 -127.9
 1.020  0.5053  172.2   8.749   82.7  0.0549   65.8  0.1854 -128.5
 1.040  0.5057  171.7   8.591   82.3  0.0559   65.7  0.1844 -129.2
 1.060  0.5061  171.1   8.433   81.9  0.0568   65.7  0.1834 -129.9
 1.080  0.5066  170.6   8.275   81.5  0.0578   65.6  0.1825 -130.5
 1.100  0.5072  170.0   8.118   81.0  0.0587   65.6  0.1816 -131.2
 1.120  0.5075  169.5   7.985   80.6  0.0597   65.5  0.1808 -131.8
 1.140  0.5079  168.9   7.852   80.2  0.0606   65.5  0.1800 -132.4
 1.160  0.5083  168.4   7.720   79.8  0.0616   65.4  0.1793 -133.0
 1.180  0.5088  167.8   7.588   79.3  0.0625   65.4  0.1785 -133.6
 1.200  0.5093  167.3   7.456   78.9  0.0635   65.3  0.1778 -134.2
 1.220  0.5098  166.8   7.343   78.5  0.0644   65.2  0.1773 -134.7
 1.240  0.5103  166.3   7.229   78.2  0.0654   65.1  0.1769 -135.3
 1.260  0.5109  165.8   7.117   77.8  0.0663   65.1  0.1764 -135.8
 1.280  0.5115  165.3   7.004   77.4  0.0673   65.0  0.1760 -136.4
 1.300  0.5121  164.8   6.892   77.0  0.0682   64.9  0.1756 -136.9
 1.320  0.5125  164.3   6.795   76.6  0.0691   64.8  0.1752 -137.4
 1.340  0.5130  163.8   6.698   76.3  0.0701   64.7  0.1748 -137.9
 1.360  0.5134  163.4   6.602   75.9  0.0710   64.6  0.1744 -138.5
 1.380  0.5139  162.9   6.506   75.5  0.0720   64.5  0.1740 -139.0
 1.400  0.5145  162.4   6.410   75.1  0.0729   64.4  0.1736 -139.5
 1.420  0.5150  161.9   6.326   74.8  0.0739   64.3  0.1734 -139.9
 1.440  0.5156  161.5   6.242   74.4  0.0748   64.2  0.1732 -140.4
 1.460  0.5161  161.0   6.158   74.0  0.0758   64.0  0.1730 -140.8
 1.480  0.5168  160.6   6.075   73.7  0.0767   63.9  0.1729 -141.3
 1.500  0.5174  160.1   5.992   73.3  0.0777   63.8  0.1727 -141.7
 1.520  0.5180  159.6   5.918   73.0  0.0786   63.7  0.1726 -142.1
 1.540  0.5186  159.2   5.844   72.6  0.0796   63.6  0.1724 -142.6
 1.560  0.5193  158.7   5.770   72.2  0.0805   63.4  0.1723 -143.0
 1.580  0.5200  158.3   5.696   71.9  0.0815   63.3  0.1722 -143.5
 1.600  0.5207  157.8   5.623   71.5  0.0824   63.2  0.1721 -143.9
 1.620  0.5210  157.4   5.558   71.2  0.0833   63.1  0.1720 -144.3
 1.640  0.5213  157.0   5.493   70.8  0.0842   63.0  0.1720 -144.7
 1.660  0.5217  156.5   5.429   70.5  0.0852   62.8  0.1720 -145.1
 1.680  0.5221  156.1   5.364   70.2  0.0861   62.7  0.1719 -145.5
 1.700  0.5225  155.7   5.300   69.8  0.0870   62.6  0.1719 -145.9
 1.720  0.5229  155.3   5.241   69.5  0.0879   62.4  0.1720 -146.3
 1.740  0.5234  154.9   5.183   69.1  0.0889   62.3  0.1721 -146.7
 1.760  0.5239  154.4   5.125   68.8  0.0898   62.1  0.1722 -147.1
 1.780  0.5244  154.0   5.067   68.5  0.0908   62.0  0.1723 -147.5
 1.800  0.5250  153.6   5.009   68.1  0.0917   61.8  0.1724 -147.9
 1.820  0.5255  153.1   4.958   67.8  0.0926   61.7  0.1725 -148.3
 1.840  0.5261  152.7   4.907   67.4  0.0935   61.5  0.1726 -148.7
 1.860  0.5266  152.2   4.856   67.0  0.0945   61.4  0.1727 -149.1
 1.880  0.5273  151.8   4.805   66.7  0.0954   61.2  0.1728 -149.5
 1.900  0.5279  151.3   4.755   66.3  0.0963   61.1  0.1729 -149.9
 1.920  0.5285  150.9   4.708   66.0  0.0972   60.9  0.1731 -150.3
 1.940  0.5292  150.5   4.661   65.6  0.0981   60.8  0.1733 -150.7
 1.960  0.5299  150.1   4.614   65.3  0.0991   60.6  0.1735 -151.0
 1.980  0.5306  149.7   4.567   65.0  0.1000   60.5  0.1737 -151.4
 2.000  0.5313  149.3   4.521   64.6  0.1009   60.3  0.1739 -151.8
 2.020  0.5319  148.9   4.479   64.3  0.1018   60.1  0.1742 -152.2
 2.040  0.5326  148.5   4.438   64.0  0.1027   59.9  0.1745 -152.6
 2.060  0.5333  148.1   4.397   63.7  0.1036   59.8  0.1747 -153.0
 2.080  0.5340  147.7   4.355   63.4  0.1045   59.6  0.1750 -153.4
 2.100  0.5347  147.3   4.314   63.0  0.1054   59.4  0.1753 -153.8
 2.120  0.5355  146.9   4.273   62.7  0.1063   59.2  0.1757 -154.2
 2.140  0.5363  146.5   4.232   62.4  0.1073   59.1  0.1760 -154.6
 2.160  0.5371  146.1   4.192   62.0  0.1082   58.9  0.1763 -155.0
 2.180  0.5379  145.7   4.151   61.7  0.1091   58.8  0.1767 -155.4
 2.200  0.5388  145.3   4.111   61.3  0.1100   58.6  0.1770 -155.8
 2.220  0.5396  144.9   4.077   61.0  0.1109   58.4  0.1774 -156.2
 2.240  0.5403  144.6   4.042   60.7  0.1118   58.2  0.1778 -156.6
 2.260  0.5411  144.2   4.008   60.4  0.1126   58.1  0.1783 -157.0
 2.280  0.5420  143.8   3.974   60.0  0.1135   57.9  0.1787 -157.4
 2.300  0.5428  143.4   3.940   59.7  0.1144   57.7  0.1792 -157.8
 2.320  0.5437  143.1   3.906   59.4  0.1153   57.5  0.1797 -158.2
 2.340  0.5446  142.7   3.872   59.1  0.1161   57.4  0.1801 -158.6
 2.360  0.5455  142.3   3.839   58.7  0.1170   57.2  0.1806 -159.0
 2.380  0.5464  142.0   3.805   58.4  0.1179   57.1  0.1811 -159.4
 2.400  0.5474  141.6   3.772   58.0  0.1188   56.9  0.1816 -159.8
 2.420  0.5482  141.2   3.742   57.7  0.1197   56.7  0.1822 -160.2
 2.440  0.5490  140.9   3.713   57.4  0.1205   56.5  0.1828 -160.6
 2.460  0.5498  140.5   3.683   57.1  0.1214   56.3  0.1834 -161.0
 2.480  0.5507  140.1   3.653   56.8  0.1223   56.1  0.1841 -161.4
 2.500  0.5516  139.8   3.624   56.5  0.1231   56.0  0.1847 -161.8
 2.520  0.5525  139.4   3.595   56.1  0.1240   55.8  0.1853 -162.2
 2.540  0.5534  139.1   3.566   55.8  0.1249   55.6  0.1860 -162.6
 2.560  0.5543  138.7   3.537   55.5  0.1258   55.4  0.1866 -163.0
 2.580  0.5553  138.4   3.508   55.1  0.1266   55.3  0.1873 -163.4
 2.600  0.5563  138.0   3.479   54.8  0.1275   55.1  0.1880 -163.8
 2.620  0.5569  137.6   3.453   54.5  0.1283   54.9  0.1888 -164.2
 2.640  0.5576  137.3   3.428   54.2  0.1292   54.7  0.1895 -164.6
 2.660  0.5583  136.9   3.402   53.9  0.1300   54.5  0.1903 -164.9
 2.680  0.5590  136.5   3.377   53.6  0.1308   54.3  0.1911 -165.3
 2.700  0.5598  136.2   3.352   53.3  0.1317   54.1  0.1918 -165.7
 2.720  0.5605  135.8   3.327   53.0  0.1325   53.9  0.1926 -166.1
 2.740  0.5613  135.5   3.302   52.7  0.1334   53.7  0.1934 -166.4
 2.760  0.5621  135.1   3.277   52.4  0.1342   53.6  0.1943 -166.8
 2.780  0.5630  134.8   3.252   52.0  0.1351   53.4  0.1951 -167.1
 2.800  0.5638  134.4   3.227   51.7  0.1359   53.2  0.1959 -167.5
 2.820  0.5647  134.1   3.205   51.4  0.1367   53.0  0.1967 -167.9
 2.840  0.5656  133.8   3.182   51.1  0.1375   52.8  0.1976 -168.2
 2.860  0.5666  133.4   3.160   50.8  0.1383   52.6  0.1984 -168.6
 2.880  0.5675  133.1   3.138   50.6  0.1391   52.5  0.1993 -168.9
 2.900  0.5685  132.8   3.116   50.3  0.1399   52.3  0.2002 -169.2
 2.920  0.5695  132.5   3.094   50.0  0.1407   52.1  0.2010 -169.6
 2.940  0.5705  132.1   3.072   49.6  0.1416   51.9  0.2019 -169.9
 2.960  0.5716  131.8   3.050   49.3  0.1424   51.7  0.2028 -170.2
 2.980  0.5726  131.5   3.029   49.0  0.1432   51.6  0.2037 -170.6
 3.000  0.5737  131.2   3.007   48.7  0.1440   51.4  0.2046 -170.9
 3.100  0.5774  129.6   2.915   47.4  0.1478   50.4  0.2089 -172.6
 3.200  0.5816  128.0   2.824   46.1  0.1516   49.4  0.2133 -174.2
 3.300  0.5863  126.4   2.736   44.6  0.1555   48.5  0.2179 -175.7
 3.400  0.5914  124.8   2.649   43.1  0.1594   47.6  0.2226 -177.2
 3.500  0.5969  123.3   2.564   41.4  0.1634   46.8  0.2275 -178.6
 3.600  0.6017  121.9   2.494   40.2  0.1667   45.8  0.2324  179.6
 3.700  0.6070  120.5   2.426   38.9  0.1701   44.8  0.2376  177.9
 3.800  0.6125  119.1   2.358   37.5  0.1736   43.9  0.2429  176.3
 3.900  0.6184  117.7   2.292   36.0  0.1771   43.0  0.2484  174.8
 4.000  0.6247  116.4   2.228   34.5  0.1806   42.2  0.2541  173.3
 4.100  0.6297  115.2   2.172   33.3  0.1836   41.3  0.2601  171.7
 4.200  0.6350  114.0   2.118   32.1  0.1867   40.5  0.2664  170.2
 4.300  0.6406  112.8   2.064   30.8  0.1898   39.7  0.2728  168.8
 4.400  0.6465  111.6   2.011   29.4  0.1929   38.9  0.2794  167.4
 4.500  0.6526  110.5   1.960   28.0  0.1961   38.1  0.2861  166.1
 4.600  0.6561  109.4   1.917   26.9  0.1991   37.3  0.2910  165.0
 4.700  0.6599  108.3   1.875   25.8  0.2021   36.6  0.2960  163.9
 4.800  0.6640  107.2   1.834   24.7  0.2051   35.9  0.3010  162.9
 4.900  0.6682  106.2   1.794   23.5  0.2082   35.2  0.3062  161.9
 5.000  0.6727  105.1   1.754   22.2  0.2113   34.5  0.3115  160.9
 5.100  0.6752  104.2   1.721   21.2  0.2145   33.7  0.3147  160.1
 5.200  0.6778  103.2   1.688   20.2  0.2178   33.0  0.3180  159.3
 5.300  0.6806  102.3   1.656   19.1  0.2211   32.2  0.3213  158.5
 5.400  0.6836  101.4   1.625   18.0  0.2244   31.5  0.3247  157.7
 5.500  0.6868  100.5   1.594   16.8  0.2278   30.8  0.3281  156.9
 5.600  0.6887   99.7   1.568   15.8  0.2308   29.9  0.3318  156.1
 5.700  0.6907   99.0   1.542   14.7  0.2338   29.1  0.3356  155.3
 5.800  0.6929   98.2   1.517   13.6  0.2369   28.3  0.3394  154.6
 5.900  0.6951   97.5   1.493   12.5  0.2400   27.5  0.3433  153.8
 6.000  0.6975   96.7   1.469   11.3  0.2432   26.7  0.3472  153.1
 6.100  0.6978   95.9   1.447   10.3  0.2458   25.9  0.3497  152.6
 6.200  0.6982   95.1   1.425    9.3  0.2485   25.1  0.3522  152.2
 6.300  0.6987   94.4   1.403    8.3  0.2512   24.4  0.3548  151.7
 6.400  0.6993   93.6   1.382    7.2  0.2539   23.6  0.3573  151.2
 6.500  0.7001   92.8   1.362    6.1  0.2567   22.9  0.3599  150.8
 6.600  0.6994   91.9   1.345    5.1  0.2597   22.2  0.3596  150.4
 6.800  0.6984   90.0   1.312    3.2  0.2658   20.8  0.3590  149.7
 7.000  0.6982   88.2   1.280    1.1  0.2721   19.4  0.3584  148.9
 7.200  0.6997   86.0   1.254   -1.0  0.2786   17.7  0.3581  147.4
 7.400  0.7023   83.9   1.229   -3.2  0.2854   16.0  0.3581  145.9
 7.600  0.7059   81.5   1.205   -5.5  0.2918   14.2  0.3600  144.1
 7.800  0.7109   79.1   1.180   -7.9  0.2979   12.3  0.3640  141.8
 8.000  0.7172   76.6   1.157  -10.4  0.3043   10.4  0.3685  139.6
 8.200  0.7220   74.0   1.127  -12.7  0.3082    8.2  0.3731  136.8
 8.400  0.7283   71.5   1.099  -15.2  0.3126    6.0  0.3785  134.0
 8.600  0.7367   69.0   1.070  -17.6  0.3153    3.9  0.3855  130.7
 8.800  0.7469   66.7   1.039  -19.8  0.3162    1.8  0.3946  126.8
 9.000  0.7583   64.5   1.010  -22.2  0.3176   -0.3  0.4055  123.1
 9.200  0.7734   62.7   0.977  -24.0  0.3162   -1.9  0.4223  118.7
 9.400  0.7893   60.9   0.945  -25.9  0.3151   -3.5  0.4415  114.7
 9.600  0.8031   59.3   0.913  -27.6  0.3139   -4.8  0.4611  111.2
 9.800  0.8146   57.8   0.882  -29.0  0.3125   -5.7  0.4809  108.2
10.000  0.8267   56.4   0.852  -30.5  0.3112   -6.7  0.5018  105.4
!
!  f       NFmin   Gammaopt  rn/50
! GHz       dB    MAG  ANG    -
 0.450      2.02  0.36 -170   0.13
 0.900      2.06  0.34 -160   0.14
 1.900      2.16  0.44 -139   0.17
 3.500      1.86  0.70 -115   0.32
!
! (c) 2016  Infineon Technologies AG, Munich
