! Infineon Technologies  Discrete & RF Semiconductors
! BFP460
! VCE =  2.5 V,  IC =  8.0 mA
! Common Emitter S-Parameters:                            Jan 2016
# GHz  S  MA  R  50
!  f         S11            S21            S12            S22
! GHz     MAG   ANG      MAG   ANG      MAG   ANG      MAG   ANG
 0.030  0.8070   -7.8  24.095  175.0  0.0058   85.4  0.9795   -5.3
 0.035  0.8049   -9.1  24.055  174.0  0.0067   84.9  0.9781   -6.1
 0.040  0.8032  -10.4  24.022  173.0  0.0077   84.5  0.9769   -7.0
 0.045  0.8020  -11.6  23.928  171.9  0.0086   83.6  0.9753   -7.8
 0.050  0.8011  -12.9  23.844  170.7  0.0096   82.8  0.9739   -8.7
 0.055  0.7991  -14.2  23.795  170.0  0.0106   82.3  0.9720   -9.5
 0.060  0.7976  -15.5  23.750  169.3  0.0116   81.8  0.9704  -10.4
 0.065  0.7950  -16.8  23.777  168.3  0.0124   81.3  0.9682  -11.2
 0.070  0.7928  -18.2  23.811  167.4  0.0133   80.8  0.9662  -12.1
 0.075  0.7950  -19.5  23.719  166.8  0.0143   80.2  0.9635  -12.9
 0.080  0.7975  -20.7  23.629  166.2  0.0153   79.6  0.9610  -13.8
 0.085  0.7946  -21.9  23.560  165.3  0.0161   78.9  0.9578  -14.6
 0.090  0.7920  -23.2  23.497  164.4  0.0169   78.3  0.9549  -15.5
 0.095  0.7903  -24.4  23.353  163.7  0.0178   77.6  0.9518  -16.3
 0.100  0.7890  -25.6  23.213  162.9  0.0187   77.0  0.9489  -17.1
 0.105  0.7875  -26.8  23.158  162.2  0.0195   76.4  0.9454  -17.9
 0.110  0.7863  -28.1  23.106  161.4  0.0204   75.8  0.9422  -18.8
 0.115  0.7822  -29.4  23.021  160.6  0.0212   75.2  0.9384  -19.6
 0.120  0.7785  -30.8  22.942  159.7  0.0221   74.7  0.9347  -20.4
 0.125  0.7758  -31.8  22.835  159.0  0.0230   74.0  0.9306  -21.1
 0.130  0.7733  -32.9  22.731  158.3  0.0239   73.4  0.9267  -21.9
 0.135  0.7717  -34.2  22.651  157.5  0.0247   72.9  0.9227  -22.7
 0.140  0.7704  -35.5  22.575  156.6  0.0255   72.4  0.9189  -23.6
 0.145  0.7663  -36.6  22.428  155.8  0.0262   71.7  0.9146  -24.3
 0.150  0.7626  -37.8  22.285  155.0  0.0270   71.1  0.9104  -25.1
 0.155  0.7586  -38.9  22.159  154.3  0.0277   70.5  0.9051  -25.8
 0.160  0.7549  -40.0  22.036  153.7  0.0284   69.9  0.9000  -26.5
 0.165  0.7514  -41.1  21.916  153.0  0.0291   69.3  0.8950  -27.2
 0.170  0.7483  -42.3  21.800  152.3  0.0299   68.8  0.8901  -27.9
 0.175  0.7454  -43.4  21.686  151.6  0.0306   68.2  0.8854  -28.7
 0.180  0.7429  -44.5  21.576  150.9  0.0313   67.8  0.8808  -29.4
 0.185  0.7406  -45.7  21.469  150.2  0.0320   67.3  0.8764  -30.1
 0.190  0.7387  -46.9  21.365  149.5  0.0327   66.8  0.8721  -30.9
 0.195  0.7370  -48.0  21.265  148.7  0.0335   66.4  0.8680  -31.6
 0.200  0.7357  -49.2  21.168  148.0  0.0342   66.0  0.8640  -32.4
 0.220  0.7218  -53.3  20.631  145.5  0.0367   64.1  0.8430  -34.9
 0.240  0.7117  -57.5  20.135  142.9  0.0391   62.5  0.8236  -37.5
 0.260  0.7013  -61.5  19.634  140.5  0.0414   60.9  0.8038  -40.0
 0.280  0.6896  -65.3  19.118  138.3  0.0436   59.3  0.7831  -42.3
 0.300  0.6811  -69.2  18.633  135.9  0.0457   57.9  0.7638  -44.8
 0.320  0.6684  -72.7  18.120  133.9  0.0474   56.5  0.7439  -46.8
 0.340  0.6582  -76.3  17.630  131.9  0.0492   55.3  0.7249  -48.9
 0.360  0.6482  -79.6  17.155  129.9  0.0508   54.1  0.7064  -50.9
 0.380  0.6379  -82.8  16.690  128.1  0.0523   53.0  0.6881  -52.7
 0.400  0.6295  -86.0  16.242  126.2  0.0538   52.0  0.6705  -54.7
 0.420  0.6196  -88.9  15.802  124.6  0.0551   51.1  0.6537  -56.3
 0.440  0.6114  -92.0  15.375  123.0  0.0564   50.2  0.6373  -57.9
 0.450  0.6080  -93.5  15.167  122.1  0.0570   49.8  0.6294  -58.8
 0.460  0.6036  -94.8  14.968  121.4  0.0575   49.4  0.6216  -59.5
 0.480  0.5958  -97.5  14.577  120.1  0.0586   48.7  0.6065  -61.0
 0.500  0.5893 -100.2  14.195  118.6  0.0597   48.0  0.5917  -62.6
 0.520  0.5813 -102.5  13.845  117.4  0.0606   47.4  0.5783  -63.8
 0.540  0.5743 -104.8  13.501  116.2  0.0616   46.9  0.5652  -65.0
 0.560  0.5683 -107.2  13.163  115.0  0.0625   46.3  0.5523  -66.3
 0.580  0.5632 -109.6  12.832  113.6  0.0634   45.8  0.5397  -67.6
 0.600  0.5592 -112.1  12.509  112.2  0.0644   45.3  0.5274  -69.0
 0.620  0.5533 -114.0  12.224  111.2  0.0652   44.9  0.5165  -70.0
 0.640  0.5480 -116.0  11.943  110.2  0.0659   44.6  0.5058  -71.1
 0.660  0.5434 -118.1  11.666  109.2  0.0667   44.2  0.4953  -72.2
 0.680  0.5395 -120.1  11.393  108.1  0.0674   43.8  0.4850  -73.4
 0.700  0.5363 -122.2  11.124  106.9  0.0682   43.5  0.4749  -74.6
 0.720  0.5321 -123.9  10.891  106.1  0.0689   43.3  0.4662  -75.5
 0.740  0.5283 -125.7  10.660  105.2  0.0696   43.0  0.4577  -76.4
 0.760  0.5250 -127.4  10.432  104.3  0.0703   42.8  0.4492  -77.3
 0.780  0.5223 -129.2  10.207  103.4  0.0710   42.5  0.4409  -78.3
 0.800  0.5200 -131.0   9.984  102.4  0.0717   42.3  0.4327  -79.3
 0.820  0.5170 -132.5   9.796  101.7  0.0723   42.2  0.4256  -80.1
 0.840  0.5143 -134.0   9.609  101.0  0.0729   42.0  0.4186  -80.9
 0.860  0.5120 -135.6   9.424  100.2  0.0736   41.9  0.4117  -81.7
 0.880  0.5101 -137.1   9.241   99.4  0.0742   41.7  0.4048  -82.6
 0.900  0.5086 -138.7   9.059   98.6  0.0748   41.6  0.3981  -83.5
 0.920  0.5062 -140.0   8.899   97.9  0.0754   41.5  0.3923  -84.2
 0.940  0.5041 -141.4   8.741   97.3  0.0760   41.4  0.3865  -84.9
 0.960  0.5022 -142.8   8.583   96.6  0.0766   41.3  0.3808  -85.7
 0.980  0.5007 -144.1   8.428   95.9  0.0772   41.2  0.3752  -86.4
 1.000  0.4994 -145.5   8.273   95.1  0.0778   41.1  0.3696  -87.2
 1.020  0.4977 -146.7   8.136   94.5  0.0784   41.0  0.3648  -87.8
 1.040  0.4963 -147.9   8.001   93.9  0.0790   41.0  0.3601  -88.5
 1.060  0.4951 -149.1   7.866   93.2  0.0795   40.9  0.3555  -89.2
 1.080  0.4941 -150.3   7.733   92.6  0.0801   40.9  0.3509  -89.9
 1.100  0.4933 -151.5   7.600   91.9  0.0807   40.8  0.3463  -90.6
 1.120  0.4920 -152.6   7.484   91.4  0.0813   40.8  0.3422  -91.2
 1.140  0.4909 -153.7   7.369   90.8  0.0819   40.7  0.3382  -91.8
 1.160  0.4900 -154.8   7.255   90.2  0.0824   40.7  0.3342  -92.4
 1.180  0.4892 -156.0   7.142   89.6  0.0830   40.6  0.3303  -93.1
 1.200  0.4887 -157.1   7.029   89.0  0.0836   40.6  0.3264  -93.7
 1.220  0.4879 -158.1   6.929   88.5  0.0842   40.6  0.3231  -94.3
 1.240  0.4873 -159.1   6.830   88.0  0.0848   40.6  0.3197  -94.9
 1.260  0.4869 -160.1   6.731   87.4  0.0854   40.6  0.3165  -95.5
 1.280  0.4866 -161.1   6.633   86.9  0.0860   40.6  0.3132  -96.1
 1.300  0.4864 -162.1   6.535   86.3  0.0866   40.6  0.3100  -96.7
 1.320  0.4858 -163.0   6.448   85.8  0.0872   40.6  0.3070  -97.2
 1.340  0.4854 -164.0   6.362   85.3  0.0878   40.6  0.3041  -97.7
 1.360  0.4851 -164.9   6.276   84.8  0.0883   40.6  0.3012  -98.3
 1.380  0.4849 -165.9   6.191   84.2  0.0889   40.6  0.2983  -98.8
 1.400  0.4849 -166.8   6.106   83.7  0.0895   40.6  0.2955  -99.4
 1.420  0.4846 -167.7   6.030   83.2  0.0901   40.6  0.2931  -99.9
 1.440  0.4843 -168.6   5.954   82.7  0.0907   40.6  0.2908 -100.4
 1.460  0.4842 -169.4   5.878   82.2  0.0913   40.5  0.2885 -100.9
 1.480  0.4842 -170.3   5.803   81.7  0.0919   40.5  0.2862 -101.5
 1.500  0.4843 -171.2   5.729   81.2  0.0925   40.5  0.2839 -102.0
 1.520  0.4840 -172.0   5.661   80.8  0.0931   40.5  0.2817 -102.5
 1.540  0.4838 -172.9   5.593   80.4  0.0937   40.5  0.2795 -103.1
 1.560  0.4837 -173.7   5.526   79.9  0.0943   40.5  0.2774 -103.6
 1.580  0.4838 -174.6   5.459   79.5  0.0949   40.5  0.2753 -104.1
 1.600  0.4839 -175.4   5.392   79.0  0.0955   40.5  0.2732 -104.7
 1.620  0.4839 -176.1   5.333   78.6  0.0961   40.5  0.2714 -105.2
 1.640  0.4840 -176.8   5.274   78.1  0.0967   40.5  0.2696 -105.6
 1.660  0.4842 -177.6   5.215   77.7  0.0974   40.5  0.2678 -106.1
 1.680  0.4845 -178.3   5.157   77.2  0.0980   40.5  0.2660 -106.6
 1.700  0.4848 -179.0   5.099   76.7  0.0986   40.5  0.2643 -107.1
 1.720  0.4848 -179.7   5.045   76.3  0.0992   40.5  0.2627 -107.6
 1.740  0.4850  179.5   4.991   75.8  0.0998   40.5  0.2612 -108.0
 1.760  0.4852  178.8   4.937   75.4  0.1005   40.4  0.2596 -108.5
 1.780  0.4854  178.0   4.884   75.0  0.1011   40.4  0.2581 -109.0
 1.800  0.4858  177.3   4.831   74.5  0.1017   40.4  0.2566 -109.5
 1.820  0.4860  176.6   4.784   74.1  0.1023   40.4  0.2552 -110.0
 1.840  0.4862  175.9   4.736   73.7  0.1029   40.4  0.2538 -110.4
 1.860  0.4866  175.3   4.689   73.3  0.1036   40.3  0.2524 -110.9
 1.880  0.4869  174.6   4.643   72.9  0.1042   40.3  0.2510 -111.4
 1.900  0.4874  173.9   4.596   72.5  0.1048   40.3  0.2497 -111.9
 1.920  0.4877  173.2   4.552   72.1  0.1054   40.3  0.2485 -112.4
 1.940  0.4881  172.6   4.508   71.6  0.1060   40.2  0.2473 -112.8
 1.960  0.4886  171.9   4.464   71.2  0.1067   40.2  0.2462 -113.3
 1.980  0.4891  171.3   4.420   70.8  0.1073   40.1  0.2450 -113.8
 2.000  0.4897  170.6   4.377   70.3  0.1079   40.1  0.2439 -114.3
 2.020  0.4901  170.0   4.338   69.9  0.1085   40.1  0.2428 -114.8
 2.040  0.4905  169.3   4.299   69.6  0.1092   40.0  0.2418 -115.3
 2.060  0.4910  168.7   4.260   69.2  0.1098   40.0  0.2407 -115.8
 2.080  0.4915  168.1   4.222   68.8  0.1104   40.0  0.2397 -116.3
 2.100  0.4921  167.4   4.183   68.4  0.1110   39.9  0.2387 -116.7
 2.120  0.4928  166.8   4.145   68.0  0.1117   39.9  0.2377 -117.3
 2.140  0.4935  166.2   4.107   67.6  0.1123   39.9  0.2368 -117.8
 2.160  0.4943  165.5   4.070   67.2  0.1129   39.9  0.2358 -118.3
 2.180  0.4951  164.9   4.032   66.7  0.1136   39.8  0.2349 -118.8
 2.200  0.4960  164.3   3.995   66.3  0.1142   39.8  0.2340 -119.3
 2.220  0.4966  163.7   3.962   65.9  0.1148   39.7  0.2332 -119.8
 2.240  0.4972  163.2   3.930   65.6  0.1155   39.7  0.2324 -120.3
 2.260  0.4979  162.6   3.897   65.2  0.1161   39.6  0.2316 -120.8
 2.280  0.4986  162.0   3.865   64.9  0.1168   39.6  0.2308 -121.3
 2.300  0.4994  161.5   3.833   64.5  0.1174   39.5  0.2301 -121.8
 2.320  0.5002  160.9   3.801   64.1  0.1180   39.5  0.2293 -122.3
 2.340  0.5010  160.4   3.769   63.7  0.1187   39.4  0.2286 -122.8
 2.360  0.5019  159.8   3.738   63.3  0.1193   39.4  0.2279 -123.4
 2.380  0.5029  159.3   3.706   62.9  0.1200   39.3  0.2273 -123.9
 2.400  0.5039  158.7   3.675   62.5  0.1206   39.3  0.2266 -124.4
 2.420  0.5046  158.2   3.647   62.2  0.1212   39.2  0.2261 -124.9
 2.440  0.5053  157.6   3.618   61.8  0.1219   39.2  0.2256 -125.4
 2.460  0.5060  157.1   3.590   61.5  0.1225   39.1  0.2251 -126.0
 2.480  0.5068  156.5   3.562   61.1  0.1231   39.1  0.2247 -126.5
 2.500  0.5077  156.0   3.534   60.7  0.1237   39.0  0.2242 -127.0
 2.520  0.5086  155.4   3.506   60.4  0.1244   38.9  0.2238 -127.6
 2.540  0.5095  154.9   3.479   60.0  0.1250   38.9  0.2234 -128.1
 2.560  0.5105  154.4   3.451   59.6  0.1256   38.8  0.2230 -128.6
 2.580  0.5115  153.8   3.424   59.2  0.1263   38.8  0.2226 -129.2
 2.600  0.5126  153.3   3.397   58.8  0.1269   38.7  0.2223 -129.7
 2.620  0.5134  152.8   3.373   58.5  0.1275   38.6  0.2221 -130.2
 2.640  0.5142  152.3   3.348   58.1  0.1281   38.5  0.2218 -130.7
 2.660  0.5150  151.8   3.324   57.8  0.1288   38.5  0.2216 -131.3
 2.680  0.5159  151.3   3.300   57.4  0.1294   38.4  0.2214 -131.8
 2.700  0.5168  150.8   3.276   57.1  0.1300   38.3  0.2213 -132.3
 2.720  0.5178  150.3   3.252   56.7  0.1306   38.2  0.2211 -132.8
 2.740  0.5188  149.9   3.228   56.3  0.1312   38.1  0.2210 -133.3
 2.760  0.5198  149.4   3.205   56.0  0.1319   38.1  0.2209 -133.9
 2.780  0.5209  148.9   3.181   55.6  0.1325   38.0  0.2208 -134.4
 2.800  0.5220  148.4   3.158   55.2  0.1331   37.9  0.2207 -134.9
 2.820  0.5228  147.9   3.136   54.9  0.1337   37.8  0.2207 -135.4
 2.840  0.5236  147.5   3.115   54.5  0.1343   37.7  0.2206 -135.9
 2.860  0.5245  147.0   3.094   54.2  0.1350   37.7  0.2206 -136.4
 2.880  0.5254  146.5   3.072   53.9  0.1356   37.6  0.2206 -136.9
 2.900  0.5264  146.1   3.051   53.5  0.1362   37.5  0.2206 -137.5
 2.920  0.5274  145.6   3.030   53.2  0.1368   37.4  0.2207 -138.0
 2.940  0.5284  145.2   3.009   52.8  0.1374   37.3  0.2207 -138.5
 2.960  0.5294  144.7   2.988   52.4  0.1381   37.3  0.2208 -139.0
 2.980  0.5305  144.3   2.968   52.1  0.1387   37.2  0.2209 -139.5
 3.000  0.5316  143.8   2.947   51.7  0.1393   37.1  0.2210 -140.0
 3.100  0.5353  141.6   2.858   50.3  0.1423   36.6  0.2216 -142.3
 3.200  0.5397  139.5   2.770   48.7  0.1453   36.1  0.2226 -144.7
 3.300  0.5449  137.4   2.685   47.1  0.1483   35.7  0.2239 -147.0
 3.400  0.5507  135.4   2.602   45.4  0.1513   35.2  0.2256 -149.3
 3.500  0.5573  133.4   2.522   43.5  0.1543   34.8  0.2276 -151.5
 3.600  0.5624  131.5   2.453   42.1  0.1571   34.2  0.2293 -153.9
 3.700  0.5681  129.7   2.386   40.7  0.1598   33.7  0.2315 -156.2
 3.800  0.5744  127.9   2.321   39.1  0.1626   33.2  0.2340 -158.6
 3.900  0.5812  126.1   2.257   37.5  0.1654   32.7  0.2369 -160.8
 4.000  0.5886  124.4   2.195   35.8  0.1682   32.2  0.2401 -163.0
 4.100  0.5938  122.9   2.140   34.5  0.1708   31.7  0.2438 -165.2
 4.200  0.5995  121.4   2.087   33.2  0.1733   31.2  0.2479 -167.4
 4.300  0.6055  120.0   2.035   31.8  0.1759   30.7  0.2524 -169.5
 4.400  0.6118  118.6   1.984   30.3  0.1785   30.2  0.2571 -171.5
 4.500  0.6186  117.2   1.934   28.7  0.1811   29.7  0.2622 -173.4
 4.600  0.6226  115.9   1.891   27.5  0.1837   29.2  0.2661 -174.9
 4.700  0.6270  114.6   1.850   26.3  0.1862   28.8  0.2703 -176.4
 4.800  0.6317  113.3   1.809   25.0  0.1888   28.3  0.2745 -177.8
 4.900  0.6367  112.0   1.769   23.6  0.1914   27.9  0.2790 -179.2
 5.000  0.6420  110.8   1.730   22.2  0.1940   27.5  0.2836  179.5
 5.100  0.6449  109.7   1.697   21.1  0.1969   27.0  0.2868  178.4
 5.200  0.6481  108.7   1.664   20.0  0.1998   26.5  0.2900  177.3
 5.300  0.6514  107.6   1.632   18.8  0.2028   26.0  0.2934  176.3
 5.400  0.6550  106.6   1.601   17.6  0.2057   25.5  0.2969  175.3
 5.500  0.6588  105.6   1.570   16.3  0.2087   25.0  0.3004  174.3
 5.600  0.6612  104.7   1.544   15.2  0.2115   24.4  0.3043  173.3
 5.700  0.6637  103.9   1.518   14.1  0.2143   23.8  0.3084  172.3
 5.800  0.6664  103.0   1.493   12.9  0.2171   23.2  0.3125  171.3
 5.900  0.6692  102.1   1.469   11.7  0.2199   22.6  0.3167  170.4
 6.000  0.6722  101.3   1.445   10.4  0.2228   22.0  0.3210  169.5
 6.100  0.6728  100.4   1.422    9.4  0.2253   21.4  0.3243  168.8
 6.200  0.6735   99.6   1.400    8.3  0.2278   20.8  0.3277  168.1
 6.300  0.6744   98.7   1.379    7.2  0.2304   20.2  0.3311  167.5
 6.400  0.6755   97.9   1.358    6.1  0.2329   19.7  0.3346  166.8
 6.500  0.6767   97.0   1.337    4.9  0.2355   19.1  0.3381  166.2
 6.600  0.6763   96.0   1.319    3.9  0.2384   18.5  0.3388  165.8
 6.800  0.6760   94.1   1.285    1.9  0.2441   17.4  0.3403  164.9
 7.000  0.6765   92.1   1.253   -0.3  0.2500   16.4  0.3419  164.1
 7.200  0.6788   89.8   1.226   -2.5  0.2565   15.0  0.3426  162.6
 7.400  0.6822   87.5   1.201   -4.7  0.2631   13.7  0.3436  161.1
 7.600  0.6868   85.1   1.176   -7.1  0.2694   12.2  0.3460  159.1
 7.800  0.6928   82.5   1.151   -9.5  0.2757   10.6  0.3500  156.7
 8.000  0.7002   79.9   1.128  -12.1  0.2821    9.0  0.3546  154.3
 8.200  0.7060   77.1   1.098  -14.5  0.2868    7.0  0.3587  151.2
 8.400  0.7133   74.4   1.071  -17.1  0.2918    5.0  0.3639  148.3
 8.600  0.7227   71.8   1.042  -19.5  0.2952    3.1  0.3696  144.6
 8.800  0.7339   69.4   1.012  -21.8  0.2971    1.1  0.3767  140.3
 9.000  0.7465   67.0   0.984  -24.2  0.2993   -0.8  0.3858  136.2
 9.200  0.7621   65.0   0.952  -26.1  0.2990   -2.3  0.4006  131.2
 9.400  0.7786   63.0   0.921  -28.1  0.2989   -3.8  0.4181  126.6
 9.600  0.7931   61.3   0.890  -29.8  0.2985   -5.1  0.4370  122.6
 9.800  0.8054   59.7   0.859  -31.4  0.2978   -6.0  0.4568  118.9
10.000  0.8182   58.2   0.829  -33.0  0.2972   -7.0  0.4783  115.6
!
!  f       NFmin   Gammaopt  rn/50
! GHz       dB    MAG  ANG    -
 0.450      0.89  0.20   13   0.14
 1.900      1.10  0.09  121   0.12
 3.500      1.17  0.33 -142   0.11
!
! (c) 2016  Infineon Technologies AG, Munich
