! Infineon Technologies  Discrete & RF Semiconductors
! BFP460
! VCE =  2.5 V,  IC =  2.0 mA
! Common Emitter S-Parameters:                            Jan 2016
# GHz  S  MA  R  50
!  f         S11            S21            S12            S22
! GHz     MAG   ANG      MAG   ANG      MAG   ANG      MAG   ANG
 0.030  0.9455   -3.4   7.102  177.9  0.0062   87.9  0.9952   -2.2
 0.035  0.9454   -4.0   7.095  177.3  0.0073   87.2  0.9948   -2.5
 0.040  0.9454   -4.6   7.088  176.7  0.0084   86.7  0.9945   -2.8
 0.045  0.9468   -5.0   7.075  176.0  0.0094   86.6  0.9942   -3.1
 0.050  0.9482   -5.4   7.064  175.3  0.0105   86.6  0.9940   -3.4
 0.055  0.9451   -6.2   7.061  175.0  0.0115   86.1  0.9937   -3.7
 0.060  0.9423   -7.1   7.059  174.7  0.0126   85.6  0.9935   -4.1
 0.065  0.9439   -7.7   7.089  174.2  0.0136   85.1  0.9931   -4.4
 0.070  0.9456   -8.2   7.120  173.7  0.0147   84.7  0.9928   -4.8
 0.075  0.9447   -8.7   7.103  173.6  0.0157   84.5  0.9925   -5.1
 0.080  0.9439   -9.3   7.086  173.4  0.0167   84.3  0.9922   -5.5
 0.085  0.9427   -9.8   7.088  172.9  0.0178   83.8  0.9914   -5.8
 0.090  0.9416  -10.3   7.091  172.4  0.0189   83.3  0.9907   -6.2
 0.095  0.9411  -10.8   7.066  172.0  0.0199   83.2  0.9902   -6.5
 0.100  0.9407  -11.4   7.042  171.6  0.0209   83.2  0.9897   -6.8
 0.105  0.9417  -12.1   7.048  171.2  0.0219   82.6  0.9890   -7.1
 0.110  0.9428  -12.7   7.055  170.9  0.0230   82.1  0.9883   -7.5
 0.115  0.9412  -13.2   7.059  170.4  0.0240   81.8  0.9877   -7.8
 0.120  0.9396  -13.8   7.064  170.0  0.0250   81.6  0.9871   -8.2
 0.125  0.9394  -14.3   7.055  169.7  0.0260   81.2  0.9862   -8.5
 0.130  0.9392  -14.8   7.047  169.3  0.0271   80.9  0.9854   -8.8
 0.135  0.9383  -15.3   7.051  168.8  0.0281   80.6  0.9846   -9.1
 0.140  0.9374  -15.9   7.056  168.3  0.0291   80.3  0.9838   -9.5
 0.145  0.9359  -16.5   7.040  167.9  0.0301   79.9  0.9829   -9.8
 0.150  0.9345  -17.1   7.024  167.4  0.0312   79.6  0.9820  -10.2
 0.155  0.9334  -17.7   7.017  167.0  0.0322   79.2  0.9809  -10.5
 0.160  0.9325  -18.2   7.010  166.6  0.0331   78.8  0.9798  -10.8
 0.165  0.9316  -18.8   7.004  166.2  0.0341   78.4  0.9787  -11.2
 0.170  0.9308  -19.3   6.997  165.8  0.0351   78.1  0.9777  -11.5
 0.175  0.9301  -19.9   6.991  165.5  0.0361   77.7  0.9767  -11.8
 0.180  0.9295  -20.5   6.986  165.1  0.0371   77.4  0.9757  -12.1
 0.185  0.9289  -21.0   6.981  164.7  0.0380   77.1  0.9747  -12.4
 0.190  0.9285  -21.6   6.976  164.3  0.0390   76.8  0.9738  -12.8
 0.195  0.9282  -22.1   6.971  163.9  0.0400   76.6  0.9730  -13.1
 0.200  0.9279  -22.7   6.967  163.5  0.0410   76.3  0.9721  -13.4
 0.220  0.9229  -24.9   6.924  161.9  0.0448   74.8  0.9669  -14.7
 0.240  0.9192  -27.1   6.887  160.3  0.0487   73.5  0.9622  -16.0
 0.260  0.9149  -29.3   6.845  158.8  0.0524   72.2  0.9568  -17.3
 0.280  0.9100  -31.4   6.799  157.2  0.0560   70.9  0.9507  -18.6
 0.300  0.9063  -33.6   6.758  155.7  0.0597   69.7  0.9451  -19.9
 0.320  0.8999  -35.7   6.704  154.2  0.0631   68.4  0.9383  -21.1
 0.340  0.8947  -37.9   6.655  152.6  0.0666   67.2  0.9319  -22.3
 0.360  0.8894  -40.0   6.602  151.1  0.0699   66.0  0.9250  -23.5
 0.380  0.8839  -42.0   6.545  149.7  0.0731   64.8  0.9177  -24.6
 0.400  0.8795  -44.0   6.492  148.2  0.0763   63.7  0.9107  -25.7
 0.420  0.8720  -46.1   6.432  146.8  0.0794   62.5  0.9033  -26.8
 0.440  0.8656  -48.1   6.376  145.3  0.0824   61.3  0.8962  -28.0
 0.450  0.8629  -49.2   6.350  144.6  0.0840   60.8  0.8928  -28.6
 0.460  0.8594  -50.1   6.317  144.0  0.0854   60.2  0.8887  -29.1
 0.480  0.8531  -52.1   6.253  142.6  0.0881   59.1  0.8806  -30.1
 0.500  0.8478  -54.0   6.193  141.3  0.0909   58.1  0.8728  -31.1
 0.520  0.8396  -55.8   6.125  140.0  0.0934   57.0  0.8645  -32.1
 0.540  0.8322  -57.7   6.061  138.7  0.0958   55.9  0.8565  -33.0
 0.560  0.8257  -59.6   5.999  137.4  0.0984   54.9  0.8488  -34.0
 0.580  0.8202  -61.5   5.941  136.0  0.1009   53.9  0.8413  -35.1
 0.600  0.8156  -63.5   5.887  134.6  0.1035   53.0  0.8341  -36.1
 0.620  0.8077  -65.2   5.819  133.5  0.1055   52.0  0.8257  -37.0
 0.640  0.8005  -67.0   5.753  132.3  0.1076   51.1  0.8175  -37.8
 0.660  0.7941  -68.8   5.689  131.1  0.1097   50.1  0.8096  -38.7
 0.680  0.7885  -70.6   5.628  129.9  0.1118   49.3  0.8018  -39.7
 0.700  0.7837  -72.4   5.570  128.6  0.1140   48.4  0.7942  -40.6
 0.720  0.7767  -74.0   5.503  127.5  0.1157   47.5  0.7862  -41.4
 0.740  0.7704  -75.6   5.439  126.4  0.1174   46.7  0.7784  -42.2
 0.760  0.7647  -77.3   5.376  125.3  0.1191   45.9  0.7708  -43.0
 0.780  0.7596  -79.0   5.315  124.2  0.1209   45.1  0.7633  -43.8
 0.800  0.7552  -80.7   5.257  123.0  0.1227   44.3  0.7560  -44.7
 0.820  0.7486  -82.3   5.197  122.0  0.1241   43.5  0.7485  -45.4
 0.840  0.7425  -83.8   5.139  121.1  0.1256   42.8  0.7412  -46.1
 0.860  0.7370  -85.4   5.083  120.1  0.1271   42.0  0.7339  -46.8
 0.880  0.7321  -87.1   5.027  119.0  0.1286   41.3  0.7268  -47.6
 0.900  0.7278  -88.7   4.974  118.0  0.1301   40.6  0.7198  -48.3
 0.920  0.7218  -90.1   4.917  117.1  0.1313   39.9  0.7130  -48.9
 0.940  0.7162  -91.6   4.862  116.1  0.1324   39.2  0.7062  -49.6
 0.960  0.7111  -93.1   4.807  115.2  0.1336   38.6  0.6996  -50.2
 0.980  0.7064  -94.6   4.754  114.2  0.1349   37.9  0.6931  -50.9
 1.000  0.7023  -96.1   4.703  113.2  0.1361   37.3  0.6866  -51.6
 1.020  0.6972  -97.5   4.649  112.3  0.1371   36.7  0.6804  -52.2
 1.040  0.6925  -98.8   4.597  111.5  0.1381   36.1  0.6742  -52.8
 1.060  0.6882 -100.2   4.545  110.6  0.1391   35.5  0.6681  -53.4
 1.080  0.6843 -101.7   4.495  109.6  0.1401   34.9  0.6621  -54.1
 1.100  0.6808 -103.1   4.446  108.7  0.1411   34.3  0.6562  -54.7
 1.120  0.6762 -104.4   4.397  107.9  0.1419   33.7  0.6505  -55.2
 1.140  0.6719 -105.7   4.349  107.1  0.1427   33.2  0.6449  -55.8
 1.160  0.6679 -107.0   4.301  106.3  0.1436   32.7  0.6393  -56.3
 1.180  0.6643 -108.4   4.255  105.5  0.1444   32.1  0.6338  -56.8
 1.200  0.6611 -109.7   4.209  104.6  0.1453   31.6  0.6284  -57.4
 1.220  0.6572 -111.0   4.165  103.9  0.1460   31.1  0.6233  -57.9
 1.240  0.6536 -112.2   4.121  103.1  0.1466   30.6  0.6182  -58.4
 1.260  0.6503 -113.5   4.078  102.3  0.1473   30.1  0.6131  -58.9
 1.280  0.6473 -114.8   4.036  101.5  0.1480   29.6  0.6081  -59.5
 1.300  0.6447 -116.1   3.995  100.7  0.1487   29.1  0.6032  -60.0
 1.320  0.6413 -117.3   3.954  100.0  0.1492   28.7  0.5984  -60.4
 1.340  0.6382 -118.5   3.914   99.3  0.1497   28.2  0.5936  -60.9
 1.360  0.6353 -119.7   3.875   98.5  0.1502   27.8  0.5888  -61.4
 1.380  0.6328 -121.0   3.836   97.8  0.1508   27.3  0.5841  -61.8
 1.400  0.6305 -122.2   3.798   97.0  0.1513   26.9  0.5794  -62.3
 1.420  0.6274 -123.3   3.761   96.3  0.1517   26.5  0.5752  -62.7
 1.440  0.6245 -124.5   3.724   95.6  0.1522   26.1  0.5711  -63.2
 1.460  0.6219 -125.7   3.687   94.9  0.1527   25.7  0.5669  -63.6
 1.480  0.6195 -126.8   3.651   94.2  0.1531   25.3  0.5629  -64.0
 1.500  0.6174 -128.0   3.616   93.5  0.1536   24.9  0.5588  -64.5
 1.520  0.6146 -129.1   3.581   92.8  0.1539   24.6  0.5548  -64.9
 1.540  0.6121 -130.2   3.547   92.2  0.1543   24.2  0.5508  -65.3
 1.560  0.6098 -131.3   3.514   91.5  0.1546   23.9  0.5468  -65.7
 1.580  0.6077 -132.5   3.481   90.8  0.1549   23.5  0.5429  -66.2
 1.600  0.6059 -133.6   3.448   90.1  0.1553   23.2  0.5390  -66.6
 1.620  0.6039 -134.6   3.417   89.5  0.1556   22.9  0.5356  -67.0
 1.640  0.6021 -135.7   3.386   88.9  0.1559   22.5  0.5323  -67.3
 1.660  0.6004 -136.7   3.356   88.2  0.1562   22.2  0.5290  -67.7
 1.680  0.5990 -137.7   3.326   87.6  0.1565   21.8  0.5257  -68.1
 1.700  0.5978 -138.8   3.296   86.9  0.1568   21.5  0.5224  -68.5
 1.720  0.5961 -139.8   3.267   86.3  0.1570   21.2  0.5192  -68.9
 1.740  0.5946 -140.8   3.238   85.8  0.1573   20.9  0.5160  -69.3
 1.760  0.5933 -141.8   3.210   85.2  0.1575   20.5  0.5129  -69.7
 1.780  0.5922 -142.8   3.182   84.6  0.1578   20.2  0.5098  -70.1
 1.800  0.5912 -143.8   3.154   84.0  0.1580   19.9  0.5067  -70.5
 1.820  0.5896 -144.8   3.128   83.4  0.1582   19.6  0.5037  -70.9
 1.840  0.5882 -145.7   3.102   82.8  0.1583   19.3  0.5008  -71.2
 1.860  0.5870 -146.7   3.077   82.2  0.1585   19.1  0.4978  -71.6
 1.880  0.5860 -147.7   3.052   81.6  0.1587   18.8  0.4949  -71.9
 1.900  0.5851 -148.7   3.027   81.0  0.1589   18.5  0.4920  -72.3
 1.920  0.5838 -149.6   3.002   80.4  0.1590   18.2  0.4894  -72.7
 1.940  0.5827 -150.6   2.978   79.9  0.1592   18.0  0.4867  -73.0
 1.960  0.5817 -151.5   2.953   79.3  0.1593   17.7  0.4841  -73.4
 1.980  0.5809 -152.5   2.930   78.7  0.1595   17.5  0.4816  -73.7
 2.000  0.5803 -153.4   2.906   78.1  0.1596   17.2  0.4790  -74.1
 2.020  0.5792 -154.3   2.883   77.6  0.1597   17.0  0.4765  -74.4
 2.040  0.5782 -155.2   2.860   77.1  0.1597   16.7  0.4741  -74.8
 2.060  0.5774 -156.1   2.837   76.5  0.1598   16.5  0.4717  -75.1
 2.080  0.5767 -157.0   2.815   76.0  0.1599   16.2  0.4693  -75.5
 2.100  0.5761 -157.9   2.793   75.5  0.1600   16.0  0.4669  -75.9
 2.120  0.5757 -158.8   2.771   74.9  0.1600   15.8  0.4646  -76.2
 2.140  0.5754 -159.7   2.749   74.3  0.1601   15.5  0.4622  -76.6
 2.160  0.5753 -160.6   2.728   73.8  0.1602   15.3  0.4599  -77.0
 2.180  0.5753 -161.5   2.707   73.2  0.1603   15.0  0.4576  -77.3
 2.200  0.5755 -162.4   2.686   72.6  0.1604   14.8  0.4553  -77.7
 2.220  0.5748 -163.2   2.666   72.1  0.1604   14.6  0.4532  -78.0
 2.240  0.5741 -164.1   2.647   71.6  0.1604   14.4  0.4510  -78.4
 2.260  0.5736 -164.9   2.628   71.1  0.1604   14.2  0.4489  -78.7
 2.280  0.5733 -165.8   2.609   70.6  0.1604   14.0  0.4468  -79.1
 2.300  0.5730 -166.6   2.590   70.1  0.1604   13.9  0.4447  -79.5
 2.320  0.5729 -167.4   2.571   69.6  0.1604   13.7  0.4427  -79.8
 2.340  0.5729 -168.3   2.553   69.0  0.1604   13.5  0.4406  -80.2
 2.360  0.5730 -169.1   2.535   68.5  0.1604   13.3  0.4386  -80.6
 2.380  0.5732 -170.0   2.517   68.0  0.1604   13.1  0.4366  -80.9
 2.400  0.5736 -170.8   2.499   67.4  0.1604   12.9  0.4346  -81.3
 2.420  0.5733 -171.6   2.481   66.9  0.1603   12.7  0.4328  -81.7
 2.440  0.5730 -172.4   2.464   66.5  0.1603   12.6  0.4309  -82.0
 2.460  0.5729 -173.1   2.447   66.0  0.1602   12.4  0.4291  -82.4
 2.480  0.5729 -173.9   2.430   65.5  0.1602   12.2  0.4273  -82.7
 2.500  0.5730 -174.7   2.413   65.0  0.1601   12.1  0.4256  -83.1
 2.520  0.5732 -175.5   2.396   64.5  0.1601   11.9  0.4238  -83.5
 2.540  0.5735 -176.3   2.379   64.0  0.1600   11.7  0.4221  -83.9
 2.560  0.5739 -177.0   2.363   63.5  0.1600   11.5  0.4204  -84.2
 2.580  0.5744 -177.8   2.347   62.9  0.1599   11.4  0.4187  -84.6
 2.600  0.5750 -178.6   2.331   62.4  0.1599   11.2  0.4170  -85.0
 2.620  0.5749 -179.3   2.316   62.0  0.1598   11.1  0.4155  -85.4
 2.640  0.5750  180.0   2.300   61.5  0.1597   10.9  0.4141  -85.7
 2.660  0.5751  179.3   2.285   61.1  0.1596   10.8  0.4127  -86.1
 2.680  0.5753  178.6   2.270   60.6  0.1595   10.6  0.4113  -86.5
 2.700  0.5755  177.8   2.255   60.1  0.1594   10.5  0.4099  -86.9
 2.720  0.5759  177.1   2.240   59.7  0.1593   10.3  0.4085  -87.2
 2.740  0.5764  176.4   2.226   59.2  0.1593   10.2  0.4071  -87.6
 2.760  0.5769  175.7   2.211   58.7  0.1592   10.0  0.4058  -88.0
 2.780  0.5776  175.0   2.197   58.2  0.1591    9.9  0.4045  -88.4
 2.800  0.5783  174.3   2.183   57.7  0.1590    9.7  0.4032  -88.8
 2.820  0.5785  173.6   2.169   57.3  0.1589    9.6  0.4019  -89.2
 2.840  0.5787  172.9   2.155   56.8  0.1588    9.5  0.4007  -89.6
 2.860  0.5791  172.2   2.141   56.4  0.1586    9.4  0.3995  -89.9
 2.880  0.5795  171.5   2.128   55.9  0.1585    9.3  0.3983  -90.3
 2.900  0.5800  170.8   2.114   55.5  0.1584    9.2  0.3971  -90.7
 2.920  0.5807  170.1   2.101   55.0  0.1583    9.1  0.3959  -91.1
 2.940  0.5813  169.5   2.088   54.5  0.1582    9.0  0.3947  -91.5
 2.960  0.5821  168.8   2.075   54.1  0.1580    8.9  0.3936  -91.9
 2.980  0.5830  168.1   2.062   53.6  0.1579    8.8  0.3925  -92.3
 3.000  0.5839  167.4   2.049   53.1  0.1578    8.7  0.3914  -92.7
 3.100  0.5845  164.4   1.989   51.2  0.1571    8.4  0.3867  -94.5
 3.200  0.5867  161.3   1.931   49.3  0.1563    8.1  0.3825  -96.4
 3.300  0.5905  158.3   1.875   47.2  0.1556    7.7  0.3786  -98.3
 3.400  0.5959  155.4   1.822   44.9  0.1548    7.4  0.3753 -100.3
 3.500  0.6029  152.5   1.772   42.6  0.1541    7.1  0.3723 -102.3
 3.600  0.6057  149.9   1.724   40.9  0.1535    7.1  0.3692 -104.3
 3.700  0.6097  147.3   1.678   39.0  0.1528    7.1  0.3665 -106.3
 3.800  0.6150  144.7   1.634   37.1  0.1522    7.0  0.3642 -108.3
 3.900  0.6215  142.2   1.592   35.0  0.1515    7.0  0.3625 -110.4
 4.000  0.6291  139.8   1.552   32.9  0.1509    7.0  0.3612 -112.5
 4.100  0.6330  137.7   1.513   31.3  0.1506    7.2  0.3606 -114.7
 4.200  0.6378  135.6   1.476   29.6  0.1503    7.5  0.3606 -117.0
 4.300  0.6434  133.6   1.439   27.9  0.1500    7.7  0.3611 -119.2
 4.400  0.6498  131.6   1.404   26.0  0.1497    8.0  0.3622 -121.4
 4.500  0.6570  129.6   1.371   24.1  0.1494    8.2  0.3638 -123.6
 4.600  0.6603  127.9   1.339   22.7  0.1497    8.7  0.3661 -125.6
 4.700  0.6642  126.3   1.308   21.2  0.1500    9.2  0.3688 -127.6
 4.800  0.6687  124.6   1.279   19.6  0.1503    9.6  0.3719 -129.6
 4.900  0.6737  123.0   1.250   17.9  0.1506   10.1  0.3755 -131.5
 5.000  0.6792  121.4   1.222   16.2  0.1509   10.6  0.3795 -133.4
 5.100  0.6823  120.0   1.196   14.9  0.1522   11.1  0.3829 -135.1
 5.200  0.6859  118.6   1.172   13.6  0.1536   11.6  0.3867 -136.8
 5.300  0.6898  117.3   1.147   12.2  0.1549   12.1  0.3908 -138.5
 5.400  0.6941  115.9   1.124   10.7  0.1563   12.5  0.3953 -140.1
 5.500  0.6988  114.6   1.101    9.2  0.1577   13.0  0.4000 -141.7
 5.600  0.7016  113.5   1.081    8.0  0.1597   13.3  0.4044 -143.5
 5.700  0.7047  112.3   1.061    6.8  0.1617   13.6  0.4091 -145.2
 5.800  0.7081  111.2   1.042    5.5  0.1637   13.9  0.4142 -146.9
 5.900  0.7117  110.1   1.023    4.2  0.1658   14.1  0.4197 -148.6
 6.000  0.7156  109.0   1.005    2.8  0.1678   14.4  0.4255 -150.2
 6.100  0.7164  108.0   0.988    1.7  0.1701   14.6  0.4302 -151.7
 6.200  0.7175  106.9   0.971    0.6  0.1724   14.7  0.4351 -153.2
 6.300  0.7188  105.9   0.954   -0.6  0.1748   14.9  0.4404 -154.6
 6.400  0.7203  104.8   0.938   -1.8  0.1771   15.0  0.4459 -156.0
 6.500  0.7221  103.8   0.922   -3.1  0.1794   15.2  0.4517 -157.4
 6.600  0.7221  102.7   0.908   -4.1  0.1824   15.3  0.4549 -158.5
 6.800  0.7229  100.4   0.880   -6.1  0.1883   15.5  0.4617 -160.5
 7.000  0.7249   98.1   0.854   -8.3  0.1942   15.7  0.4691 -162.5
 7.200  0.7277   95.5   0.833  -10.3  0.2018   15.4  0.4725 -164.9
 7.400  0.7321   92.9   0.813  -12.4  0.2093   15.0  0.4768 -167.3
 7.600  0.7373   90.1   0.793  -14.6  0.2172   14.4  0.4809 -170.1
 7.800  0.7438   87.1   0.774  -16.8  0.2255   13.5  0.4854 -173.3
 8.000  0.7524   84.1   0.757  -19.2  0.2338   12.6  0.4913 -176.4
 8.200  0.7572   80.9   0.736  -21.3  0.2414   11.0  0.4943 -180.0
 8.400  0.7642   77.8   0.716  -23.6  0.2492    9.5  0.4992  176.5
 8.600  0.7724   74.8   0.697  -25.7  0.2556    7.9  0.5026  172.6
 8.800  0.7815   72.0   0.676  -27.7  0.2607    6.1  0.5053  168.2
 9.000  0.7925   69.2   0.657  -29.8  0.2661    4.4  0.5109  163.8
 9.200  0.8052   66.9   0.635  -31.4  0.2688    2.8  0.5183  158.3
 9.400  0.8191   64.7   0.614  -33.2  0.2718    1.3  0.5304  153.0
 9.600  0.8310   62.7   0.593  -34.7  0.2741   -0.0  0.5450  148.0
 9.800  0.8405   61.0   0.571  -36.1  0.2758   -1.1  0.5619  143.2
10.000  0.8507   59.3   0.550  -37.5  0.2776   -2.2  0.5826  138.7
!
!  f       NFmin   Gammaopt  rn/50
! GHz       dB    MAG  ANG    -
 0.450      0.68  0.58   19   0.26
 0.900      0.74  0.54   38   0.26
 1.900      1.17  0.35   94   0.17
 3.500      1.69  0.37 -166   0.13
!
! (c) 2016  Infineon Technologies AG, Munich
