! Infineon Technologies  Discrete & RF Semiconductors
! BFP460
! VCE =  2.0 V,  IC =  8.0 mA
! Common Emitter S-Parameters:                            Jan 2016
# GHz  S  MA  R  50
!  f         S11            S21            S12            S22
! GHz     MAG   ANG      MAG   ANG      MAG   ANG      MAG   ANG
 0.030  0.8038   -8.1  24.119  175.1  0.0060   86.3  0.9770   -5.4
 0.035  0.8026   -9.4  24.078  174.1  0.0069   85.4  0.9756   -6.3
 0.040  0.8019  -10.7  24.046  173.0  0.0079   84.8  0.9744   -7.2
 0.045  0.7996  -11.8  23.955  171.9  0.0089   83.7  0.9729   -8.1
 0.050  0.7977  -13.0  23.874  170.7  0.0100   82.8  0.9716   -9.0
 0.055  0.7969  -14.5  23.832  170.0  0.0110   82.8  0.9696   -9.9
 0.060  0.7966  -16.0  23.795  169.2  0.0120   82.8  0.9679  -10.8
 0.065  0.7935  -17.3  23.814  168.2  0.0128   81.8  0.9656  -11.7
 0.070  0.7909  -18.7  23.840  167.3  0.0137   80.9  0.9635  -12.6
 0.075  0.7912  -19.9  23.749  166.7  0.0147   80.0  0.9608  -13.4
 0.080  0.7919  -21.1  23.662  166.0  0.0157   79.3  0.9583  -14.3
 0.085  0.7902  -22.5  23.589  165.2  0.0166   78.6  0.9550  -15.2
 0.090  0.7889  -23.9  23.522  164.3  0.0175   77.9  0.9519  -16.1
 0.095  0.7857  -25.1  23.375  163.5  0.0184   77.4  0.9488  -16.9
 0.100  0.7828  -26.3  23.233  162.7  0.0194   76.9  0.9459  -17.8
 0.105  0.7827  -27.6  23.177  162.0  0.0203   76.2  0.9421  -18.6
 0.110  0.7831  -28.9  23.124  161.2  0.0212   75.5  0.9386  -19.5
 0.115  0.7805  -30.2  23.039  160.3  0.0220   74.9  0.9348  -20.3
 0.120  0.7783  -31.5  22.959  159.4  0.0228   74.3  0.9313  -21.2
 0.125  0.7744  -32.6  22.849  158.7  0.0237   73.7  0.9271  -22.0
 0.130  0.7709  -33.8  22.743  158.0  0.0246   73.2  0.9231  -22.8
 0.135  0.7683  -35.0  22.656  157.2  0.0254   72.6  0.9190  -23.6
 0.140  0.7661  -36.3  22.573  156.3  0.0263   72.0  0.9152  -24.5
 0.145  0.7632  -37.5  22.427  155.5  0.0271   71.5  0.9106  -25.2
 0.150  0.7607  -38.7  22.285  154.7  0.0279   71.0  0.9062  -26.0
 0.155  0.7567  -39.8  22.154  154.0  0.0286   70.3  0.9008  -26.7
 0.160  0.7530  -40.9  22.027  153.3  0.0293   69.7  0.8955  -27.5
 0.165  0.7495  -42.1  21.902  152.7  0.0301   69.1  0.8904  -28.2
 0.170  0.7464  -43.2  21.781  152.0  0.0308   68.5  0.8854  -28.9
 0.175  0.7436  -44.4  21.663  151.2  0.0315   68.0  0.8806  -29.7
 0.180  0.7411  -45.6  21.548  150.5  0.0322   67.5  0.8759  -30.5
 0.185  0.7388  -46.7  21.437  149.8  0.0330   67.0  0.8714  -31.2
 0.190  0.7369  -47.9  21.329  149.1  0.0337   66.5  0.8671  -32.0
 0.195  0.7354  -49.1  21.225  148.3  0.0345   66.0  0.8629  -32.8
 0.200  0.7341  -50.3  21.124  147.6  0.0352   65.6  0.8589  -33.6
 0.220  0.7193  -54.4  20.577  145.1  0.0377   63.6  0.8374  -36.2
 0.240  0.7084  -58.7  20.071  142.5  0.0402   61.9  0.8177  -38.9
 0.260  0.6976  -62.8  19.559  140.0  0.0425   60.3  0.7975  -41.5
 0.280  0.6860  -66.6  19.031  137.7  0.0447   58.8  0.7766  -43.9
 0.300  0.6776  -70.6  18.535  135.3  0.0468   57.4  0.7571  -46.4
 0.320  0.6653  -74.1  18.014  133.3  0.0485   56.0  0.7369  -48.5
 0.340  0.6556  -77.7  17.515  131.3  0.0503   54.7  0.7178  -50.7
 0.360  0.6459  -81.1  17.033  129.3  0.0520   53.5  0.6991  -52.7
 0.380  0.6357  -84.3  16.562  127.5  0.0535   52.5  0.6808  -54.7
 0.400  0.6275  -87.6  16.109  125.6  0.0550   51.5  0.6632  -56.7
 0.420  0.6176  -90.5  15.668  124.1  0.0563   50.6  0.6464  -58.4
 0.440  0.6094  -93.5  15.238  122.4  0.0576   49.7  0.6301  -60.1
 0.450  0.6059  -95.0  15.028  121.6  0.0582   49.3  0.6222  -61.0
 0.460  0.6017  -96.3  14.828  120.9  0.0588   48.9  0.6145  -61.7
 0.480  0.5942  -99.0  14.434  119.5  0.0599   48.2  0.5993  -63.3
 0.500  0.5881 -101.7  14.049  118.0  0.0610   47.5  0.5846  -64.9
 0.520  0.5802 -104.0  13.700  116.9  0.0619   46.9  0.5713  -66.1
 0.540  0.5733 -106.3  13.357  115.7  0.0629   46.4  0.5583  -67.4
 0.560  0.5674 -108.8  13.019  114.4  0.0638   45.8  0.5455  -68.7
 0.580  0.5625 -111.2  12.689  113.1  0.0647   45.3  0.5331  -70.1
 0.600  0.5587 -113.7  12.365  111.7  0.0657   44.8  0.5210  -71.6
 0.620  0.5531 -115.7  12.081  110.8  0.0665   44.4  0.5102  -72.7
 0.640  0.5481 -117.6  11.801  109.8  0.0673   44.1  0.4997  -73.8
 0.660  0.5438 -119.7  11.524  108.7  0.0680   43.8  0.4893  -74.9
 0.680  0.5401 -121.7  11.251  107.6  0.0688   43.4  0.4791  -76.1
 0.700  0.5372 -123.8  10.983  106.5  0.0696   43.1  0.4692  -77.4
 0.720  0.5334 -125.5  10.752  105.7  0.0703   42.9  0.4606  -78.3
 0.740  0.5300 -127.2  10.523  104.8  0.0709   42.6  0.4522  -79.3
 0.760  0.5271 -129.0  10.297  103.9  0.0716   42.4  0.4439  -80.3
 0.780  0.5247 -130.7  10.073  103.0  0.0722   42.1  0.4357  -81.3
 0.800  0.5228 -132.5   9.852  102.0  0.0729   41.9  0.4277  -82.4
 0.820  0.5198 -134.0   9.665  101.3  0.0735   41.8  0.4208  -83.2
 0.840  0.5171 -135.5   9.480  100.6  0.0742   41.6  0.4139  -84.1
 0.860  0.5148 -137.0   9.296   99.8  0.0748   41.5  0.4072  -85.0
 0.880  0.5129 -138.6   9.113   99.0  0.0755   41.3  0.4005  -85.9
 0.900  0.5113 -140.1   8.933   98.2  0.0761   41.2  0.3940  -86.8
 0.920  0.5091 -141.4   8.775   97.5  0.0767   41.1  0.3883  -87.6
 0.940  0.5071 -142.8   8.617   96.9  0.0773   41.0  0.3827  -88.3
 0.960  0.5054 -144.2   8.461   96.2  0.0780   40.9  0.3771  -89.1
 0.980  0.5040 -145.5   8.306   95.5  0.0786   40.8  0.3716  -90.0
 1.000  0.5029 -146.9   8.153   94.7  0.0792   40.7  0.3662  -90.8
 1.020  0.5013 -148.1   8.019   94.1  0.0798   40.7  0.3616  -91.5
 1.040  0.5000 -149.3   7.885   93.5  0.0804   40.6  0.3570  -92.2
 1.060  0.4989 -150.5   7.752   92.8  0.0809   40.6  0.3525  -92.9
 1.080  0.4980 -151.7   7.621   92.2  0.0815   40.5  0.3480  -93.6
 1.100  0.4973 -152.9   7.490   91.5  0.0821   40.5  0.3436  -94.4
 1.120  0.4961 -154.0   7.376   91.0  0.0827   40.5  0.3396  -95.0
 1.140  0.4951 -155.0   7.262   90.4  0.0833   40.4  0.3357  -95.7
 1.160  0.4943 -156.1   7.149   89.8  0.0839   40.4  0.3319  -96.4
 1.180  0.4937 -157.2   7.036   89.2  0.0845   40.3  0.3281  -97.1
 1.200  0.4932 -158.3   6.925   88.6  0.0851   40.3  0.3243  -97.8
 1.220  0.4926 -159.3   6.826   88.1  0.0857   40.3  0.3211  -98.4
 1.240  0.4921 -160.3   6.728   87.6  0.0863   40.3  0.3179  -99.0
 1.260  0.4917 -161.3   6.630   87.0  0.0869   40.3  0.3148  -99.6
 1.280  0.4915 -162.3   6.533   86.5  0.0875   40.3  0.3117 -100.3
 1.300  0.4915 -163.3   6.436   85.9  0.0881   40.3  0.3087 -100.9
 1.320  0.4909 -164.2   6.350   85.4  0.0887   40.3  0.3058 -101.5
 1.340  0.4905 -165.1   6.265   84.9  0.0893   40.3  0.3030 -102.1
 1.360  0.4901 -166.0   6.180   84.4  0.0899   40.2  0.3002 -102.7
 1.380  0.4899 -166.9   6.096   83.9  0.0905   40.2  0.2974 -103.3
 1.400  0.4898 -167.8   6.012   83.4  0.0911   40.2  0.2947 -103.9
 1.420  0.4895 -168.7   5.937   82.9  0.0917   40.2  0.2924 -104.4
 1.440  0.4893 -169.6   5.861   82.4  0.0923   40.2  0.2902 -105.0
 1.460  0.4893 -170.5   5.787   81.9  0.0929   40.2  0.2880 -105.6
 1.480  0.4893 -171.4   5.713   81.4  0.0935   40.2  0.2858 -106.1
 1.500  0.4895 -172.3   5.639   80.9  0.0941   40.2  0.2836 -106.7
 1.520  0.4892 -173.1   5.572   80.5  0.0947   40.2  0.2815 -107.2
 1.540  0.4891 -173.9   5.506   80.1  0.0953   40.2  0.2795 -107.8
 1.560  0.4890 -174.7   5.439   79.6  0.0960   40.2  0.2775 -108.3
 1.580  0.4891 -175.5   5.374   79.2  0.0966   40.2  0.2755 -108.8
 1.600  0.4892 -176.3   5.308   78.7  0.0972   40.2  0.2735 -109.4
 1.620  0.4891 -177.0   5.250   78.3  0.0978   40.2  0.2718 -109.9
 1.640  0.4892 -177.7   5.191   77.8  0.0984   40.2  0.2700 -110.4
 1.660  0.4893 -178.5   5.134   77.4  0.0991   40.1  0.2683 -110.9
 1.680  0.4894 -179.2   5.076   76.9  0.0997   40.1  0.2667 -111.5
 1.700  0.4897 -179.9   5.019   76.4  0.1003   40.1  0.2650 -112.0
 1.720  0.4900  179.4   4.965   76.0  0.1009   40.1  0.2635 -112.5
 1.740  0.4903  178.7   4.912   75.6  0.1016   40.1  0.2621 -113.0
 1.760  0.4908  177.9   4.859   75.2  0.1022   40.1  0.2607 -113.5
 1.780  0.4913  177.2   4.806   74.7  0.1029   40.1  0.2593 -114.1
 1.800  0.4919  176.5   4.754   74.3  0.1035   40.1  0.2579 -114.6
 1.820  0.4920  175.8   4.707   73.9  0.1041   40.1  0.2565 -115.1
 1.840  0.4923  175.1   4.660   73.5  0.1047   40.1  0.2552 -115.6
 1.860  0.4925  174.5   4.614   73.1  0.1054   40.0  0.2539 -116.1
 1.880  0.4929  173.8   4.568   72.6  0.1060   40.0  0.2526 -116.6
 1.900  0.4933  173.1   4.522   72.2  0.1066   40.0  0.2513 -117.1
 1.920  0.4937  172.4   4.479   71.8  0.1072   40.0  0.2502 -117.6
 1.940  0.4941  171.8   4.436   71.4  0.1079   39.9  0.2491 -118.1
 1.960  0.4946  171.1   4.393   71.0  0.1085   39.9  0.2480 -118.6
 1.980  0.4952  170.5   4.351   70.5  0.1092   39.8  0.2469 -119.1
 2.000  0.4958  169.8   4.309   70.1  0.1098   39.8  0.2459 -119.6
 2.020  0.4962  169.2   4.270   69.7  0.1104   39.8  0.2449 -120.1
 2.040  0.4966  168.5   4.231   69.4  0.1111   39.7  0.2440 -120.6
 2.060  0.4971  167.9   4.193   69.0  0.1117   39.7  0.2430 -121.1
 2.080  0.4977  167.3   4.155   68.6  0.1124   39.6  0.2421 -121.6
 2.100  0.4983  166.7   4.116   68.2  0.1130   39.6  0.2412 -122.1
 2.120  0.4989  166.1   4.079   67.8  0.1137   39.6  0.2403 -122.6
 2.140  0.4997  165.4   4.041   67.4  0.1143   39.5  0.2395 -123.1
 2.160  0.5005  164.8   4.003   67.0  0.1150   39.5  0.2386 -123.7
 2.180  0.5013  164.2   3.966   66.5  0.1156   39.4  0.2378 -124.2
 2.200  0.5022  163.6   3.929   66.1  0.1163   39.4  0.2370 -124.7
 2.220  0.5027  163.0   3.897   65.7  0.1169   39.3  0.2363 -125.2
 2.240  0.5033  162.5   3.865   65.4  0.1176   39.3  0.2356 -125.7
 2.260  0.5039  161.9   3.833   65.0  0.1182   39.2  0.2349 -126.2
 2.280  0.5045  161.3   3.801   64.6  0.1189   39.2  0.2342 -126.7
 2.300  0.5052  160.8   3.769   64.2  0.1195   39.1  0.2336 -127.3
 2.320  0.5059  160.2   3.738   63.8  0.1201   39.1  0.2330 -127.8
 2.340  0.5067  159.7   3.707   63.4  0.1208   39.0  0.2324 -128.3
 2.360  0.5076  159.1   3.676   63.0  0.1214   39.0  0.2318 -128.8
 2.380  0.5085  158.6   3.645   62.6  0.1221   38.9  0.2312 -129.4
 2.400  0.5094  158.0   3.614   62.2  0.1227   38.9  0.2307 -129.9
 2.420  0.5102  157.5   3.586   61.9  0.1233   38.8  0.2303 -130.4
 2.440  0.5110  156.9   3.558   61.5  0.1240   38.8  0.2299 -131.0
 2.460  0.5119  156.4   3.531   61.2  0.1246   38.7  0.2295 -131.5
 2.480  0.5129  155.9   3.503   60.8  0.1253   38.6  0.2291 -132.0
 2.500  0.5138  155.3   3.476   60.4  0.1259   38.5  0.2288 -132.6
 2.520  0.5149  154.8   3.448   60.1  0.1265   38.5  0.2285 -133.1
 2.540  0.5159  154.3   3.421   59.7  0.1272   38.4  0.2282 -133.7
 2.560  0.5171  153.7   3.394   59.3  0.1278   38.3  0.2279 -134.2
 2.580  0.5182  153.2   3.368   58.9  0.1285   38.3  0.2276 -134.8
 2.600  0.5194  152.7   3.341   58.5  0.1291   38.2  0.2274 -135.3
 2.620  0.5201  152.2   3.317   58.2  0.1297   38.1  0.2273 -135.8
 2.640  0.5208  151.7   3.293   57.8  0.1304   38.1  0.2271 -136.3
 2.660  0.5216  151.2   3.270   57.5  0.1310   38.0  0.2270 -136.9
 2.680  0.5224  150.7   3.246   57.2  0.1316   37.9  0.2269 -137.4
 2.700  0.5233  150.2   3.223   56.8  0.1322   37.8  0.2269 -137.9
 2.720  0.5242  149.7   3.200   56.5  0.1329   37.8  0.2268 -138.4
 2.740  0.5251  149.3   3.177   56.1  0.1335   37.7  0.2268 -138.9
 2.760  0.5261  148.8   3.154   55.7  0.1341   37.6  0.2268 -139.5
 2.780  0.5271  148.3   3.131   55.4  0.1348   37.6  0.2268 -140.0
 2.800  0.5281  147.8   3.108   55.0  0.1354   37.5  0.2268 -140.5
 2.820  0.5289  147.3   3.087   54.7  0.1360   37.4  0.2268 -141.0
 2.840  0.5297  146.9   3.065   54.3  0.1366   37.3  0.2269 -141.5
 2.860  0.5306  146.4   3.044   54.0  0.1373   37.3  0.2270 -142.0
 2.880  0.5315  146.0   3.023   53.7  0.1379   37.2  0.2270 -142.5
 2.900  0.5324  145.5   3.002   53.3  0.1385   37.1  0.2271 -143.0
 2.920  0.5334  145.1   2.981   53.0  0.1391   37.0  0.2273 -143.4
 2.940  0.5344  144.6   2.960   52.6  0.1397   36.9  0.2274 -143.9
 2.960  0.5354  144.2   2.939   52.2  0.1404   36.9  0.2275 -144.4
 2.980  0.5365  143.7   2.918   51.9  0.1410   36.8  0.2277 -144.9
 3.000  0.5376  143.3   2.898   51.5  0.1416   36.7  0.2279 -145.4
 3.100  0.5414  141.2   2.810   50.1  0.1446   36.2  0.2289 -147.7
 3.200  0.5459  139.1   2.724   48.5  0.1476   35.7  0.2303 -150.0
 3.300  0.5511  137.0   2.641   46.9  0.1506   35.2  0.2320 -152.2
 3.400  0.5570  135.0   2.559   45.2  0.1537   34.7  0.2341 -154.4
 3.500  0.5636  133.0   2.480   43.3  0.1567   34.3  0.2365 -156.6
 3.600  0.5686  131.1   2.412   41.9  0.1595   33.7  0.2386 -158.9
 3.700  0.5741  129.3   2.346   40.5  0.1623   33.2  0.2411 -161.2
 3.800  0.5802  127.5   2.282   38.9  0.1651   32.6  0.2439 -163.4
 3.900  0.5869  125.8   2.219   37.3  0.1679   32.1  0.2471 -165.5
 4.000  0.5941  124.1   2.158   35.6  0.1707   31.6  0.2506 -167.6
 4.100  0.5992  122.6   2.104   34.3  0.1733   31.1  0.2546 -169.7
 4.200  0.6047  121.1   2.052   33.0  0.1758   30.6  0.2589 -171.7
 4.300  0.6107  119.6   2.000   31.6  0.1784   30.1  0.2636 -173.7
 4.400  0.6170  118.2   1.950   30.1  0.1810   29.6  0.2685 -175.6
 4.500  0.6237  116.8   1.901   28.5  0.1836   29.1  0.2737 -177.4
 4.600  0.6276  115.5   1.859   27.3  0.1862   28.6  0.2777 -178.8
 4.700  0.6318  114.3   1.818   26.1  0.1887   28.2  0.2819  179.8
 4.800  0.6363  113.0   1.778   24.8  0.1913   27.7  0.2862  178.4
 4.900  0.6411  111.8   1.738   23.5  0.1939   27.3  0.2907  177.1
 5.000  0.6462  110.6   1.700   22.1  0.1965   26.9  0.2954  175.8
 5.100  0.6490  109.5   1.668   21.0  0.1994   26.4  0.2985  174.8
 5.200  0.6520  108.5   1.636   19.9  0.2023   25.9  0.3016  173.7
 5.300  0.6552  107.4   1.604   18.8  0.2052   25.4  0.3049  172.7
 5.400  0.6587  106.4   1.574   17.6  0.2081   24.9  0.3083  171.8
 5.500  0.6623  105.4   1.544   16.3  0.2111   24.4  0.3117  170.8
 5.600  0.6647  104.5   1.518   15.2  0.2139   23.7  0.3155  169.8
 5.700  0.6673  103.6   1.493   14.1  0.2167   23.1  0.3195  168.8
 5.800  0.6700  102.7   1.468   12.9  0.2195   22.5  0.3235  167.9
 5.900  0.6729  101.9   1.444   11.7  0.2224   21.9  0.3276  167.0
 6.000  0.6760  101.0   1.420   10.4  0.2253   21.3  0.3318  166.1
 6.100  0.6765  100.1   1.398    9.4  0.2278   20.7  0.3349  165.5
 6.200  0.6772   99.3   1.377    8.3  0.2302   20.1  0.3380  164.9
 6.300  0.6780   98.4   1.356    7.3  0.2327   19.5  0.3412  164.3
 6.400  0.6790   97.6   1.335    6.1  0.2353   19.0  0.3444  163.7
 6.500  0.6801   96.7   1.315    5.0  0.2378   18.4  0.3477  163.1
 6.600  0.6796   95.7   1.298    4.0  0.2407   17.9  0.3482  162.7
 6.800  0.6790   93.8   1.265    1.9  0.2465   16.8  0.3493  161.8
 7.000  0.6793   91.9   1.234   -0.3  0.2524   15.8  0.3504  161.0
 7.200  0.6816   89.6   1.207   -2.4  0.2588   14.4  0.3510  159.5
 7.400  0.6849   87.3   1.183   -4.7  0.2654   13.0  0.3518  158.0
 7.600  0.6894   84.9   1.158   -7.0  0.2717   11.5  0.3540  156.0
 7.800  0.6954   82.3   1.134   -9.4  0.2779    9.8  0.3580  153.6
 8.000  0.7028   79.7   1.112  -12.0  0.2843    8.2  0.3626  151.2
 8.200  0.7085   76.9   1.083  -14.4  0.2888    6.2  0.3668  148.2
 8.400  0.7158   74.2   1.056  -16.9  0.2937    4.3  0.3720  145.3
 8.600  0.7251   71.6   1.028  -19.3  0.2969    2.4  0.3778  141.7
 8.800  0.7362   69.2   0.999  -21.6  0.2986    0.4  0.3853  137.5
 9.000  0.7487   66.8   0.971  -24.0  0.3007   -1.6  0.3947  133.5
 9.200  0.7640   64.8   0.939  -25.9  0.3002   -3.1  0.4098  128.7
 9.400  0.7802   62.9   0.908  -27.9  0.2999   -4.6  0.4276  124.2
 9.600  0.7944   61.2   0.878  -29.6  0.2994   -5.8  0.4466  120.3
 9.800  0.8064   59.6   0.848  -31.1  0.2986   -6.7  0.4664  116.8
10.000  0.8190   58.1   0.818  -32.7  0.2979   -7.7  0.4877  113.6
!
!  f       NFmin   Gammaopt  rn/50
! GHz       dB    MAG  ANG    -
 0.450      0.89  0.20   13   0.14
 1.900      1.10  0.09  121   0.12
 3.500      1.17  0.33 -142   0.11
!
! (c) 2016  Infineon Technologies AG, Munich
