! Infineon Technologies  Discrete & RF Semiconductors
! BFP460
! VCE =  3.0 V,  IC =  70 mA
! Common Emitter S-Parameters:                            Jan 2016
# GHz  S  MA  R  50
!  f         S11            S21            S12            S22
! GHz     MAG   ANG      MAG   ANG      MAG   ANG      MAG   ANG
 0.030  0.2608  -40.2  65.834  167.6  0.0043   83.7  0.8538  -11.8
 0.035  0.2644  -45.9  65.220  165.4  0.0048   81.9  0.8488  -14.1
 0.040  0.2706  -51.4  64.707  163.1  0.0053   80.4  0.8452  -16.5
 0.045  0.2736  -56.8  63.839  161.0  0.0058   79.1  0.8370  -18.6
 0.050  0.2789  -62.1  63.057  158.9  0.0064   78.1  0.8300  -20.8
 0.055  0.2887  -66.1  62.285  157.0  0.0070   76.9  0.8205  -22.9
 0.060  0.2999  -69.8  61.581  155.1  0.0076   75.8  0.8121  -25.1
 0.065  0.3061  -74.6  60.754  153.2  0.0081   74.5  0.8009  -27.2
 0.070  0.3144  -79.2  59.997  151.2  0.0086   73.3  0.7907  -29.3
 0.075  0.3229  -82.5  59.043  149.6  0.0090   72.4  0.7785  -31.2
 0.080  0.3324  -85.6  58.138  147.9  0.0095   71.5  0.7672  -33.2
 0.085  0.3380  -89.4  57.083  146.2  0.0098   70.2  0.7540  -35.0
 0.090  0.3451  -93.0  56.079  144.5  0.0102   68.9  0.7416  -36.8
 0.095  0.3506  -95.4  55.002  143.1  0.0106   68.4  0.7292  -38.4
 0.100  0.3567  -97.7  53.961  141.6  0.0110   68.0  0.7174  -40.1
 0.105  0.3631 -100.3  53.047  140.2  0.0114   67.3  0.7043  -41.7
 0.110  0.3702 -102.9  52.166  138.7  0.0119   66.7  0.6918  -43.3
 0.115  0.3753 -105.6  51.151  137.4  0.0122   66.0  0.6793  -44.8
 0.120  0.3813 -108.2  50.165  136.0  0.0125   65.3  0.6672  -46.3
 0.125  0.3848 -110.3  49.227  134.8  0.0128   64.9  0.6549  -47.6
 0.130  0.3888 -112.3  48.310  133.6  0.0131   64.6  0.6429  -49.0
 0.135  0.3927 -114.3  47.426  132.4  0.0134   64.2  0.6312  -50.3
 0.140  0.3971 -116.3  46.563  131.2  0.0137   63.8  0.6198  -51.6
 0.145  0.4013 -118.2  45.625  130.1  0.0140   63.4  0.6085  -52.8
 0.150  0.4060 -120.1  44.704  129.0  0.0143   63.1  0.5974  -54.0
 0.155  0.4078 -121.6  43.922  128.3  0.0145   62.9  0.5871  -54.9
 0.160  0.4099 -123.0  43.148  127.5  0.0148   62.7  0.5770  -55.7
 0.165  0.4122 -124.4  42.381  126.7  0.0150   62.5  0.5670  -56.6
 0.170  0.4148 -125.8  41.623  125.9  0.0153   62.3  0.5571  -57.6
 0.175  0.4177 -127.2  40.873  125.1  0.0155   62.1  0.5474  -58.6
 0.180  0.4207 -128.6  40.132  124.2  0.0158   62.0  0.5379  -59.6
 0.185  0.4241 -130.0  39.400  123.3  0.0160   61.8  0.5285  -60.6
 0.190  0.4276 -131.3  38.679  122.4  0.0163   61.6  0.5194  -61.7
 0.195  0.4314 -132.6  37.969  121.4  0.0165   61.5  0.5104  -62.8
 0.200  0.4354 -133.9  37.270  120.4  0.0168   61.3  0.5016  -64.0
 0.220  0.4408 -137.9  34.936  118.1  0.0177   61.2  0.4717  -66.7
 0.240  0.4483 -141.7  32.666  115.5  0.0186   61.1  0.4431  -69.8
 0.260  0.4546 -145.0  30.675  113.2  0.0195   61.0  0.4180  -72.6
 0.280  0.4591 -147.9  28.931  111.4  0.0204   61.1  0.3960  -74.8
 0.300  0.4647 -150.7  27.222  109.3  0.0212   61.2  0.3746  -77.4
 0.320  0.4670 -152.9  25.852  107.9  0.0220   61.5  0.3575  -79.2
 0.340  0.4700 -155.0  24.499  106.3  0.0228   61.9  0.3409  -81.2
 0.360  0.4726 -157.0  23.293  104.9  0.0236   62.2  0.3261  -83.1
 0.380  0.4745 -158.9  22.225  103.7  0.0245   62.4  0.3132  -84.7
 0.400  0.4769 -160.8  21.169  102.4  0.0254   62.7  0.3006  -86.5
 0.420  0.4788 -162.2  20.299  101.4  0.0262   63.0  0.2902  -87.9
 0.440  0.4811 -163.7  19.436  100.4  0.0271   63.3  0.2799  -89.3
 0.450  0.4823 -164.4  19.007   99.8  0.0275   63.4  0.2749  -90.1
 0.460  0.4827 -165.0  18.652   99.4  0.0279   63.5  0.2707  -90.7
 0.480  0.4836 -166.3  17.945   98.5  0.0288   63.8  0.2623  -92.0
 0.500  0.4848 -167.6  17.242   97.6  0.0297   64.0  0.2541  -93.3
 0.520  0.4856 -168.7  16.692   96.9  0.0306   64.3  0.2478  -94.3
 0.540  0.4865 -169.8  16.144   96.2  0.0315   64.5  0.2415  -95.4
 0.560  0.4876 -170.9  15.599   95.5  0.0323   64.8  0.2354  -96.5
 0.580  0.4889 -171.9  15.056   94.7  0.0332   65.0  0.2293  -97.7
 0.600  0.4904 -173.0  14.517   93.8  0.0341   65.2  0.2234  -99.0
 0.620  0.4910 -173.9  14.116   93.2  0.0350   65.4  0.2190  -99.9
 0.640  0.4916 -174.7  13.716   92.6  0.0359   65.5  0.2146 -100.8
 0.660  0.4924 -175.6  13.318   92.0  0.0367   65.6  0.2103 -101.8
 0.680  0.4933 -176.4  12.921   91.3  0.0376   65.8  0.2061 -102.8
 0.700  0.4943 -177.3  12.527   90.6  0.0385   65.9  0.2019 -103.8
 0.720  0.4948 -178.1  12.222   90.1  0.0394   66.0  0.1988 -104.6
 0.740  0.4954 -178.9  11.918   89.6  0.0403   66.0  0.1956 -105.4
 0.760  0.4961 -179.6  11.615   89.0  0.0412   66.1  0.1926 -106.3
 0.780  0.4969  179.6  11.313   88.4  0.0421   66.1  0.1896 -107.2
 0.800  0.4978  178.8  11.013   87.8  0.0430   66.2  0.1866 -108.1
 0.820  0.4984  178.2  10.776   87.4  0.0439   66.3  0.1844 -108.8
 0.840  0.4990  177.5  10.540   86.9  0.0448   66.3  0.1821 -109.5
 0.860  0.4997  176.9  10.304   86.4  0.0458   66.4  0.1800 -110.3
 0.880  0.5004  176.2  10.069   85.9  0.0467   66.4  0.1778 -111.0
 0.900  0.5012  175.6   9.835   85.4  0.0476   66.5  0.1757 -111.8
 0.920  0.5015  175.0   9.643   85.0  0.0485   66.5  0.1740 -112.5
 0.940  0.5018  174.4   9.451   84.5  0.0494   66.5  0.1723 -113.1
 0.960  0.5022  173.8   9.260   84.1  0.0504   66.4  0.1706 -113.8
 0.980  0.5027  173.2   9.069   83.6  0.0513   66.4  0.1690 -114.5
 1.000  0.5032  172.6   8.879   83.1  0.0522   66.4  0.1674 -115.2
 1.020  0.5036  172.0   8.721   82.7  0.0531   66.4  0.1662 -115.8
 1.040  0.5040  171.4   8.562   82.3  0.0540   66.4  0.1650 -116.4
 1.060  0.5045  170.9   8.405   81.9  0.0549   66.3  0.1639 -117.0
 1.080  0.5050  170.3   8.248   81.5  0.0558   66.3  0.1627 -117.6
 1.100  0.5056  169.7   8.091   81.0  0.0567   66.3  0.1616 -118.2
 1.120  0.5060  169.2   7.958   80.6  0.0576   66.2  0.1606 -118.8
 1.140  0.5065  168.7   7.826   80.2  0.0585   66.2  0.1597 -119.3
 1.160  0.5070  168.1   7.694   79.8  0.0595   66.1  0.1588 -119.9
 1.180  0.5075  167.6   7.562   79.4  0.0604   66.1  0.1579 -120.5
 1.200  0.5081  167.1   7.431   79.0  0.0613   66.0  0.1570 -121.1
 1.220  0.5085  166.6   7.318   78.6  0.0622   65.9  0.1564 -121.6
 1.240  0.5089  166.1   7.206   78.2  0.0631   65.8  0.1558 -122.1
 1.260  0.5093  165.6   7.093   77.8  0.0641   65.8  0.1553 -122.6
 1.280  0.5098  165.1   6.981   77.4  0.0650   65.7  0.1547 -123.1
 1.300  0.5103  164.6   6.870   77.0  0.0659   65.6  0.1542 -123.6
 1.320  0.5107  164.1   6.773   76.6  0.0668   65.5  0.1536 -124.1
 1.340  0.5111  163.7   6.677   76.3  0.0677   65.4  0.1531 -124.6
 1.360  0.5116  163.2   6.581   75.9  0.0687   65.3  0.1525 -125.1
 1.380  0.5121  162.8   6.485   75.5  0.0696   65.2  0.1520 -125.6
 1.400  0.5126  162.3   6.390   75.1  0.0705   65.1  0.1515 -126.1
 1.420  0.5132  161.8   6.306   74.8  0.0714   65.0  0.1512 -126.5
 1.440  0.5138  161.3   6.222   74.4  0.0723   64.9  0.1510 -127.0
 1.460  0.5144  160.9   6.138   74.0  0.0733   64.8  0.1508 -127.4
 1.480  0.5151  160.4   6.055   73.7  0.0742   64.7  0.1505 -127.9
 1.500  0.5158  159.9   5.972   73.3  0.0751   64.6  0.1503 -128.3
 1.520  0.5163  159.4   5.898   73.0  0.0760   64.5  0.1501 -128.8
 1.540  0.5168  159.0   5.824   72.6  0.0769   64.4  0.1498 -129.2
 1.560  0.5174  158.5   5.751   72.2  0.0778   64.2  0.1496 -129.7
 1.580  0.5180  158.1   5.677   71.9  0.0787   64.1  0.1494 -130.1
 1.600  0.5186  157.6   5.604   71.5  0.0796   64.0  0.1492 -130.6
 1.620  0.5190  157.2   5.540   71.2  0.0805   63.9  0.1491 -131.0
 1.640  0.5194  156.8   5.476   70.8  0.0814   63.7  0.1490 -131.4
 1.660  0.5198  156.4   5.412   70.4  0.0824   63.6  0.1489 -131.8
 1.680  0.5203  156.0   5.348   70.1  0.0833   63.4  0.1488 -132.2
 1.700  0.5208  155.6   5.285   69.7  0.0842   63.3  0.1487 -132.6
 1.720  0.5212  155.2   5.226   69.4  0.0851   63.2  0.1487 -133.0
 1.740  0.5217  154.7   5.168   69.0  0.0860   63.0  0.1487 -133.4
 1.760  0.5222  154.3   5.109   68.7  0.0869   62.9  0.1487 -133.9
 1.780  0.5227  153.8   5.051   68.4  0.0878   62.7  0.1487 -134.3
 1.800  0.5233  153.4   4.993   68.0  0.0887   62.6  0.1487 -134.7
 1.820  0.5239  153.0   4.942   67.7  0.0896   62.5  0.1487 -135.1
 1.840  0.5246  152.5   4.891   67.3  0.0905   62.3  0.1488 -135.5
 1.860  0.5252  152.1   4.841   67.0  0.0914   62.2  0.1488 -135.9
 1.880  0.5260  151.6   4.790   66.7  0.0923   62.0  0.1488 -136.3
 1.900  0.5267  151.2   4.740   66.3  0.0932   61.9  0.1489 -136.7
 1.920  0.5272  150.8   4.693   66.0  0.0941   61.7  0.1490 -137.1
 1.940  0.5277  150.4   4.646   65.6  0.0950   61.6  0.1491 -137.5
 1.960  0.5282  150.0   4.599   65.2  0.0958   61.4  0.1492 -138.0
 1.980  0.5288  149.6   4.552   64.9  0.0967   61.3  0.1494 -138.4
 2.000  0.5294  149.2   4.506   64.5  0.0976   61.1  0.1495 -138.8
 2.020  0.5301  148.8   4.465   64.2  0.0985   60.9  0.1497 -139.2
 2.040  0.5308  148.4   4.424   63.9  0.0994   60.8  0.1499 -139.7
 2.060  0.5315  148.0   4.383   63.6  0.1003   60.6  0.1502 -140.1
 2.080  0.5322  147.6   4.342   63.3  0.1012   60.4  0.1504 -140.6
 2.100  0.5330  147.2   4.301   63.0  0.1020   60.3  0.1506 -141.0
 2.120  0.5338  146.8   4.260   62.7  0.1029   60.1  0.1509 -141.5
 2.140  0.5346  146.5   4.220   62.3  0.1038   60.0  0.1512 -141.9
 2.160  0.5354  146.1   4.179   62.0  0.1047   59.8  0.1514 -142.3
 2.180  0.5363  145.7   4.139   61.6  0.1056   59.6  0.1517 -142.8
 2.200  0.5372  145.3   4.099   61.3  0.1065   59.5  0.1520 -143.2
 2.220  0.5379  144.9   4.065   61.0  0.1074   59.3  0.1523 -143.7
 2.240  0.5386  144.5   4.030   60.7  0.1082   59.2  0.1527 -144.1
 2.260  0.5394  144.1   3.996   60.4  0.1091   59.0  0.1530 -144.6
 2.280  0.5402  143.8   3.962   60.0  0.1099   58.8  0.1534 -145.0
 2.300  0.5410  143.4   3.928   59.7  0.1108   58.7  0.1537 -145.5
 2.320  0.5418  143.0   3.895   59.4  0.1116   58.5  0.1541 -145.9
 2.340  0.5427  142.6   3.861   59.1  0.1125   58.4  0.1545 -146.4
 2.360  0.5436  142.3   3.828   58.7  0.1134   58.2  0.1549 -146.8
 2.380  0.5445  141.9   3.794   58.4  0.1142   58.0  0.1553 -147.3
 2.400  0.5454  141.5   3.761   58.0  0.1151   57.9  0.1557 -147.7
 2.420  0.5462  141.1   3.731   57.7  0.1159   57.7  0.1562 -148.2
 2.440  0.5471  140.8   3.702   57.4  0.1168   57.5  0.1567 -148.7
 2.460  0.5479  140.4   3.672   57.1  0.1176   57.3  0.1573 -149.1
 2.480  0.5488  140.0   3.643   56.8  0.1185   57.1  0.1578 -149.6
 2.500  0.5497  139.7   3.614   56.5  0.1193   57.0  0.1584 -150.1
 2.520  0.5507  139.3   3.584   56.1  0.1202   56.8  0.1589 -150.6
 2.540  0.5516  139.0   3.555   55.8  0.1210   56.6  0.1595 -151.0
 2.560  0.5526  138.6   3.526   55.5  0.1219   56.4  0.1601 -151.5
 2.580  0.5536  138.3   3.498   55.1  0.1227   56.3  0.1607 -151.9
 2.600  0.5546  137.9   3.469   54.8  0.1236   56.1  0.1613 -152.4
 2.620  0.5553  137.5   3.444   54.5  0.1244   55.9  0.1620 -152.8
 2.640  0.5560  137.2   3.419   54.2  0.1252   55.7  0.1627 -153.3
 2.660  0.5567  136.8   3.394   53.9  0.1260   55.5  0.1634 -153.7
 2.680  0.5575  136.5   3.369   53.6  0.1269   55.4  0.1641 -154.2
 2.700  0.5582  136.1   3.344   53.3  0.1277   55.2  0.1648 -154.6
 2.720  0.5590  135.8   3.319   53.0  0.1285   55.0  0.1655 -155.0
 2.740  0.5598  135.4   3.294   52.7  0.1293   54.8  0.1662 -155.4
 2.760  0.5607  135.1   3.270   52.4  0.1302   54.6  0.1670 -155.9
 2.780  0.5615  134.7   3.245   52.0  0.1310   54.5  0.1677 -156.3
 2.800  0.5624  134.4   3.221   51.7  0.1318   54.3  0.1685 -156.7
 2.820  0.5632  134.1   3.199   51.4  0.1326   54.1  0.1693 -157.1
 2.840  0.5641  133.8   3.176   51.1  0.1334   53.9  0.1701 -157.5
 2.860  0.5649  133.4   3.154   50.8  0.1342   53.7  0.1708 -157.9
 2.880  0.5658  133.1   3.132   50.5  0.1350   53.6  0.1716 -158.3
 2.900  0.5667  132.8   3.109   50.2  0.1358   53.4  0.1724 -158.7
 2.920  0.5676  132.5   3.087   49.9  0.1366   53.2  0.1733 -159.1
 2.940  0.5685  132.1   3.065   49.6  0.1375   53.0  0.1741 -159.5
 2.960  0.5695  131.8   3.043   49.3  0.1383   52.8  0.1749 -159.9
 2.980  0.5704  131.5   3.022   48.9  0.1391   52.7  0.1758 -160.3
 3.000  0.5714  131.2   3.000   48.6  0.1399   52.5  0.1766 -160.7
 3.100  0.5752  129.6   2.909   47.3  0.1436   51.5  0.1807 -162.7
 3.200  0.5795  128.0   2.819   46.0  0.1474   50.5  0.1850 -164.6
 3.300  0.5842  126.4   2.731   44.5  0.1512   49.6  0.1894 -166.4
 3.400  0.5893  124.9   2.645   43.0  0.1550   48.7  0.1941 -168.1
 3.500  0.5949  123.4   2.561   41.3  0.1589   47.9  0.1989 -169.7
 3.600  0.5998  121.9   2.491   40.1  0.1623   46.9  0.2035 -171.7
 3.700  0.6051  120.5   2.422   38.7  0.1657   46.0  0.2084 -173.7
 3.800  0.6108  119.1   2.355   37.3  0.1691   45.2  0.2135 -175.5
 3.900  0.6168  117.7   2.289   35.9  0.1726   44.3  0.2189 -177.3
 4.000  0.6232  116.4   2.225   34.3  0.1761   43.5  0.2244 -179.0
 4.100  0.6282  115.2   2.170   33.1  0.1791   42.6  0.2304  179.2
 4.200  0.6335  114.0   2.116   31.9  0.1822   41.8  0.2366  177.5
 4.300  0.6390  112.9   2.063   30.6  0.1853   41.0  0.2430  175.9
 4.400  0.6448  111.7   2.012   29.2  0.1885   40.2  0.2496  174.4
 4.500  0.6508  110.6   1.961   27.8  0.1917   39.4  0.2564  172.9
 4.600  0.6545  109.5   1.918   26.7  0.1947   38.7  0.2615  171.7
 4.700  0.6584  108.4   1.876   25.6  0.1977   37.9  0.2667  170.5
 4.800  0.6625  107.3   1.834   24.4  0.2008   37.2  0.2720  169.3
 4.900  0.6669  106.3   1.794   23.2  0.2039   36.6  0.2775  168.3
 5.000  0.6715  105.2   1.754   21.9  0.2070   35.9  0.2830  167.2
 5.100  0.6741  104.3   1.721   20.9  0.2102   35.1  0.2866  166.3
 5.200  0.6769  103.4   1.689   19.8  0.2135   34.4  0.2902  165.4
 5.300  0.6798  102.5   1.657   18.7  0.2169   33.6  0.2939  164.6
 5.400  0.6829  101.6   1.626   17.6  0.2202   32.9  0.2977  163.7
 5.500  0.6862  100.7   1.595   16.4  0.2236   32.2  0.3015  162.9
 5.600  0.6880   99.9   1.569   15.4  0.2266   31.3  0.3056  162.1
 5.700  0.6899   99.1   1.543   14.3  0.2297   30.5  0.3097  161.2
 5.800  0.6920   98.3   1.517   13.2  0.2328   29.7  0.3139  160.4
 5.900  0.6942   97.6   1.492   12.1  0.2359   28.9  0.3181  159.7
 6.000  0.6965   96.8   1.468   10.9  0.2391   28.1  0.3224  158.9
 6.100  0.6968   96.0   1.446    9.9  0.2417   27.3  0.3254  158.4
 6.200  0.6972   95.2   1.424    8.9  0.2444   26.5  0.3284  157.9
 6.300  0.6977   94.5   1.402    7.9  0.2471   25.8  0.3315  157.4
 6.400  0.6984   93.7   1.381    6.8  0.2499   25.0  0.3346  156.9
 6.500  0.6992   92.9   1.361    5.7  0.2527   24.3  0.3377  156.4
 6.600  0.6986   92.0   1.344    4.7  0.2557   23.6  0.3379  156.0
 6.800  0.6979   90.1   1.310    2.7  0.2619   22.2  0.3383  155.3
 7.000  0.6980   88.3   1.278    0.6  0.2682   20.8  0.3387  154.6
 7.200  0.6998   86.1   1.251   -1.5  0.2748   19.1  0.3390  153.2
 7.400  0.7025   84.0   1.227   -3.7  0.2816   17.5  0.3396  151.7
 7.600  0.7063   81.7   1.202   -6.0  0.2881   15.7  0.3417  149.8
 7.800  0.7113   79.2   1.176   -8.4  0.2943   13.8  0.3459  147.5
 8.000  0.7175   76.8   1.153  -10.9  0.3008   11.9  0.3505  145.3
 8.200  0.7223   74.2   1.123  -13.2  0.3050    9.7  0.3551  142.4
 8.400  0.7287   71.6   1.094  -15.7  0.3096    7.6  0.3606  139.6
 8.600  0.7371   69.1   1.065  -18.1  0.3125    5.5  0.3673  136.1
 8.800  0.7474   66.8   1.035  -20.3  0.3137    3.4  0.3760  132.0
 9.000  0.7588   64.6   1.006  -22.6  0.3153    1.3  0.3865  128.1
 9.200  0.7738   62.8   0.973  -24.4  0.3143   -0.3  0.4030  123.4
 9.400  0.7895   61.0   0.941  -26.4  0.3135   -1.9  0.4220  119.2
 9.600  0.8033   59.5   0.910  -28.1  0.3126   -3.2  0.4418  115.5
 9.800  0.8150   58.0   0.879  -29.5  0.3115   -4.2  0.4620  112.2
10.000  0.8272   56.6   0.849  -31.1  0.3105   -5.2  0.4835  109.2
!
!  f       NFmin   Gammaopt  rn/50
! GHz       dB    MAG  ANG    -
 0.450      2.18  0.41 -169   0.13
 0.900      2.25  0.38 -159   0.14
 1.900      2.41  0.49 -138   0.20
 3.500      2.03  0.78 -114   0.43
!
! (c) 2016  Infineon Technologies AG, Munich
