! Infineon Technologies  Discrete & RF Semiconductors
! BFP460
! VCE =  4.0 V,  IC =  16 mA
! Common Emitter S-Parameters:                            Jan 2016
# GHz  S  MA  R  50
!  f         S11            S21            S12            S22
! GHz     MAG   ANG      MAG   ANG      MAG   ANG      MAG   ANG
 0.030  0.6700  -11.6  38.995  172.2  0.0052   80.6  0.9552   -7.6
 0.035  0.6687  -13.5  38.828  170.9  0.0060   80.6  0.9526   -8.8
 0.040  0.6681  -15.5  38.680  169.6  0.0068   80.6  0.9505  -10.1
 0.045  0.6659  -17.3  38.412  168.3  0.0075   80.7  0.9473  -11.2
 0.050  0.6643  -19.2  38.163  167.0  0.0083   80.8  0.9445  -12.3
 0.055  0.6623  -21.1  37.995  166.0  0.0091   79.4  0.9407  -13.5
 0.060  0.6611  -23.0  37.839  165.0  0.0099   78.2  0.9374  -14.8
 0.065  0.6581  -25.0  37.746  163.8  0.0106   76.9  0.9328  -16.0
 0.070  0.6560  -27.1  37.670  162.5  0.0114   75.8  0.9286  -17.2
 0.075  0.6562  -29.0  37.414  161.6  0.0121   75.2  0.9235  -18.4
 0.080  0.6571  -30.8  37.168  160.6  0.0128   74.7  0.9188  -19.6
 0.085  0.6524  -32.6  36.917  159.5  0.0135   74.2  0.9129  -20.7
 0.090  0.6483  -34.5  36.680  158.3  0.0143   73.8  0.9074  -21.9
 0.095  0.6463  -36.2  36.342  157.3  0.0150   73.2  0.9015  -23.0
 0.100  0.6449  -37.9  36.015  156.3  0.0158   72.6  0.8959  -24.2
 0.105  0.6435  -39.6  35.792  155.3  0.0165   71.8  0.8894  -25.2
 0.110  0.6428  -41.4  35.579  154.3  0.0172   71.1  0.8831  -26.3
 0.115  0.6388  -43.2  35.307  153.2  0.0178   70.5  0.8764  -27.4
 0.120  0.6355  -45.0  35.049  152.1  0.0185   69.9  0.8700  -28.5
 0.125  0.6319  -46.6  34.753  151.2  0.0191   69.3  0.8631  -29.5
 0.130  0.6287  -48.2  34.466  150.3  0.0197   68.7  0.8564  -30.6
 0.135  0.6249  -49.8  34.195  149.3  0.0203   67.9  0.8494  -31.6
 0.140  0.6217  -51.5  33.934  148.3  0.0209   67.2  0.8426  -32.6
 0.145  0.6185  -53.1  33.587  147.4  0.0215   66.8  0.8353  -33.5
 0.150  0.6158  -54.8  33.250  146.4  0.0221   66.4  0.8283  -34.5
 0.155  0.6113  -56.2  32.927  145.6  0.0226   65.8  0.8203  -35.3
 0.160  0.6072  -57.6  32.610  144.9  0.0231   65.2  0.8124  -36.2
 0.165  0.6034  -59.1  32.299  144.1  0.0236   64.6  0.8048  -37.0
 0.170  0.6000  -60.5  31.994  143.3  0.0241   64.1  0.7973  -37.9
 0.175  0.5971  -62.0  31.696  142.4  0.0246   63.5  0.7900  -38.7
 0.180  0.5945  -63.5  31.404  141.6  0.0251   63.0  0.7829  -39.6
 0.185  0.5923  -65.0  31.119  140.8  0.0256   62.5  0.7759  -40.6
 0.190  0.5905  -66.5  30.842  139.9  0.0261   62.1  0.7692  -41.5
 0.195  0.5892  -68.0  30.571  139.0  0.0266   61.6  0.7627  -42.4
 0.200  0.5882  -69.5  30.308  138.1  0.0271   61.2  0.7564  -43.4
 0.220  0.5743  -74.5  29.105  135.5  0.0287   59.6  0.7275  -46.2
 0.240  0.5650  -79.7  27.968  132.6  0.0303   58.2  0.7006  -49.3
 0.260  0.5566  -84.5  26.886  130.0  0.0317   57.0  0.6748  -52.1
 0.280  0.5478  -88.8  25.835  127.8  0.0330   55.9  0.6495  -54.5
 0.300  0.5422  -93.2  24.828  125.3  0.0343   54.9  0.6255  -57.2
 0.320  0.5326  -97.0  23.889  123.5  0.0354   54.1  0.6031  -59.2
 0.340  0.5253 -100.8  22.978  121.5  0.0365   53.4  0.5815  -61.4
 0.360  0.5188 -104.4  22.127  119.6  0.0376   52.7  0.5614  -63.5
 0.380  0.5124 -107.7  21.327  118.0  0.0385   52.2  0.5426  -65.3
 0.400  0.5078 -111.1  20.546  116.2  0.0394   51.7  0.5244  -67.3
 0.420  0.5021 -114.0  19.845  114.8  0.0403   51.3  0.5080  -68.9
 0.440  0.4977 -116.9  19.156  113.4  0.0412   51.0  0.4919  -70.5
 0.450  0.4960 -118.4  18.816  112.6  0.0416   50.8  0.4841  -71.4
 0.460  0.4936 -119.6  18.515  112.0  0.0420   50.7  0.4770  -72.1
 0.480  0.4896 -122.2  17.919  110.8  0.0428   50.5  0.4631  -73.5
 0.500  0.4865 -124.7  17.332  109.5  0.0436   50.3  0.4494  -75.0
 0.520  0.4826 -126.8  16.837  108.5  0.0443   50.2  0.4379  -76.1
 0.540  0.4793 -129.0  16.347  107.5  0.0451   50.1  0.4266  -77.3
 0.560  0.4768 -131.2  15.863  106.5  0.0458   50.1  0.4155  -78.5
 0.580  0.4750 -133.5  15.384  105.3  0.0466   50.0  0.4046  -79.8
 0.600  0.4739 -135.7  14.912  104.1  0.0473   49.9  0.3939  -81.2
 0.620  0.4714 -137.4  14.532  103.3  0.0480   49.9  0.3852  -82.2
 0.640  0.4693 -139.2  14.154  102.5  0.0487   49.9  0.3767  -83.2
 0.660  0.4677 -140.9  13.780  101.6  0.0495   49.9  0.3683  -84.2
 0.680  0.4665 -142.7  13.409  100.7  0.0502   49.9  0.3600  -85.3
 0.700  0.4658 -144.5  13.042   99.7  0.0509   49.9  0.3518  -86.5
 0.720  0.4642 -145.9  12.745   99.0  0.0516   50.0  0.3452  -87.3
 0.740  0.4628 -147.4  12.450   98.3  0.0523   50.0  0.3386  -88.2
 0.760  0.4618 -148.9  12.156   97.6  0.0531   50.1  0.3321  -89.1
 0.780  0.4610 -150.3  11.865   96.8  0.0538   50.1  0.3257  -90.0
 0.800  0.4606 -151.8  11.576   96.0  0.0545   50.2  0.3194  -91.0
 0.820  0.4597 -153.1  11.339   95.4  0.0552   50.3  0.3143  -91.8
 0.840  0.4589 -154.3  11.103   94.8  0.0559   50.4  0.3092  -92.6
 0.860  0.4584 -155.6  10.869   94.2  0.0567   50.4  0.3042  -93.4
 0.880  0.4582 -156.8  10.636   93.5  0.0574   50.5  0.2992  -94.2
 0.900  0.4581 -158.1  10.404   92.8  0.0581   50.6  0.2943  -95.1
 0.920  0.4572 -159.2  10.209   92.3  0.0588   50.7  0.2902  -95.8
 0.940  0.4565 -160.3  10.015   91.7  0.0595   50.8  0.2860  -96.5
 0.960  0.4560 -161.4   9.823   91.1  0.0603   50.8  0.2820  -97.2
 0.980  0.4556 -162.5   9.631   90.5  0.0610   50.9  0.2780  -97.9
 1.000  0.4554 -163.6   9.440   89.9  0.0617   51.0  0.2740  -98.7
 1.020  0.4550 -164.6   9.277   89.4  0.0624   51.1  0.2707  -99.3
 1.040  0.4548 -165.6   9.114   88.9  0.0632   51.1  0.2675 -100.0
 1.060  0.4546 -166.5   8.952   88.3  0.0639   51.2  0.2643 -100.7
 1.080  0.4547 -167.5   8.791   87.8  0.0647   51.2  0.2612 -101.4
 1.100  0.4548 -168.5   8.631   87.2  0.0654   51.3  0.2581 -102.1
 1.120  0.4547 -169.4   8.494   86.8  0.0662   51.4  0.2554 -102.7
 1.140  0.4547 -170.3   8.357   86.3  0.0669   51.4  0.2527 -103.3
 1.160  0.4548 -171.1   8.221   85.8  0.0677   51.5  0.2500 -103.9
 1.180  0.4551 -172.0   8.086   85.3  0.0684   51.5  0.2474 -104.6
 1.200  0.4554 -172.9   7.951   84.8  0.0692   51.6  0.2448 -105.2
 1.220  0.4554 -173.7   7.833   84.4  0.0700   51.6  0.2427 -105.8
 1.240  0.4555 -174.5   7.716   83.9  0.0707   51.6  0.2406 -106.3
 1.260  0.4557 -175.4   7.599   83.5  0.0715   51.7  0.2386 -106.9
 1.280  0.4559 -176.2   7.483   83.0  0.0722   51.7  0.2366 -107.5
 1.300  0.4563 -177.0   7.367   82.5  0.0730   51.7  0.2346 -108.1
 1.320  0.4563 -177.7   7.266   82.1  0.0738   51.7  0.2327 -108.6
 1.340  0.4564 -178.5   7.165   81.7  0.0746   51.7  0.2308 -109.2
 1.360  0.4566 -179.2   7.064   81.2  0.0753   51.8  0.2290 -109.8
 1.380  0.4568 -180.0   6.964   80.8  0.0761   51.8  0.2271 -110.3
 1.400  0.4571  179.3   6.864   80.3  0.0769   51.8  0.2253 -110.9
 1.420  0.4573  178.6   6.776   79.9  0.0777   51.8  0.2239 -111.4
 1.440  0.4577  177.8   6.688   79.5  0.0785   51.8  0.2225 -111.9
 1.460  0.4581  177.1   6.601   79.0  0.0792   51.8  0.2211 -112.4
 1.480  0.4585  176.3   6.514   78.6  0.0800   51.8  0.2197 -113.0
 1.500  0.4591  175.6   6.428   78.1  0.0808   51.8  0.2184 -113.5
 1.520  0.4594  174.9   6.350   77.7  0.0816   51.8  0.2171 -114.0
 1.540  0.4598  174.3   6.271   77.3  0.0823   51.8  0.2159 -114.6
 1.560  0.4602  173.6   6.194   76.9  0.0831   51.8  0.2146 -115.1
 1.580  0.4607  173.0   6.116   76.5  0.0838   51.8  0.2134 -115.6
 1.600  0.4612  172.3   6.039   76.1  0.0846   51.8  0.2122 -116.2
 1.620  0.4616  171.7   5.971   75.7  0.0854   51.8  0.2112 -116.7
 1.640  0.4620  171.1   5.903   75.4  0.0862   51.7  0.2102 -117.1
 1.660  0.4624  170.5   5.835   75.0  0.0870   51.7  0.2092 -117.6
 1.680  0.4629  169.9   5.768   74.6  0.0878   51.6  0.2082 -118.1
 1.700  0.4635  169.3   5.701   74.2  0.0886   51.6  0.2072 -118.6
 1.720  0.4638  168.7   5.639   73.8  0.0894   51.6  0.2063 -119.1
 1.740  0.4641  168.1   5.577   73.5  0.0902   51.5  0.2055 -119.5
 1.760  0.4644  167.6   5.515   73.1  0.0910   51.5  0.2046 -120.0
 1.780  0.4648  167.0   5.454   72.7  0.0918   51.4  0.2038 -120.5
 1.800  0.4653  166.4   5.393   72.3  0.0926   51.4  0.2030 -121.0
 1.820  0.4658  165.8   5.339   71.9  0.0934   51.3  0.2023 -121.5
 1.840  0.4664  165.2   5.285   71.6  0.0942   51.3  0.2015 -121.9
 1.860  0.4670  164.7   5.231   71.2  0.0949   51.2  0.2008 -122.4
 1.880  0.4677  164.1   5.177   70.8  0.0957   51.2  0.2001 -122.9
 1.900  0.4684  163.5   5.124   70.4  0.0965   51.1  0.1994 -123.4
 1.920  0.4690  163.0   5.074   70.0  0.0973   51.0  0.1988 -123.9
 1.940  0.4696  162.4   5.024   69.7  0.0981   51.0  0.1982 -124.4
 1.960  0.4702  161.9   4.975   69.3  0.0989   50.9  0.1977 -124.8
 1.980  0.4709  161.3   4.925   68.9  0.0997   50.9  0.1971 -125.3
 2.000  0.4716  160.8   4.876   68.5  0.1005   50.8  0.1966 -125.8
 2.020  0.4722  160.3   4.832   68.2  0.1013   50.7  0.1961 -126.3
 2.040  0.4728  159.7   4.788   67.8  0.1021   50.6  0.1957 -126.8
 2.060  0.4734  159.2   4.744   67.5  0.1029   50.5  0.1953 -127.3
 2.080  0.4741  158.7   4.700   67.1  0.1037   50.5  0.1949 -127.8
 2.100  0.4749  158.2   4.656   66.8  0.1044   50.4  0.1945 -128.3
 2.120  0.4756  157.7   4.613   66.4  0.1052   50.3  0.1941 -128.8
 2.140  0.4764  157.1   4.570   66.1  0.1060   50.2  0.1937 -129.3
 2.160  0.4773  156.6   4.526   65.7  0.1068   50.2  0.1934 -129.8
 2.180  0.4782  156.1   4.484   65.3  0.1076   50.1  0.1930 -130.3
 2.200  0.4791  155.6   4.441   64.9  0.1084   50.0  0.1927 -130.8
 2.220  0.4798  155.1   4.404   64.6  0.1092   49.9  0.1924 -131.3
 2.240  0.4806  154.6   4.367   64.2  0.1100   49.8  0.1922 -131.8
 2.260  0.4815  154.1   4.331   63.9  0.1107   49.7  0.1919 -132.3
 2.280  0.4823  153.6   4.294   63.6  0.1115   49.6  0.1917 -132.9
 2.300  0.4832  153.1   4.258   63.2  0.1123   49.5  0.1915 -133.4
 2.320  0.4841  152.6   4.222   62.9  0.1131   49.4  0.1913 -133.9
 2.340  0.4851  152.2   4.186   62.5  0.1139   49.3  0.1911 -134.4
 2.360  0.4861  151.7   4.150   62.1  0.1146   49.2  0.1910 -135.0
 2.380  0.4871  151.2   4.114   61.8  0.1154   49.1  0.1908 -135.5
 2.400  0.4882  150.7   4.079   61.4  0.1162   49.0  0.1907 -136.0
 2.420  0.4890  150.2   4.047   61.1  0.1170   48.9  0.1907 -136.5
 2.440  0.4899  149.8   4.016   60.8  0.1177   48.8  0.1907 -137.1
 2.460  0.4908  149.3   3.984   60.4  0.1185   48.7  0.1907 -137.6
 2.480  0.4917  148.9   3.953   60.1  0.1193   48.5  0.1907 -138.1
 2.500  0.4927  148.4   3.921   59.8  0.1200   48.4  0.1908 -138.7
 2.520  0.4937  148.0   3.890   59.4  0.1208   48.3  0.1909 -139.2
 2.540  0.4947  147.5   3.859   59.1  0.1216   48.2  0.1909 -139.7
 2.560  0.4957  147.1   3.828   58.7  0.1224   48.1  0.1910 -140.2
 2.580  0.4968  146.6   3.798   58.4  0.1231   48.0  0.1912 -140.8
 2.600  0.4979  146.2   3.767   58.0  0.1239   47.9  0.1913 -141.3
 2.620  0.4987  145.8   3.740   57.7  0.1246   47.8  0.1915 -141.8
 2.640  0.4995  145.3   3.712   57.4  0.1254   47.6  0.1917 -142.3
 2.660  0.5004  144.9   3.685   57.1  0.1261   47.5  0.1920 -142.8
 2.680  0.5013  144.5   3.658   56.8  0.1269   47.4  0.1922 -143.4
 2.700  0.5022  144.1   3.631   56.5  0.1276   47.2  0.1925 -143.9
 2.720  0.5031  143.7   3.604   56.1  0.1284   47.1  0.1928 -144.4
 2.740  0.5041  143.2   3.577   55.8  0.1291   47.0  0.1931 -144.9
 2.760  0.5050  142.8   3.551   55.5  0.1299   46.8  0.1934 -145.4
 2.780  0.5061  142.4   3.524   55.1  0.1306   46.7  0.1938 -145.9
 2.800  0.5071  142.0   3.498   54.8  0.1314   46.6  0.1941 -146.4
 2.820  0.5080  141.6   3.474   54.5  0.1321   46.5  0.1945 -146.9
 2.840  0.5090  141.2   3.450   54.2  0.1329   46.3  0.1948 -147.4
 2.860  0.5100  140.8   3.426   53.9  0.1336   46.2  0.1952 -147.9
 2.880  0.5110  140.4   3.402   53.6  0.1344   46.1  0.1957 -148.3
 2.900  0.5120  140.0   3.379   53.3  0.1351   46.0  0.1961 -148.8
 2.920  0.5131  139.6   3.355   52.9  0.1358   45.9  0.1965 -149.3
 2.940  0.5142  139.2   3.332   52.6  0.1366   45.7  0.1970 -149.8
 2.960  0.5153  138.8   3.308   52.3  0.1373   45.6  0.1974 -150.3
 2.980  0.5164  138.4   3.285   51.9  0.1381   45.5  0.1979 -150.7
 3.000  0.5176  138.0   3.262   51.6  0.1388   45.4  0.1984 -151.2
 3.100  0.5220  136.1   3.163   50.3  0.1423   44.6  0.2008 -153.5
 3.200  0.5269  134.2   3.066   48.8  0.1458   43.9  0.2034 -155.7
 3.300  0.5323  132.4   2.971   47.3  0.1494   43.1  0.2064 -157.8
 3.400  0.5383  130.6   2.878   45.7  0.1529   42.5  0.2096 -159.9
 3.500  0.5448  128.9   2.788   44.0  0.1565   41.8  0.2131 -161.9
 3.600  0.5500  127.2   2.712   42.7  0.1596   41.0  0.2164 -164.2
 3.700  0.5557  125.6   2.638   41.4  0.1628   40.3  0.2200 -166.4
 3.800  0.5619  124.0   2.565   39.9  0.1660   39.6  0.2239 -168.6
 3.900  0.5684  122.4   2.494   38.4  0.1692   38.9  0.2282 -170.7
 4.000  0.5754  120.9   2.425   36.8  0.1725   38.2  0.2327 -172.7
 4.100  0.5809  119.5   2.365   35.6  0.1754   37.5  0.2376 -174.7
 4.200  0.5867  118.2   2.306   34.3  0.1783   36.8  0.2427 -176.7
 4.300  0.5928  116.9   2.248   33.0  0.1812   36.1  0.2482 -178.6
 4.400  0.5992  115.6   2.191   31.6  0.1842   35.4  0.2539  179.6
 4.500  0.6059  114.4   2.136   30.1  0.1872   34.8  0.2598  177.9
 4.600  0.6101  113.2   2.089   29.0  0.1900   34.2  0.2642  176.5
 4.700  0.6145  112.0   2.043   27.8  0.1929   33.5  0.2687  175.2
 4.800  0.6192  110.8   1.998   26.5  0.1958   32.9  0.2734  173.9
 4.900  0.6242  109.6   1.953   25.3  0.1987   32.4  0.2782  172.6
 5.000  0.6294  108.5   1.910   23.9  0.2016   31.8  0.2831  171.4
 5.100  0.6325  107.5   1.874   22.9  0.2047   31.1  0.2862  170.4
 5.200  0.6357  106.5   1.838   21.8  0.2078   30.5  0.2894  169.4
 5.300  0.6392  105.5   1.803   20.7  0.2109   29.8  0.2927  168.4
 5.400  0.6428  104.6   1.769   19.5  0.2140   29.2  0.2961  167.4
 5.500  0.6466  103.6   1.735   18.3  0.2172   28.6  0.2995  166.5
 5.600  0.6488  102.8   1.706   17.2  0.2201   27.8  0.3033  165.6
 5.700  0.6511  102.0   1.678   16.1  0.2230   27.1  0.3071  164.7
 5.800  0.6536  101.2   1.650   15.0  0.2260   26.3  0.3110  163.8
 5.900  0.6562  100.4   1.623   13.8  0.2290   25.6  0.3150  162.9
 6.000  0.6589   99.6   1.597   12.6  0.2320   24.9  0.3190  162.1
 6.100  0.6597   98.8   1.572   11.6  0.2345   24.2  0.3218  161.5
 6.200  0.6606   98.0   1.548   10.6  0.2371   23.5  0.3247  161.0
 6.300  0.6616   97.1   1.525    9.5  0.2397   22.8  0.3276  160.5
 6.400  0.6628   96.3   1.502    8.4  0.2423   22.2  0.3305  159.9
 6.500  0.6641   95.5   1.479    7.3  0.2450   21.5  0.3334  159.4
 6.600  0.6636   94.5   1.460    6.3  0.2479   20.9  0.3335  159.0
 6.800  0.6632   92.6   1.423    4.3  0.2539   19.6  0.3336  158.3
 7.000  0.6635   90.7   1.388    2.1  0.2599   18.4  0.3338  157.5
 7.200  0.6652   88.5   1.359   -0.0  0.2663   16.8  0.3338  156.1
 7.400  0.6680   86.3   1.331   -2.3  0.2728   15.3  0.3340  154.6
 7.600  0.6721   83.9   1.303   -4.6  0.2791   13.7  0.3359  152.7
 7.800  0.6780   81.4   1.276   -7.0  0.2852   11.8  0.3396  150.4
 8.000  0.6851   78.9   1.251   -9.6  0.2916   10.1  0.3439  148.1
 8.200  0.6909   76.2   1.219  -12.0  0.2959    8.0  0.3482  145.2
 8.400  0.6982   73.6   1.188  -14.5  0.3006    6.0  0.3533  142.3
 8.600  0.7078   71.1   1.157  -16.9  0.3037    4.0  0.3596  138.7
 8.800  0.7196   68.8   1.124  -19.2  0.3052    2.0  0.3678  134.5
 9.000  0.7326   66.5   1.093  -21.6  0.3070    0.0  0.3780  130.5
 9.200  0.7489   64.6   1.057  -23.5  0.3063   -1.6  0.3940  125.7
 9.400  0.7659   62.8   1.023  -25.5  0.3058   -3.1  0.4126  121.3
 9.600  0.7810   61.1   0.989  -27.3  0.3051   -4.4  0.4322  117.4
 9.800  0.7940   59.6   0.956  -28.8  0.3041   -5.4  0.4522  114.0
10.000  0.8075   58.2   0.923  -30.4  0.3032   -6.4  0.4737  110.9
!
!  f       NFmin   Gammaopt  rn/50
! GHz       dB    MAG  ANG    -
 0.450      1.15  0.02 -171   0.12
 0.900      1.13  0.05   97   0.15
 1.900      1.29  0.14 -157   0.12
 3.500      1.26  0.38 -127   0.14
!
! (c) 2016  Infineon Technologies AG, Munich
