! Infineon Technologies  Discrete & RF Semiconductors
! BFP460
! VCE =  2.0 V,  IC =  25 mA
! Common Emitter S-Parameters:                            Jan 2016
# GHz  S  MA  R  50
!  f         S11            S21            S12            S22
! GHz     MAG   ANG      MAG   ANG      MAG   ANG      MAG   ANG
 0.030  0.5420  -17.5  51.238  170.7  0.0051   83.5  0.9351  -10.2
 0.035  0.5391  -20.3  50.934  169.0  0.0059   82.5  0.9312  -11.9
 0.040  0.5375  -23.2  50.674  167.3  0.0067   81.7  0.9281  -13.7
 0.045  0.5361  -26.0  50.247  165.5  0.0075   80.6  0.9229  -15.4
 0.050  0.5360  -28.8  49.870  163.7  0.0083   79.7  0.9186  -17.2
 0.055  0.5328  -31.5  49.510  162.3  0.0090   78.8  0.9121  -18.9
 0.060  0.5307  -34.2  49.180  160.9  0.0097   78.1  0.9065  -20.6
 0.065  0.5288  -37.3  48.868  159.3  0.0104   76.8  0.8991  -22.2
 0.070  0.5285  -40.4  48.594  157.7  0.0111   75.6  0.8925  -23.9
 0.075  0.5292  -42.8  48.106  156.5  0.0118   74.5  0.8843  -25.5
 0.080  0.5308  -45.2  47.639  155.3  0.0125   73.6  0.8767  -27.1
 0.085  0.5285  -47.9  47.115  153.9  0.0131   72.6  0.8676  -28.7
 0.090  0.5273  -50.6  46.621  152.4  0.0138   71.7  0.8592  -30.3
 0.095  0.5249  -52.7  46.007  151.2  0.0144   70.8  0.8502  -31.7
 0.100  0.5232  -54.9  45.413  150.0  0.0150   70.0  0.8417  -33.2
 0.105  0.5229  -57.3  44.940  148.8  0.0156   69.3  0.8321  -34.6
 0.110  0.5235  -59.7  44.488  147.5  0.0162   68.6  0.8230  -36.1
 0.115  0.5204  -62.0  43.929  146.3  0.0167   67.9  0.8133  -37.4
 0.120  0.5182  -64.3  43.390  145.0  0.0173   67.2  0.8041  -38.8
 0.125  0.5159  -66.4  42.837  144.0  0.0178   66.4  0.7941  -40.1
 0.130  0.5143  -68.5  42.299  142.9  0.0183   65.6  0.7846  -41.5
 0.135  0.5119  -70.6  41.775  141.8  0.0188   65.0  0.7749  -42.8
 0.140  0.5103  -72.8  41.267  140.6  0.0193   64.5  0.7656  -44.1
 0.145  0.5088  -74.7  40.660  139.6  0.0197   63.8  0.7559  -45.3
 0.150  0.5078  -76.7  40.066  138.5  0.0202   63.1  0.7466  -46.5
 0.155  0.5046  -78.4  39.525  137.7  0.0206   62.6  0.7366  -47.4
 0.160  0.5018  -80.0  38.992  136.9  0.0210   62.1  0.7269  -48.4
 0.165  0.4995  -81.7  38.466  136.1  0.0214   61.7  0.7173  -49.4
 0.170  0.4976  -83.4  37.948  135.3  0.0217   61.2  0.7080  -50.4
 0.175  0.4962  -85.1  37.439  134.4  0.0221   60.8  0.6989  -51.5
 0.180  0.4952  -86.9  36.939  133.5  0.0225   60.4  0.6901  -52.5
 0.185  0.4946  -88.6  36.448  132.6  0.0229   60.0  0.6814  -53.6
 0.190  0.4945  -90.3  35.966  131.7  0.0233   59.6  0.6731  -54.8
 0.195  0.4949  -92.1  35.494  130.7  0.0237   59.3  0.6650  -55.9
 0.200  0.4957  -93.8  35.033  129.7  0.0241   58.9  0.6572  -57.1
 0.220  0.4887  -99.2  33.222  127.1  0.0253   57.8  0.6252  -60.3
 0.240  0.4860 -104.7  31.487  124.3  0.0265   56.9  0.5955  -63.9
 0.260  0.4836 -109.5  29.910  121.7  0.0276   56.1  0.5683  -67.1
 0.280  0.4801 -113.8  28.458  119.6  0.0287   55.4  0.5429  -69.9
 0.300  0.4792 -118.1  27.049  117.2  0.0297   54.8  0.5189  -73.0
 0.320  0.4764 -121.6  25.835  115.6  0.0306   54.5  0.4980  -75.3
 0.340  0.4754 -125.1  24.645  113.8  0.0315   54.2  0.4780  -77.7
 0.360  0.4740 -128.3  23.561  112.1  0.0323   54.1  0.4599  -80.0
 0.380  0.4717 -131.3  22.576  110.6  0.0332   54.0  0.4434  -82.0
 0.400  0.4707 -134.2  21.608  109.0  0.0341   53.9  0.4275  -84.2
 0.420  0.4694 -136.7  20.784  107.8  0.0349   53.9  0.4138  -86.0
 0.440  0.4690 -139.2  19.969  106.6  0.0358   53.9  0.4005  -88.0
 0.450  0.4691 -140.4  19.565  105.9  0.0362   53.9  0.3940  -89.0
 0.460  0.4685 -141.4  19.221  105.4  0.0366   53.9  0.3883  -89.8
 0.480  0.4677 -143.5  18.538  104.4  0.0373   54.0  0.3771  -91.4
 0.500  0.4675 -145.6  17.861  103.3  0.0381   54.1  0.3662  -93.1
 0.520  0.4664 -147.3  17.315  102.5  0.0389   54.3  0.3573  -94.4
 0.540  0.4656 -149.1  16.772  101.6  0.0397   54.4  0.3487  -95.8
 0.560  0.4654 -150.8  16.233  100.7  0.0406   54.6  0.3403  -97.3
 0.580  0.4655 -152.6  15.699   99.7  0.0414   54.8  0.3321  -98.8
 0.600  0.4661 -154.3  15.169   98.7  0.0422   54.9  0.3241 -100.4
 0.620  0.4655 -155.7  14.762   98.0  0.0430   55.1  0.3178 -101.5
 0.640  0.4651 -157.1  14.358   97.3  0.0438   55.2  0.3116 -102.7
 0.660  0.4650 -158.4  13.956   96.6  0.0447   55.3  0.3056 -104.0
 0.680  0.4652 -159.8  13.556   95.8  0.0455   55.5  0.2997 -105.3
 0.700  0.4656 -161.2  13.159   95.0  0.0463   55.6  0.2940 -106.6
 0.720  0.4656 -162.3  12.847   94.4  0.0471   55.7  0.2894 -107.6
 0.740  0.4657 -163.5  12.536   93.8  0.0479   55.9  0.2849 -108.7
 0.760  0.4661 -164.6  12.226   93.2  0.0488   56.0  0.2805 -109.7
 0.780  0.4666 -165.8  11.918   92.5  0.0496   56.2  0.2762 -110.9
 0.800  0.4673 -166.9  11.612   91.8  0.0504   56.3  0.2720 -112.0
 0.820  0.4674 -167.9  11.367   91.3  0.0513   56.4  0.2686 -112.9
 0.840  0.4675 -168.8  11.122   90.8  0.0521   56.6  0.2653 -113.8
 0.860  0.4679 -169.8  10.879   90.2  0.0530   56.7  0.2620 -114.8
 0.880  0.4683 -170.7  10.637   89.6  0.0538   56.8  0.2588 -115.7
 0.900  0.4689 -171.7  10.396   89.0  0.0547   56.9  0.2557 -116.7
 0.920  0.4688 -172.6  10.196   88.5  0.0556   57.0  0.2531 -117.5
 0.940  0.4689 -173.4   9.997   88.1  0.0564   57.1  0.2505 -118.4
 0.960  0.4691 -174.3   9.798   87.6  0.0573   57.1  0.2480 -119.2
 0.980  0.4693 -175.1   9.600   87.0  0.0581   57.2  0.2455 -120.1
 1.000  0.4697 -176.0   9.403   86.5  0.0590   57.3  0.2431 -121.0
 1.020  0.4697 -176.8   9.237   86.1  0.0599   57.3  0.2412 -121.7
 1.040  0.4699 -177.6   9.072   85.6  0.0608   57.4  0.2393 -122.5
 1.060  0.4701 -178.4   8.907   85.1  0.0616   57.4  0.2375 -123.2
 1.080  0.4704 -179.2   8.743   84.6  0.0625   57.5  0.2357 -124.0
 1.100  0.4708 -180.0   8.580   84.1  0.0634   57.5  0.2339 -124.8
 1.120  0.4710  179.3   8.441   83.7  0.0643   57.5  0.2324 -125.5
 1.140  0.4713  178.6   8.302   83.3  0.0652   57.6  0.2308 -126.2
 1.160  0.4716  178.0   8.164   82.8  0.0661   57.6  0.2294 -126.9
 1.180  0.4720  177.3   8.026   82.4  0.0670   57.7  0.2279 -127.6
 1.200  0.4725  176.6   7.889   81.9  0.0679   57.7  0.2265 -128.3
 1.220  0.4728  175.9   7.771   81.5  0.0688   57.7  0.2254 -128.9
 1.240  0.4732  175.3   7.653   81.1  0.0697   57.7  0.2243 -129.5
 1.260  0.4736  174.6   7.535   80.7  0.0705   57.6  0.2232 -130.1
 1.280  0.4741  174.0   7.418   80.2  0.0714   57.6  0.2222 -130.8
 1.300  0.4746  173.3   7.301   79.8  0.0723   57.6  0.2212 -131.4
 1.320  0.4750  172.7   7.199   79.4  0.0732   57.6  0.2202 -132.0
 1.340  0.4754  172.1   7.097   79.0  0.0741   57.6  0.2192 -132.6
 1.360  0.4758  171.5   6.995   78.6  0.0750   57.5  0.2183 -133.2
 1.380  0.4763  170.9   6.894   78.2  0.0759   57.5  0.2174 -133.8
 1.400  0.4769  170.3   6.793   77.8  0.0768   57.5  0.2165 -134.4
 1.420  0.4773  169.7   6.705   77.4  0.0777   57.4  0.2159 -134.9
 1.440  0.4777  169.1   6.617   77.1  0.0786   57.4  0.2152 -135.4
 1.460  0.4781  168.5   6.529   76.7  0.0795   57.3  0.2146 -136.0
 1.480  0.4786  167.9   6.442   76.3  0.0804   57.3  0.2141 -136.5
 1.500  0.4792  167.3   6.355   75.9  0.0813   57.2  0.2135 -137.0
 1.520  0.4796  166.7   6.277   75.5  0.0822   57.2  0.2129 -137.5
 1.540  0.4801  166.2   6.199   75.2  0.0831   57.1  0.2124 -138.1
 1.560  0.4806  165.6   6.121   74.8  0.0839   57.1  0.2119 -138.6
 1.580  0.4811  165.1   6.043   74.4  0.0848   57.0  0.2114 -139.2
 1.600  0.4817  164.5   5.966   74.0  0.0857   57.0  0.2109 -139.7
 1.620  0.4822  164.0   5.898   73.7  0.0866   56.9  0.2105 -140.2
 1.640  0.4827  163.5   5.830   73.3  0.0875   56.8  0.2101 -140.7
 1.660  0.4833  162.9   5.762   72.9  0.0885   56.7  0.2098 -141.1
 1.680  0.4839  162.4   5.694   72.6  0.0894   56.6  0.2094 -141.6
 1.700  0.4846  161.9   5.627   72.2  0.0903   56.5  0.2091 -142.1
 1.720  0.4850  161.4   5.565   71.9  0.0912   56.4  0.2089 -142.6
 1.740  0.4855  160.9   5.504   71.5  0.0921   56.3  0.2086 -143.0
 1.760  0.4860  160.4   5.442   71.1  0.0930   56.3  0.2084 -143.5
 1.780  0.4865  159.9   5.381   70.8  0.0939   56.2  0.2082 -143.9
 1.800  0.4871  159.4   5.320   70.4  0.0948   56.1  0.2080 -144.4
 1.820  0.4877  158.9   5.266   70.1  0.0957   56.0  0.2078 -144.9
 1.840  0.4884  158.4   5.212   69.7  0.0966   55.9  0.2076 -145.3
 1.860  0.4891  157.9   5.158   69.4  0.0974   55.8  0.2074 -145.8
 1.880  0.4898  157.4   5.104   69.1  0.0983   55.7  0.2073 -146.2
 1.900  0.4906  156.9   5.051   68.7  0.0992   55.6  0.2071 -146.7
 1.920  0.4911  156.4   5.002   68.4  0.1001   55.5  0.2070 -147.1
 1.940  0.4917  155.9   4.952   68.0  0.1010   55.4  0.2070 -147.6
 1.960  0.4923  155.5   4.903   67.6  0.1019   55.2  0.2069 -148.0
 1.980  0.4929  155.0   4.855   67.3  0.1028   55.1  0.2069 -148.5
 2.000  0.4936  154.5   4.806   66.9  0.1037   55.0  0.2069 -148.9
 2.020  0.4942  154.0   4.762   66.6  0.1046   54.9  0.2070 -149.4
 2.040  0.4949  153.6   4.718   66.3  0.1055   54.7  0.2070 -149.8
 2.060  0.4955  153.1   4.674   65.9  0.1063   54.6  0.2071 -150.3
 2.080  0.4962  152.7   4.630   65.6  0.1072   54.5  0.2072 -150.7
 2.100  0.4970  152.2   4.587   65.2  0.1081   54.3  0.2073 -151.2
 2.120  0.4977  151.8   4.544   64.9  0.1090   54.2  0.2075 -151.6
 2.140  0.4985  151.3   4.500   64.5  0.1099   54.1  0.2076 -152.1
 2.160  0.4994  150.9   4.457   64.2  0.1107   53.9  0.2078 -152.5
 2.180  0.5002  150.4   4.415   63.8  0.1116   53.8  0.2079 -153.0
 2.200  0.5011  150.0   4.372   63.4  0.1125   53.7  0.2081 -153.4
 2.220  0.5019  149.6   4.335   63.1  0.1134   53.6  0.2083 -153.9
 2.240  0.5028  149.1   4.299   62.8  0.1142   53.4  0.2086 -154.3
 2.260  0.5036  148.7   4.263   62.5  0.1151   53.3  0.2088 -154.8
 2.280  0.5046  148.3   4.227   62.1  0.1160   53.1  0.2091 -155.2
 2.300  0.5055  147.8   4.191   61.8  0.1168   53.0  0.2093 -155.7
 2.320  0.5065  147.4   4.155   61.5  0.1177   52.8  0.2096 -156.1
 2.340  0.5075  147.0   4.119   61.2  0.1186   52.7  0.2099 -156.6
 2.360  0.5085  146.5   4.084   60.8  0.1195   52.6  0.2102 -157.0
 2.380  0.5095  146.1   4.048   60.5  0.1203   52.4  0.2106 -157.5
 2.400  0.5106  145.7   4.013   60.1  0.1212   52.3  0.2109 -157.9
 2.420  0.5114  145.3   3.981   59.8  0.1220   52.1  0.2113 -158.3
 2.440  0.5122  144.9   3.950   59.5  0.1229   52.0  0.2118 -158.8
 2.460  0.5131  144.5   3.919   59.2  0.1237   51.8  0.2122 -159.2
 2.480  0.5140  144.0   3.888   58.9  0.1245   51.7  0.2127 -159.7
 2.500  0.5149  143.6   3.856   58.6  0.1254   51.5  0.2132 -160.1
 2.520  0.5159  143.2   3.826   58.2  0.1262   51.4  0.2137 -160.6
 2.540  0.5168  142.8   3.795   57.9  0.1271   51.2  0.2142 -161.0
 2.560  0.5178  142.4   3.764   57.6  0.1279   51.1  0.2147 -161.4
 2.580  0.5189  142.0   3.733   57.2  0.1288   50.9  0.2153 -161.9
 2.600  0.5199  141.6   3.703   56.9  0.1296   50.8  0.2158 -162.3
 2.620  0.5207  141.2   3.676   56.6  0.1304   50.6  0.2164 -162.7
 2.640  0.5215  140.9   3.649   56.3  0.1312   50.5  0.2171 -163.1
 2.660  0.5223  140.5   3.622   56.0  0.1320   50.3  0.2177 -163.5
 2.680  0.5232  140.1   3.595   55.7  0.1329   50.1  0.2184 -163.9
 2.700  0.5241  139.7   3.568   55.4  0.1337   50.0  0.2190 -164.3
 2.720  0.5250  139.4   3.541   55.0  0.1345   49.8  0.2197 -164.7
 2.740  0.5259  139.0   3.515   54.7  0.1353   49.7  0.2204 -165.1
 2.760  0.5268  138.6   3.488   54.4  0.1362   49.5  0.2211 -165.5
 2.780  0.5278  138.3   3.462   54.0  0.1370   49.4  0.2218 -165.9
 2.800  0.5288  137.9   3.436   53.7  0.1378   49.2  0.2225 -166.3
 2.820  0.5297  137.5   3.412   53.4  0.1386   49.0  0.2232 -166.7
 2.840  0.5306  137.2   3.389   53.1  0.1394   48.9  0.2239 -167.1
 2.860  0.5315  136.8   3.365   52.8  0.1402   48.7  0.2246 -167.4
 2.880  0.5324  136.4   3.342   52.5  0.1410   48.5  0.2253 -167.8
 2.900  0.5333  136.1   3.318   52.2  0.1418   48.4  0.2261 -168.2
 2.920  0.5343  135.7   3.295   51.9  0.1426   48.2  0.2268 -168.5
 2.940  0.5353  135.4   3.272   51.6  0.1434   48.1  0.2276 -168.9
 2.960  0.5363  135.0   3.249   51.3  0.1442   47.9  0.2283 -169.3
 2.980  0.5373  134.7   3.226   50.9  0.1450   47.8  0.2291 -169.6
 3.000  0.5384  134.3   3.203   50.6  0.1458   47.6  0.2299 -170.0
 3.100  0.5426  132.5   3.105   49.3  0.1495   46.7  0.2336 -171.8
 3.200  0.5473  130.8   3.009   47.9  0.1533   45.8  0.2376 -173.5
 3.300  0.5525  129.1   2.915   46.4  0.1571   45.0  0.2418 -175.2
 3.400  0.5582  127.4   2.823   44.9  0.1609   44.2  0.2461 -176.8
 3.500  0.5643  125.8   2.733   43.2  0.1648   43.4  0.2507 -178.3
 3.600  0.5694  124.2   2.658   42.0  0.1681   42.5  0.2552  179.8
 3.700  0.5749  122.7   2.585   40.7  0.1714   41.6  0.2599  178.1
 3.800  0.5808  121.2   2.513   39.3  0.1748   40.8  0.2649  176.3
 3.900  0.5870  119.7   2.443   37.8  0.1782   40.0  0.2701  174.7
 4.000  0.5937  118.3   2.374   36.3  0.1817   39.2  0.2755  173.1
 4.100  0.5990  117.0   2.315   35.1  0.1847   38.4  0.2812  171.5
 4.200  0.6047  115.8   2.257   33.9  0.1877   37.6  0.2871  169.9
 4.300  0.6106  114.6   2.200   32.6  0.1907   36.8  0.2933  168.4
 4.400  0.6168  113.4   2.144   31.2  0.1938   36.0  0.2996  167.0
 4.500  0.6232  112.2   2.089   29.8  0.1969   35.3  0.3061  165.6
 4.600  0.6273  111.0   2.043   28.7  0.1998   34.6  0.3106  164.4
 4.700  0.6316  109.9   1.998   27.6  0.2027   33.9  0.3152  163.3
 4.800  0.6362  108.8   1.954   26.4  0.2057   33.3  0.3200  162.2
 4.900  0.6410  107.7   1.910   25.2  0.2087   32.6  0.3248  161.1
 5.000  0.6461  106.6   1.868   23.9  0.2117   32.0  0.3298  160.1
 5.100  0.6487  105.6   1.833   22.9  0.2149   31.2  0.3326  159.2
 5.200  0.6515  104.7   1.798   21.9  0.2181   30.5  0.3356  158.3
 5.300  0.6545  103.7   1.764   20.8  0.2213   29.8  0.3386  157.5
 5.400  0.6577  102.7   1.731   19.7  0.2246   29.1  0.3417  156.6
 5.500  0.6610  101.8   1.698   18.5  0.2279   28.4  0.3448  155.8
 5.600  0.6631  101.0   1.670   17.5  0.2308   27.6  0.3481  155.0
 5.700  0.6653  100.2   1.643   16.4  0.2338   26.7  0.3515  154.2
 5.800  0.6676   99.4   1.616   15.3  0.2368   25.9  0.3550  153.4
 5.900  0.6700   98.7   1.590   14.2  0.2398   25.2  0.3585  152.6
 6.000  0.6726   97.9   1.565   13.0  0.2429   24.4  0.3621  151.9
 6.100  0.6730   97.1   1.541   12.0  0.2454   23.6  0.3643  151.4
 6.200  0.6735   96.3   1.518   11.1  0.2480   22.9  0.3664  150.8
 6.300  0.6742   95.5   1.495   10.0  0.2506   22.2  0.3687  150.3
 6.400  0.6750   94.7   1.472    9.0  0.2533   21.5  0.3709  149.8
 6.500  0.6759   93.9   1.450    7.9  0.2560   20.8  0.3732  149.3
 6.600  0.6753   93.0   1.432    6.9  0.2589   20.1  0.3725  148.9
 6.800  0.6745   91.1   1.397    4.9  0.2650   18.8  0.3712  148.1
 7.000  0.6744   89.3   1.364    2.8  0.2711   17.5  0.3700  147.3
 7.200  0.6760   87.1   1.336    0.7  0.2776   15.8  0.3693  145.8
 7.400  0.6785   84.9   1.309   -1.4  0.2843   14.2  0.3688  144.3
 7.600  0.6825   82.5   1.283   -3.7  0.2906   12.4  0.3704  142.5
 7.800  0.6879   80.0   1.257   -6.1  0.2965   10.5  0.3742  140.2
 8.000  0.6947   77.6   1.233   -8.7  0.3028    8.7  0.3785  138.0
 8.200  0.7000   75.0   1.201  -11.1  0.3067    6.5  0.3829  135.2
 8.400  0.7068   72.4   1.172  -13.6  0.3111    4.4  0.3883  132.4
 8.600  0.7158   69.9   1.141  -16.0  0.3137    2.4  0.3952  129.1
 8.800  0.7268   67.6   1.109  -18.2  0.3145    0.3  0.4044  125.2
 9.000  0.7389   65.4   1.078  -20.6  0.3158   -1.8  0.4153  121.5
 9.200  0.7548   63.5   1.043  -22.5  0.3144   -3.4  0.4323  117.2
 9.400  0.7715   61.8   1.009  -24.5  0.3132   -5.0  0.4514  113.2
 9.600  0.7863   60.2   0.975  -26.2  0.3119   -6.3  0.4710  109.8
 9.800  0.7990   58.7   0.942  -27.6  0.3104   -7.2  0.4904  106.8
10.000  0.8123   57.3   0.910  -29.1  0.3090   -8.2  0.5111  104.0
!
!  f       NFmin   Gammaopt  rn/50
! GHz       dB    MAG  ANG    -
 0.450      1.36  0.13 -171   0.13
 0.900      1.38  0.11 -170   0.13
 1.900      1.49  0.23 -146   0.13
 3.500      1.42  0.46 -122   0.16
!
! (c) 2016  Infineon Technologies AG, Munich
