! Infineon Technologies  Discrete & RF Semiconductors
! BFP460
! VCE =  3.0 V,  IC =  10 mA
! Common Emitter S-Parameters:                            Jan 2016
# GHz  S  MA  R  50
!  f         S11            S21            S12            S22
! GHz     MAG   ANG      MAG   ANG      MAG   ANG      MAG   ANG
 0.030  0.7683   -8.8  28.593  173.9  0.0056   84.8  0.9757   -6.1
 0.035  0.7667  -10.3  28.524  172.8  0.0065   84.1  0.9740   -7.1
 0.040  0.7656  -11.8  28.465  171.7  0.0074   83.6  0.9725   -8.1
 0.045  0.7638  -13.2  28.312  170.7  0.0082   82.5  0.9701   -8.9
 0.050  0.7624  -14.6  28.168  169.6  0.0091   81.6  0.9678   -9.7
 0.055  0.7616  -16.1  28.100  168.8  0.0100   81.4  0.9655  -10.7
 0.060  0.7614  -17.6  28.038  168.0  0.0110   81.2  0.9635  -11.7
 0.065  0.7589  -19.1  28.044  166.9  0.0118   80.3  0.9608  -12.6
 0.070  0.7569  -20.7  28.060  165.9  0.0126   79.6  0.9583  -13.6
 0.075  0.7573  -22.0  27.925  165.2  0.0135   79.1  0.9549  -14.5
 0.080  0.7581  -23.3  27.794  164.5  0.0144   78.6  0.9517  -15.5
 0.085  0.7542  -24.9  27.679  163.6  0.0152   77.5  0.9477  -16.4
 0.090  0.7509  -26.6  27.571  162.6  0.0160   76.6  0.9439  -17.4
 0.095  0.7495  -27.8  27.386  161.8  0.0169   76.1  0.9400  -18.3
 0.100  0.7485  -29.1  27.208  160.9  0.0178   75.7  0.9364  -19.3
 0.105  0.7459  -30.5  27.106  160.1  0.0185   75.1  0.9321  -20.2
 0.110  0.7438  -31.9  27.009  159.2  0.0193   74.6  0.9280  -21.1
 0.115  0.7406  -33.3  26.884  158.3  0.0201   73.8  0.9232  -22.0
 0.120  0.7378  -34.7  26.766  157.4  0.0209   73.0  0.9187  -22.9
 0.125  0.7342  -36.0  26.617  156.6  0.0216   72.5  0.9137  -23.7
 0.130  0.7310  -37.3  26.473  155.8  0.0224   72.1  0.9090  -24.6
 0.135  0.7283  -38.7  26.339  154.9  0.0231   71.5  0.9042  -25.4
 0.140  0.7260  -40.2  26.212  154.0  0.0239   70.9  0.8995  -26.3
 0.145  0.7223  -41.4  26.015  153.2  0.0246   70.3  0.8943  -27.1
 0.150  0.7190  -42.7  25.823  152.3  0.0253   69.7  0.8892  -28.0
 0.155  0.7147  -43.9  25.645  151.6  0.0259   69.1  0.8830  -28.7
 0.160  0.7108  -45.1  25.471  150.9  0.0266   68.4  0.8769  -29.5
 0.165  0.7071  -46.3  25.302  150.2  0.0272   67.8  0.8710  -30.2
 0.170  0.7038  -47.5  25.136  149.4  0.0278   67.3  0.8653  -31.0
 0.175  0.7008  -48.8  24.974  148.7  0.0285   66.8  0.8597  -31.8
 0.180  0.6981  -50.0  24.817  147.9  0.0291   66.2  0.8542  -32.6
 0.185  0.6958  -51.3  24.664  147.1  0.0298   65.8  0.8489  -33.4
 0.190  0.6938  -52.5  24.516  146.4  0.0304   65.3  0.8438  -34.2
 0.195  0.6921  -53.8  24.372  145.6  0.0311   64.8  0.8389  -35.0
 0.200  0.6908  -55.1  24.233  144.8  0.0317   64.4  0.8341  -35.8
 0.220  0.6758  -59.5  23.509  142.2  0.0338   62.6  0.8101  -38.4
 0.240  0.6651  -64.1  22.834  139.5  0.0360   60.9  0.7879  -41.2
 0.260  0.6544  -68.4  22.164  137.0  0.0380   59.4  0.7658  -43.8
 0.280  0.6428  -72.4  21.485  134.7  0.0397   57.9  0.7430  -46.3
 0.300  0.6343  -76.5  20.841  132.3  0.0415   56.6  0.7217  -48.8
 0.320  0.6220  -80.1  20.195  130.4  0.0430   55.4  0.7003  -50.8
 0.340  0.6123  -83.8  19.574  128.3  0.0445   54.2  0.6799  -53.0
 0.360  0.6030  -87.3  18.978  126.4  0.0459   53.2  0.6603  -55.0
 0.380  0.5935  -90.5  18.400  124.6  0.0472   52.3  0.6415  -56.8
 0.400  0.5860  -93.8  17.841  122.7  0.0484   51.4  0.6233  -58.8
 0.420  0.5771  -96.8  17.311  121.2  0.0495   50.7  0.6061  -60.4
 0.440  0.5698  -99.8  16.795  119.5  0.0506   49.9  0.5894  -62.0
 0.450  0.5668 -101.4  16.542  118.7  0.0511   49.6  0.5813  -62.9
 0.460  0.5630 -102.7  16.308  118.1  0.0516   49.3  0.5736  -63.6
 0.480  0.5562 -105.4  15.846  116.7  0.0525   48.7  0.5584  -65.1
 0.500  0.5506 -108.1  15.393  115.3  0.0535   48.2  0.5436  -66.6
 0.520  0.5438 -110.4  14.990  114.2  0.0543   47.8  0.5306  -67.8
 0.540  0.5379 -112.7  14.593  113.1  0.0551   47.4  0.5178  -69.0
 0.560  0.5329 -115.1  14.201  111.8  0.0560   47.0  0.5052  -70.3
 0.580  0.5288 -117.5  13.817  110.6  0.0568   46.7  0.4929  -71.6
 0.600  0.5257 -119.9  13.440  109.2  0.0576   46.3  0.4809  -73.0
 0.620  0.5209 -121.8  13.120  108.3  0.0583   46.0  0.4707  -74.0
 0.640  0.5168 -123.7  12.803  107.4  0.0590   45.8  0.4606  -75.0
 0.660  0.5132 -125.7  12.489  106.4  0.0598   45.6  0.4507  -76.1
 0.680  0.5102 -127.7  12.180  105.4  0.0605   45.3  0.4409  -77.2
 0.700  0.5079 -129.7  11.874  104.3  0.0612   45.1  0.4313  -78.4
 0.720  0.5048 -131.3  11.617  103.5  0.0619   45.0  0.4232  -79.3
 0.740  0.5020 -133.0  11.362  102.7  0.0625   44.9  0.4151  -80.1
 0.760  0.4998 -134.7  11.109  101.9  0.0632   44.7  0.4072  -81.1
 0.780  0.4979 -136.4  10.859  101.0  0.0638   44.6  0.3994  -82.0
 0.800  0.4965 -138.1  10.611  100.1  0.0645   44.5  0.3917  -83.0
 0.820  0.4940 -139.5  10.403   99.4  0.0651   44.5  0.3853  -83.7
 0.840  0.4919 -141.0  10.197   98.7  0.0658   44.4  0.3789  -84.5
 0.860  0.4900 -142.4   9.993   98.0  0.0664   44.4  0.3726  -85.3
 0.880  0.4885 -143.9   9.790   97.2  0.0671   44.3  0.3663  -86.1
 0.900  0.4873 -145.4   9.589   96.4  0.0677   44.3  0.3602  -87.0
 0.920  0.4855 -146.7   9.416   95.8  0.0683   44.3  0.3549  -87.7
 0.940  0.4839 -147.9   9.243   95.2  0.0690   44.3  0.3497  -88.4
 0.960  0.4826 -149.2   9.072   94.5  0.0696   44.2  0.3445  -89.2
 0.980  0.4815 -150.5   8.903   93.8  0.0703   44.2  0.3394  -89.9
 1.000  0.4807 -151.8   8.734   93.1  0.0709   44.2  0.3344  -90.7
 1.020  0.4797 -152.9   8.588   92.6  0.0715   44.2  0.3301  -91.3
 1.040  0.4788 -154.1   8.442   92.0  0.0722   44.2  0.3259  -92.0
 1.060  0.4782 -155.2   8.298   91.4  0.0728   44.3  0.3217  -92.6
 1.080  0.4777 -156.4   8.154   90.8  0.0735   44.3  0.3176  -93.3
 1.100  0.4774 -157.5   8.011   90.2  0.0741   44.3  0.3135  -94.0
 1.120  0.4764 -158.5   7.886   89.7  0.0747   44.3  0.3099  -94.6
 1.140  0.4757 -159.6   7.762   89.1  0.0753   44.3  0.3063  -95.2
 1.160  0.4750 -160.6   7.639   88.6  0.0760   44.3  0.3028  -95.8
 1.180  0.4745 -161.7   7.516   88.0  0.0766   44.3  0.2993  -96.5
 1.200  0.4742 -162.7   7.394   87.4  0.0772   44.3  0.2958  -97.1
 1.220  0.4739 -163.7   7.287   86.9  0.0779   44.3  0.2929  -97.7
 1.240  0.4736 -164.6   7.181   86.4  0.0785   44.3  0.2900  -98.2
 1.260  0.4736 -165.6   7.076   85.9  0.0792   44.4  0.2872  -98.8
 1.280  0.4736 -166.5   6.970   85.4  0.0798   44.4  0.2844  -99.4
 1.300  0.4738 -167.5   6.866   84.9  0.0805   44.4  0.2816 -100.0
 1.320  0.4734 -168.3   6.774   84.4  0.0811   44.4  0.2790 -100.5
 1.340  0.4731 -169.2   6.682   83.9  0.0818   44.4  0.2764 -101.1
 1.360  0.4730 -170.0   6.590   83.4  0.0824   44.5  0.2738 -101.6
 1.380  0.4729 -170.9   6.499   82.9  0.0831   44.5  0.2713 -102.2
 1.400  0.4729 -171.7   6.409   82.4  0.0837   44.5  0.2688 -102.8
 1.420  0.4727 -172.5   6.328   82.0  0.0844   44.5  0.2668 -103.3
 1.440  0.4726 -173.4   6.247   81.5  0.0851   44.5  0.2647 -103.8
 1.460  0.4725 -174.2   6.167   81.1  0.0857   44.6  0.2627 -104.3
 1.480  0.4726 -175.1   6.087   80.6  0.0864   44.6  0.2608 -104.9
 1.500  0.4728 -175.9   6.008   80.1  0.0871   44.6  0.2588 -105.4
 1.520  0.4729 -176.7   5.936   79.7  0.0878   44.6  0.2569 -105.9
 1.540  0.4730 -177.5   5.863   79.3  0.0884   44.6  0.2551 -106.4
 1.560  0.4733 -178.2   5.792   78.8  0.0891   44.6  0.2532 -106.9
 1.580  0.4736 -179.0   5.720   78.4  0.0897   44.6  0.2514 -107.5
 1.600  0.4740 -179.8   5.649   77.9  0.0904   44.6  0.2496 -108.0
 1.620  0.4740  179.5   5.586   77.5  0.0911   44.6  0.2481 -108.5
 1.640  0.4740  178.8   5.524   77.1  0.0918   44.6  0.2465 -108.9
 1.660  0.4742  178.2   5.462   76.7  0.0924   44.5  0.2450 -109.4
 1.680  0.4743  177.5   5.400   76.2  0.0931   44.5  0.2436 -109.9
 1.700  0.4746  176.8   5.339   75.8  0.0938   44.5  0.2421 -110.4
 1.720  0.4750  176.1   5.282   75.4  0.0945   44.5  0.2408 -110.9
 1.740  0.4756  175.4   5.225   75.0  0.0952   44.5  0.2395 -111.3
 1.760  0.4761  174.8   5.168   74.6  0.0958   44.5  0.2382 -111.8
 1.780  0.4768  174.1   5.111   74.1  0.0965   44.5  0.2369 -112.3
 1.800  0.4775  173.4   5.055   73.7  0.0972   44.5  0.2357 -112.8
 1.820  0.4777  172.7   5.004   73.3  0.0979   44.5  0.2345 -113.3
 1.840  0.4780  172.1   4.954   72.9  0.0986   44.5  0.2333 -113.7
 1.860  0.4784  171.4   4.904   72.5  0.0993   44.4  0.2322 -114.2
 1.880  0.4788  170.8   4.854   72.1  0.1000   44.4  0.2310 -114.7
 1.900  0.4793  170.1   4.804   71.7  0.1007   44.4  0.2299 -115.2
 1.920  0.4797  169.5   4.758   71.3  0.1014   44.4  0.2289 -115.7
 1.940  0.4803  168.9   4.713   70.9  0.1021   44.3  0.2279 -116.1
 1.960  0.4808  168.2   4.667   70.5  0.1027   44.3  0.2269 -116.6
 1.980  0.4814  167.6   4.622   70.1  0.1034   44.2  0.2259 -117.1
 2.000  0.4821  167.0   4.577   69.7  0.1041   44.2  0.2250 -117.6
 2.020  0.4825  166.4   4.536   69.3  0.1048   44.1  0.2241 -118.1
 2.040  0.4830  165.8   4.494   69.0  0.1055   44.1  0.2233 -118.6
 2.060  0.4836  165.2   4.453   68.6  0.1062   44.0  0.2225 -119.1
 2.080  0.4842  164.6   4.413   68.2  0.1069   44.0  0.2216 -119.6
 2.100  0.4848  164.0   4.372   67.8  0.1076   43.9  0.2208 -120.1
 2.120  0.4855  163.4   4.332   67.4  0.1083   43.9  0.2201 -120.6
 2.140  0.4863  162.9   4.291   67.0  0.1090   43.8  0.2193 -121.1
 2.160  0.4871  162.3   4.251   66.6  0.1097   43.8  0.2185 -121.6
 2.180  0.4879  161.7   4.212   66.2  0.1104   43.7  0.2178 -122.1
 2.200  0.4888  161.1   4.172   65.8  0.1111   43.7  0.2171 -122.6
 2.220  0.4894  160.6   4.138   65.5  0.1118   43.6  0.2165 -123.1
 2.240  0.4901  160.0   4.103   65.1  0.1125   43.6  0.2159 -123.6
 2.260  0.4908  159.5   4.069   64.8  0.1132   43.5  0.2153 -124.1
 2.280  0.4916  159.0   4.035   64.4  0.1139   43.5  0.2148 -124.6
 2.300  0.4924  158.4   4.001   64.0  0.1145   43.4  0.2142 -125.1
 2.320  0.4932  157.9   3.968   63.7  0.1152   43.3  0.2137 -125.6
 2.340  0.4941  157.4   3.934   63.3  0.1159   43.3  0.2132 -126.1
 2.360  0.4950  156.8   3.901   62.9  0.1166   43.2  0.2127 -126.7
 2.380  0.4960  156.3   3.868   62.5  0.1173   43.2  0.2123 -127.2
 2.400  0.4970  155.8   3.835   62.1  0.1180   43.1  0.2118 -127.7
 2.420  0.4978  155.3   3.805   61.8  0.1187   43.0  0.2114 -128.2
 2.440  0.4986  154.8   3.776   61.4  0.1194   42.9  0.2111 -128.8
 2.460  0.4995  154.2   3.746   61.1  0.1201   42.9  0.2108 -129.3
 2.480  0.5004  153.7   3.717   60.7  0.1208   42.8  0.2105 -129.8
 2.500  0.5013  153.2   3.688   60.4  0.1214   42.7  0.2102 -130.4
 2.520  0.5023  152.7   3.659   60.0  0.1221   42.6  0.2100 -130.9
 2.540  0.5033  152.2   3.630   59.6  0.1228   42.5  0.2097 -131.5
 2.560  0.5044  151.7   3.602   59.3  0.1235   42.5  0.2095 -132.0
 2.580  0.5055  151.2   3.573   58.9  0.1242   42.4  0.2093 -132.6
 2.600  0.5066  150.7   3.545   58.5  0.1249   42.3  0.2091 -133.1
 2.620  0.5073  150.2   3.519   58.2  0.1256   42.2  0.2090 -133.6
 2.640  0.5080  149.7   3.494   57.8  0.1262   42.1  0.2089 -134.2
 2.660  0.5088  149.3   3.468   57.5  0.1269   42.0  0.2089 -134.7
 2.680  0.5096  148.8   3.443   57.2  0.1276   41.9  0.2088 -135.2
 2.700  0.5105  148.3   3.418   56.8  0.1282   41.8  0.2088 -135.7
 2.720  0.5113  147.9   3.393   56.5  0.1289   41.7  0.2088 -136.3
 2.740  0.5123  147.4   3.368   56.1  0.1296   41.7  0.2088 -136.8
 2.760  0.5132  146.9   3.343   55.7  0.1303   41.6  0.2088 -137.3
 2.780  0.5142  146.5   3.319   55.4  0.1309   41.5  0.2088 -137.9
 2.800  0.5152  146.0   3.294   55.0  0.1316   41.4  0.2089 -138.4
 2.820  0.5161  145.6   3.272   54.7  0.1323   41.3  0.2090 -138.9
 2.840  0.5170  145.1   3.249   54.4  0.1330   41.2  0.2091 -139.4
 2.860  0.5179  144.7   3.227   54.1  0.1336   41.1  0.2092 -139.9
 2.880  0.5188  144.3   3.205   53.7  0.1343   41.0  0.2094 -140.4
 2.900  0.5198  143.8   3.183   53.4  0.1350   40.9  0.2096 -140.9
 2.920  0.5208  143.4   3.161   53.1  0.1357   40.8  0.2097 -141.4
 2.940  0.5219  143.0   3.139   52.7  0.1364   40.8  0.2099 -141.9
 2.960  0.5230  142.5   3.117   52.4  0.1370   40.7  0.2101 -142.4
 2.980  0.5241  142.1   3.096   52.1  0.1377   40.6  0.2104 -142.9
 3.000  0.5252  141.7   3.074   51.7  0.1384   40.5  0.2106 -143.4
 3.100  0.5293  139.6   2.981   50.3  0.1416   39.9  0.2118 -145.8
 3.200  0.5341  137.6   2.889   48.8  0.1448   39.3  0.2134 -148.1
 3.300  0.5395  135.6   2.800   47.2  0.1480   38.7  0.2153 -150.4
 3.400  0.5455  133.7   2.713   45.5  0.1513   38.2  0.2175 -152.6
 3.500  0.5522  131.8   2.629   43.7  0.1545   37.7  0.2201 -154.8
 3.600  0.5573  130.0   2.557   42.4  0.1574   37.1  0.2223 -157.2
 3.700  0.5629  128.2   2.487   40.9  0.1604   36.4  0.2250 -159.5
 3.800  0.5691  126.5   2.419   39.5  0.1633   35.8  0.2280 -161.8
 3.900  0.5758  124.8   2.352   37.9  0.1663   35.3  0.2313 -164.0
 4.000  0.5829  123.2   2.287   36.2  0.1693   34.7  0.2350 -166.2
 4.100  0.5883  121.7   2.230   34.9  0.1720   34.1  0.2391 -168.4
 4.200  0.5942  120.3   2.174   33.6  0.1747   33.5  0.2436 -170.4
 4.300  0.6003  118.9   2.120   32.2  0.1774   32.9  0.2483 -172.4
 4.400  0.6069  117.5   2.067   30.7  0.1801   32.3  0.2534 -174.4
 4.500  0.6138  116.1   2.015   29.2  0.1829   31.8  0.2587 -176.2
 4.600  0.6178  114.8   1.971   28.0  0.1856   31.3  0.2628 -177.7
 4.700  0.6221  113.6   1.927   26.8  0.1883   30.8  0.2671 -179.1
 4.800  0.6268  112.4   1.884   25.5  0.1910   30.3  0.2715  179.5
 4.900  0.6316  111.2   1.843   24.2  0.1937   29.9  0.2761  178.1
 5.000  0.6368  110.0   1.802   22.8  0.1964   29.4  0.2808  176.8
 5.100  0.6397  109.0   1.767   21.7  0.1994   28.8  0.2840  175.7
 5.200  0.6429  107.9   1.734   20.7  0.2024   28.2  0.2872  174.7
 5.300  0.6462  106.9   1.700   19.5  0.2055   27.6  0.2905  173.7
 5.400  0.6498  105.9   1.668   18.3  0.2085   27.0  0.2940  172.7
 5.500  0.6535  104.9   1.636   17.1  0.2116   26.5  0.2975  171.7
 5.600  0.6558  104.0   1.609   16.0  0.2144   25.8  0.3014  170.7
 5.700  0.6582  103.2   1.582   14.9  0.2173   25.2  0.3053  169.7
 5.800  0.6608  102.4   1.556   13.7  0.2202   24.5  0.3094  168.8
 5.900  0.6635  101.5   1.531   12.5  0.2231   23.9  0.3135  167.9
 6.000  0.6663  100.7   1.506   11.3  0.2260   23.3  0.3177  167.0
 6.100  0.6670   99.9   1.483   10.3  0.2285   22.7  0.3208  166.4
 6.200  0.6678   99.0   1.460    9.2  0.2310   22.0  0.3240  165.8
 6.300  0.6688   98.2   1.437    8.1  0.2335   21.4  0.3272  165.2
 6.400  0.6699   97.3   1.415    7.0  0.2361   20.8  0.3304  164.6
 6.500  0.6712   96.5   1.394    5.8  0.2387   20.2  0.3337  164.0
 6.600  0.6708   95.5   1.376    4.8  0.2416   19.6  0.3342  163.6
 6.800  0.6706   93.6   1.340    2.8  0.2474   18.4  0.3353  162.8
 7.000  0.6712   91.7   1.307    0.6  0.2534   17.3  0.3364  162.0
 7.200  0.6733   89.4   1.279   -1.6  0.2598   15.8  0.3369  160.5
 7.400  0.6765   87.1   1.252   -3.8  0.2664   14.5  0.3376  159.0
 7.600  0.6810   84.7   1.226   -6.2  0.2728   12.9  0.3397  157.1
 7.800  0.6869   82.1   1.200   -8.6  0.2790   11.2  0.3436  154.7
 8.000  0.6942   79.6   1.177  -11.2  0.2854    9.5  0.3481  152.3
 8.200  0.6999   76.9   1.146  -13.6  0.2899    7.5  0.3522  149.3
 8.400  0.7072   74.2   1.118  -16.1  0.2948    5.5  0.3573  146.4
 8.600  0.7166   71.7   1.088  -18.5  0.2981    3.6  0.3632  142.8
 8.800  0.7280   69.2   1.057  -20.8  0.2998    1.6  0.3706  138.5
 9.000  0.7407   66.9   1.028  -23.2  0.3019   -0.4  0.3801  134.4
 9.200  0.7568   65.0   0.994  -25.1  0.3014   -1.9  0.3952  129.4
 9.400  0.7738   63.1   0.962  -27.1  0.3012   -3.4  0.4130  124.8
 9.600  0.7887   61.4   0.930  -28.9  0.3007   -4.7  0.4322  120.8
 9.800  0.8013   59.8   0.898  -30.5  0.3000   -5.6  0.4522  117.3
10.000  0.8145   58.3   0.867  -32.1  0.2993   -6.6  0.4738  114.1
!
!  f       NFmin   Gammaopt  rn/50
! GHz       dB    MAG  ANG    -
 0.450      0.95  0.14   16   0.15
 0.900      1.19  0.10   62   0.14
 1.900      1.15  0.07  152   0.12
 3.500      1.18  0.34 -137   0.11
!
! (c) 2016  Infineon Technologies AG, Munich
