! Infineon Technologies  Discrete & RF Semiconductors
! BFP460
! VCE =  1.5 V,  IC =  8.0 mA
! Common Emitter S-Parameters:                            Jan 2016
# GHz  S  MA  R  50
!  f         S11            S21            S12            S22
! GHz     MAG   ANG      MAG   ANG      MAG   ANG      MAG   ANG
 0.030  0.7985   -8.3  24.131  174.9  0.0063   85.2  0.9736   -5.7
 0.035  0.7981   -9.6  24.092  173.9  0.0073   84.7  0.9720   -6.6
 0.040  0.7981  -11.0  24.061  172.9  0.0083   84.4  0.9707   -7.6
 0.045  0.7964  -12.1  23.967  171.7  0.0093   83.5  0.9691   -8.5
 0.050  0.7949  -13.2  23.883  170.5  0.0104   82.8  0.9678   -9.5
 0.055  0.7941  -14.9  23.841  169.8  0.0114   82.1  0.9656  -10.4
 0.060  0.7940  -16.6  23.803  169.0  0.0124   81.5  0.9636  -11.4
 0.065  0.7905  -18.0  23.824  168.0  0.0134   80.9  0.9613  -12.3
 0.070  0.7874  -19.4  23.852  167.0  0.0145   80.3  0.9592  -13.3
 0.075  0.7879  -20.7  23.754  166.4  0.0155   79.5  0.9564  -14.2
 0.080  0.7887  -21.9  23.659  165.7  0.0165   78.8  0.9538  -15.1
 0.085  0.7868  -23.2  23.585  164.8  0.0174   78.4  0.9505  -16.0
 0.090  0.7853  -24.6  23.517  163.9  0.0184   78.1  0.9474  -16.9
 0.095  0.7822  -25.8  23.371  163.1  0.0193   77.2  0.9441  -17.8
 0.100  0.7794  -27.1  23.230  162.3  0.0203   76.3  0.9410  -18.8
 0.105  0.7795  -28.5  23.159  161.5  0.0212   75.6  0.9371  -19.6
 0.110  0.7801  -29.8  23.093  160.7  0.0221   75.0  0.9335  -20.5
 0.115  0.7758  -31.2  23.008  159.8  0.0230   74.4  0.9295  -21.4
 0.120  0.7719  -32.6  22.929  158.9  0.0239   73.8  0.9257  -22.3
 0.125  0.7693  -33.8  22.815  158.2  0.0248   73.2  0.9213  -23.1
 0.130  0.7671  -35.0  22.704  157.5  0.0257   72.7  0.9172  -24.0
 0.135  0.7641  -36.3  22.610  156.7  0.0265   72.1  0.9130  -24.8
 0.140  0.7615  -37.6  22.520  155.8  0.0274   71.5  0.9090  -25.7
 0.145  0.7588  -38.8  22.371  155.0  0.0282   70.9  0.9043  -26.5
 0.150  0.7564  -40.1  22.226  154.1  0.0291   70.4  0.8998  -27.4
 0.155  0.7523  -41.2  22.090  153.4  0.0299   69.7  0.8942  -28.1
 0.160  0.7484  -42.4  21.957  152.7  0.0306   69.1  0.8887  -28.9
 0.165  0.7449  -43.6  21.828  152.0  0.0314   68.5  0.8834  -29.7
 0.170  0.7417  -44.8  21.702  151.3  0.0321   67.9  0.8782  -30.5
 0.175  0.7387  -45.9  21.579  150.6  0.0329   67.4  0.8732  -31.2
 0.180  0.7362  -47.1  21.459  149.9  0.0337   66.9  0.8684  -32.0
 0.185  0.7339  -48.3  21.343  149.1  0.0345   66.4  0.8637  -32.8
 0.190  0.7320  -49.6  21.231  148.4  0.0352   65.9  0.8592  -33.7
 0.195  0.7304  -50.8  21.122  147.7  0.0360   65.4  0.8549  -34.5
 0.200  0.7291  -52.0  21.017  146.9  0.0368   65.0  0.8508  -35.3
 0.220  0.7148  -56.3  20.449  144.4  0.0393   63.0  0.8287  -38.0
 0.240  0.7046  -60.7  19.924  141.7  0.0419   61.2  0.8086  -40.9
 0.260  0.6940  -64.8  19.395  139.2  0.0443   59.5  0.7882  -43.6
 0.280  0.6823  -68.7  18.852  136.9  0.0464   58.0  0.7668  -46.1
 0.300  0.6739  -72.8  18.341  134.5  0.0486   56.5  0.7470  -48.8
 0.320  0.6616  -76.4  17.814  132.5  0.0504   55.2  0.7266  -51.0
 0.340  0.6519  -80.0  17.310  130.4  0.0522   53.9  0.7073  -53.3
 0.360  0.6425  -83.5  16.821  128.5  0.0538   52.8  0.6886  -55.4
 0.380  0.6326  -86.7  16.341  126.7  0.0553   51.7  0.6703  -57.4
 0.400  0.6249  -90.0  15.878  124.8  0.0568   50.7  0.6528  -59.5
 0.420  0.6158  -92.9  15.433  123.2  0.0581   49.7  0.6360  -61.3
 0.440  0.6082  -95.9  15.000  121.6  0.0594   48.8  0.6198  -63.1
 0.450  0.6051  -97.4  14.788  120.7  0.0601   48.4  0.6120  -64.1
 0.460  0.6009  -98.7  14.588  120.0  0.0607   48.1  0.6043  -64.9
 0.480  0.5936 -101.4  14.194  118.7  0.0618   47.4  0.5893  -66.4
 0.500  0.5876 -104.2  13.809  117.2  0.0629   46.8  0.5748  -68.1
 0.520  0.5801 -106.5  13.460  116.1  0.0638   46.2  0.5616  -69.4
 0.540  0.5736 -108.8  13.117  114.9  0.0647   45.7  0.5487  -70.8
 0.560  0.5681 -111.2  12.780  113.6  0.0656   45.1  0.5361  -72.2
 0.580  0.5635 -113.6  12.449  112.3  0.0666   44.6  0.5239  -73.7
 0.600  0.5600 -116.1  12.125  110.9  0.0675   44.1  0.5121  -75.3
 0.620  0.5547 -118.0  11.843  110.0  0.0683   43.7  0.5016  -76.4
 0.640  0.5501 -120.0  11.564  109.0  0.0691   43.4  0.4913  -77.6
 0.660  0.5462 -122.0  11.289  107.9  0.0698   43.1  0.4813  -78.9
 0.680  0.5429 -124.0  11.018  106.8  0.0706   42.7  0.4715  -80.2
 0.700  0.5403 -126.1  10.751  105.7  0.0714   42.4  0.4619  -81.5
 0.720  0.5365 -127.8  10.523  104.9  0.0721   42.2  0.4535  -82.5
 0.740  0.5333 -129.5  10.297  104.1  0.0728   41.9  0.4453  -83.5
 0.760  0.5305 -131.2  10.074  103.2  0.0734   41.7  0.4373  -84.6
 0.780  0.5281 -132.9   9.853  102.3  0.0741   41.5  0.4293  -85.7
 0.800  0.5263 -134.7   9.635  101.3  0.0748   41.3  0.4216  -86.8
 0.820  0.5237 -136.2   9.450  100.6  0.0754   41.2  0.4149  -87.7
 0.840  0.5215 -137.7   9.267   99.9  0.0761   41.0  0.4083  -88.6
 0.860  0.5196 -139.2   9.085   99.1  0.0767   40.9  0.4018  -89.6
 0.880  0.5181 -140.7   8.905   98.3  0.0774   40.7  0.3954  -90.6
 0.900  0.5169 -142.2   8.727   97.5  0.0780   40.6  0.3892  -91.6
 0.920  0.5147 -143.5   8.571   96.9  0.0786   40.5  0.3837  -92.4
 0.940  0.5128 -144.8   8.416   96.2  0.0792   40.4  0.3784  -93.2
 0.960  0.5112 -146.1   8.262   95.5  0.0799   40.4  0.3731  -94.0
 0.980  0.5099 -147.5   8.109   94.8  0.0805   40.3  0.3678  -94.9
 1.000  0.5088 -148.8   7.958   94.1  0.0811   40.2  0.3627  -95.8
 1.020  0.5074 -150.0   7.826   93.5  0.0817   40.2  0.3583  -96.5
 1.040  0.5061 -151.2   7.696   92.9  0.0823   40.1  0.3539  -97.3
 1.060  0.5051 -152.4   7.566   92.3  0.0829   40.1  0.3497  -98.1
 1.080  0.5044 -153.6   7.437   91.7  0.0835   40.0  0.3454  -98.9
 1.100  0.5038 -154.8   7.309   91.0  0.0841   40.0  0.3413  -99.7
 1.120  0.5028 -155.9   7.197   90.5  0.0847   40.0  0.3376 -100.4
 1.140  0.5020 -156.9   7.085   89.9  0.0853   39.9  0.3339 -101.1
 1.160  0.5014 -158.0   6.974   89.3  0.0860   39.9  0.3302 -101.9
 1.180  0.5010 -159.0   6.864   88.7  0.0866   39.8  0.3266 -102.6
 1.200  0.5007 -160.1   6.754   88.1  0.0872   39.8  0.3231 -103.4
 1.220  0.5000 -161.1   6.657   87.6  0.0878   39.8  0.3201 -104.1
 1.240  0.4994 -162.1   6.561   87.1  0.0884   39.8  0.3171 -104.7
 1.260  0.4990 -163.0   6.465   86.5  0.0890   39.7  0.3141 -105.4
 1.280  0.4987 -164.0   6.370   86.0  0.0896   39.7  0.3112 -106.1
 1.300  0.4986 -165.0   6.276   85.4  0.0902   39.7  0.3084 -106.8
 1.320  0.4981 -165.9   6.192   84.9  0.0908   39.7  0.3057 -107.4
 1.340  0.4978 -166.8   6.109   84.4  0.0914   39.7  0.3031 -108.0
 1.360  0.4975 -167.6   6.026   83.9  0.0921   39.7  0.3005 -108.7
 1.380  0.4974 -168.5   5.943   83.4  0.0927   39.7  0.2979 -109.3
 1.400  0.4974 -169.4   5.861   82.9  0.0933   39.7  0.2954 -110.0
 1.420  0.4972 -170.3   5.787   82.4  0.0939   39.7  0.2933 -110.6
 1.440  0.4971 -171.1   5.714   81.9  0.0945   39.7  0.2912 -111.1
 1.460  0.4971 -172.0   5.641   81.4  0.0952   39.7  0.2891 -111.7
 1.480  0.4973 -172.8   5.569   80.9  0.0958   39.7  0.2871 -112.3
 1.500  0.4975 -173.7   5.497   80.4  0.0964   39.7  0.2851 -112.9
 1.520  0.4974 -174.5   5.432   80.0  0.0970   39.7  0.2832 -113.5
 1.540  0.4974 -175.3   5.366   79.6  0.0976   39.7  0.2812 -114.1
 1.560  0.4974 -176.1   5.302   79.1  0.0982   39.7  0.2794 -114.7
 1.580  0.4976 -176.9   5.237   78.7  0.0988   39.7  0.2775 -115.3
 1.600  0.4979 -177.7   5.173   78.2  0.0994   39.7  0.2757 -115.9
 1.620  0.4980 -178.4   5.116   77.8  0.1001   39.7  0.2742 -116.4
 1.640  0.4981 -179.1   5.059   77.3  0.1007   39.7  0.2726 -117.0
 1.660  0.4983 -179.8   5.002   76.9  0.1014   39.6  0.2711 -117.5
 1.680  0.4986  179.5   4.946   76.5  0.1020   39.6  0.2697 -118.0
 1.700  0.4989  178.8   4.890   76.0  0.1027   39.6  0.2682 -118.6
 1.720  0.4990  178.1   4.838   75.6  0.1033   39.6  0.2669 -119.1
 1.740  0.4992  177.4   4.786   75.1  0.1040   39.6  0.2655 -119.7
 1.760  0.4995  176.6   4.735   74.7  0.1046   39.5  0.2642 -120.2
 1.780  0.4999  175.9   4.684   74.3  0.1053   39.5  0.2630 -120.7
 1.800  0.5003  175.2   4.633   73.8  0.1059   39.5  0.2617 -121.3
 1.820  0.5005  174.5   4.587   73.4  0.1066   39.5  0.2605 -121.8
 1.840  0.5008  173.9   4.541   73.0  0.1072   39.5  0.2593 -122.4
 1.860  0.5012  173.2   4.495   72.6  0.1079   39.4  0.2582 -122.9
 1.880  0.5016  172.6   4.450   72.1  0.1085   39.4  0.2570 -123.5
 1.900  0.5021  171.9   4.405   71.7  0.1092   39.4  0.2559 -124.0
 1.920  0.5025  171.2   4.363   71.3  0.1098   39.4  0.2549 -124.5
 1.940  0.5029  170.6   4.321   70.9  0.1105   39.4  0.2539 -125.0
 1.960  0.5034  169.9   4.279   70.5  0.1111   39.3  0.2530 -125.5
 1.980  0.5040  169.3   4.237   70.0  0.1118   39.3  0.2520 -126.1
 2.000  0.5046  168.6   4.196   69.6  0.1124   39.3  0.2511 -126.6
 2.020  0.5050  168.0   4.158   69.2  0.1131   39.3  0.2503 -127.1
 2.040  0.5055  167.4   4.121   68.9  0.1137   39.2  0.2494 -127.6
 2.060  0.5061  166.8   4.084   68.5  0.1144   39.2  0.2486 -128.1
 2.080  0.5067  166.2   4.046   68.1  0.1150   39.1  0.2479 -128.6
 2.100  0.5073  165.6   4.010   67.7  0.1157   39.1  0.2471 -129.2
 2.120  0.5080  165.0   3.973   67.3  0.1164   39.1  0.2464 -129.7
 2.140  0.5088  164.4   3.936   66.9  0.1170   39.0  0.2456 -130.2
 2.160  0.5096  163.8   3.900   66.5  0.1177   39.0  0.2449 -130.7
 2.180  0.5105  163.2   3.864   66.0  0.1183   38.9  0.2443 -131.3
 2.200  0.5114  162.6   3.828   65.6  0.1190   38.9  0.2436 -131.8
 2.220  0.5119  162.0   3.797   65.2  0.1196   38.8  0.2430 -132.3
 2.240  0.5125  161.5   3.765   64.9  0.1203   38.8  0.2425 -132.8
 2.260  0.5131  160.9   3.734   64.5  0.1209   38.7  0.2419 -133.4
 2.280  0.5137  160.4   3.703   64.2  0.1216   38.7  0.2414 -133.9
 2.300  0.5145  159.8   3.672   63.8  0.1222   38.6  0.2409 -134.4
 2.320  0.5152  159.3   3.642   63.4  0.1229   38.5  0.2405 -135.0
 2.340  0.5160  158.7   3.611   63.0  0.1235   38.5  0.2400 -135.5
 2.360  0.5169  158.2   3.581   62.6  0.1242   38.4  0.2396 -136.0
 2.380  0.5178  157.6   3.551   62.2  0.1248   38.4  0.2392 -136.6
 2.400  0.5187  157.1   3.521   61.8  0.1255   38.3  0.2388 -137.1
 2.420  0.5195  156.6   3.494   61.5  0.1261   38.2  0.2385 -137.6
 2.440  0.5203  156.0   3.466   61.1  0.1268   38.2  0.2382 -138.2
 2.460  0.5211  155.5   3.439   60.8  0.1274   38.1  0.2380 -138.7
 2.480  0.5220  155.0   3.413   60.4  0.1281   38.0  0.2377 -139.2
 2.500  0.5229  154.5   3.386   60.0  0.1287   37.9  0.2375 -139.8
 2.520  0.5239  154.0   3.359   59.7  0.1294   37.9  0.2373 -140.3
 2.540  0.5249  153.4   3.333   59.3  0.1300   37.8  0.2372 -140.9
 2.560  0.5260  152.9   3.306   58.9  0.1307   37.7  0.2370 -141.4
 2.580  0.5271  152.4   3.280   58.5  0.1313   37.7  0.2369 -142.0
 2.600  0.5282  151.9   3.254   58.1  0.1320   37.6  0.2368 -142.5
 2.620  0.5289  151.4   3.231   57.8  0.1326   37.5  0.2368 -143.0
 2.640  0.5296  150.9   3.207   57.4  0.1333   37.5  0.2368 -143.5
 2.660  0.5304  150.4   3.184   57.1  0.1339   37.4  0.2368 -144.0
 2.680  0.5312  150.0   3.161   56.7  0.1346   37.3  0.2369 -144.5
 2.700  0.5320  149.5   3.138   56.4  0.1352   37.2  0.2369 -145.0
 2.720  0.5329  149.0   3.115   56.0  0.1358   37.2  0.2370 -145.5
 2.740  0.5338  148.5   3.092   55.6  0.1365   37.1  0.2371 -146.0
 2.760  0.5348  148.0   3.070   55.3  0.1371   37.0  0.2372 -146.5
 2.780  0.5358  147.6   3.047   54.9  0.1378   37.0  0.2373 -147.0
 2.800  0.5368  147.1   3.025   54.5  0.1384   36.9  0.2375 -147.5
 2.820  0.5376  146.6   3.004   54.2  0.1390   36.8  0.2376 -148.0
 2.840  0.5384  146.2   2.984   53.9  0.1397   36.7  0.2378 -148.5
 2.860  0.5392  145.7   2.963   53.5  0.1403   36.6  0.2380 -148.9
 2.880  0.5401  145.3   2.943   53.2  0.1409   36.5  0.2381 -149.4
 2.900  0.5410  144.8   2.922   52.9  0.1415   36.4  0.2383 -149.9
 2.920  0.5419  144.4   2.902   52.5  0.1422   36.4  0.2386 -150.4
 2.940  0.5429  143.9   2.882   52.2  0.1428   36.3  0.2388 -150.9
 2.960  0.5439  143.5   2.862   51.8  0.1434   36.2  0.2390 -151.3
 2.980  0.5449  143.0   2.842   51.5  0.1441   36.1  0.2393 -151.8
 3.000  0.5460  142.6   2.822   51.1  0.1447   36.0  0.2396 -152.3
 3.100  0.5498  140.5   2.736   49.7  0.1477   35.5  0.2410 -154.5
 3.200  0.5543  138.4   2.652   48.1  0.1507   34.9  0.2429 -156.7
 3.300  0.5595  136.4   2.570   46.5  0.1538   34.4  0.2450 -158.8
 3.400  0.5655  134.4   2.490   44.8  0.1568   34.0  0.2475 -160.9
 3.500  0.5721  132.4   2.413   42.9  0.1599   33.5  0.2503 -163.0
 3.600  0.5770  130.6   2.347   41.5  0.1627   32.9  0.2528 -165.2
 3.700  0.5825  128.8   2.283   40.1  0.1655   32.4  0.2557 -167.3
 3.800  0.5885  127.0   2.220   38.6  0.1683   31.8  0.2589 -169.3
 3.900  0.5951  125.3   2.159   37.0  0.1712   31.3  0.2624 -171.3
 4.000  0.6022  123.6   2.100   35.3  0.1740   30.8  0.2663 -173.3
 4.100  0.6072  122.1   2.047   34.0  0.1765   30.2  0.2706 -175.2
 4.200  0.6126  120.6   1.996   32.7  0.1791   29.7  0.2752 -177.1
 4.300  0.6183  119.1   1.946   31.3  0.1816   29.2  0.2801 -179.0
 4.400  0.6245  117.7   1.897   29.8  0.1842   28.7  0.2853  179.3
 4.500  0.6311  116.3   1.849   28.2  0.1868   28.2  0.2907  177.6
 4.600  0.6349  115.0   1.808   27.0  0.1894   27.7  0.2947  176.3
 4.700  0.6390  113.8   1.768   25.8  0.1919   27.3  0.2989  175.0
 4.800  0.6434  112.5   1.729   24.5  0.1945   26.8  0.3032  173.7
 4.900  0.6481  111.3   1.690   23.2  0.1971   26.4  0.3076  172.5
 5.000  0.6531  110.1   1.653   21.8  0.1997   26.0  0.3122  171.3
 5.100  0.6558  109.0   1.622   20.7  0.2026   25.5  0.3152  170.3
 5.200  0.6587  108.0   1.591   19.6  0.2055   24.9  0.3182  169.3
 5.300  0.6618  107.0   1.560   18.5  0.2084   24.4  0.3214  168.4
 5.400  0.6651  105.9   1.531   17.3  0.2113   23.9  0.3247  167.4
 5.500  0.6687  104.9   1.502   16.0  0.2143   23.4  0.3280  166.5
 5.600  0.6709  104.0   1.477   14.9  0.2171   22.8  0.3317  165.6
 5.700  0.6732  103.2   1.453   13.8  0.2199   22.2  0.3355  164.7
 5.800  0.6757  102.3   1.429   12.6  0.2227   21.6  0.3393  163.8
 5.900  0.6784  101.4   1.406   11.4  0.2255   21.0  0.3433  162.9
 6.000  0.6812  100.6   1.383   10.2  0.2284   20.4  0.3473  162.1
 6.100  0.6817   99.7   1.362    9.2  0.2309   19.8  0.3501  161.5
 6.200  0.6823   98.9   1.341    8.1  0.2333   19.2  0.3530  160.9
 6.300  0.6830   98.0   1.320    7.1  0.2358   18.6  0.3559  160.3
 6.400  0.6839   97.2   1.300    5.9  0.2384   18.1  0.3589  159.7
 6.500  0.6850   96.3   1.281    4.8  0.2409   17.5  0.3619  159.1
 6.600  0.6846   95.3   1.265    3.8  0.2437   16.9  0.3621  158.7
 6.800  0.6843   93.4   1.233    1.8  0.2495   15.8  0.3626  157.9
 7.000  0.6848   91.5   1.203   -0.3  0.2553   14.8  0.3631  157.1
 7.200  0.6869   89.2   1.178   -2.5  0.2617   13.3  0.3634  155.5
 7.400  0.6902   86.9   1.154   -4.7  0.2683   12.0  0.3639  154.0
 7.600  0.6945   84.5   1.131   -7.1  0.2747   10.4  0.3661  152.0
 7.800  0.7000   81.9   1.107   -9.5  0.2808    8.8  0.3701  149.7
 8.000  0.7070   79.4   1.086  -12.0  0.2871    7.2  0.3747  147.4
 8.200  0.7125   76.6   1.058  -14.4  0.2915    5.2  0.3790  144.4
 8.400  0.7197   73.9   1.032  -16.9  0.2962    3.2  0.3842  141.5
 8.600  0.7288   71.3   1.005  -19.3  0.2993    1.3  0.3903  138.0
 8.800  0.7396   68.9   0.976  -21.6  0.3008   -0.7  0.3981  133.9
 9.000  0.7518   66.5   0.949  -24.0  0.3026   -2.7  0.4079  130.0
 9.200  0.7672   64.5   0.918  -25.8  0.3018   -4.2  0.4234  125.4
 9.400  0.7835   62.6   0.888  -27.8  0.3013   -5.7  0.4414  121.1
 9.600  0.7976   60.9   0.858  -29.5  0.3006   -6.9  0.4604  117.3
 9.800  0.8092   59.3   0.828  -31.0  0.2995   -7.8  0.4799  114.0
10.000  0.8214   57.8   0.799  -32.6  0.2986   -8.7  0.5009  111.0
!
!  f       NFmin   Gammaopt  rn/50
! GHz       dB    MAG  ANG    -
 0.450      0.89  0.20   13   0.14
 1.900      1.10  0.09  121   0.12
 3.500      1.17  0.33 -142   0.11
!
! (c) 2016  Infineon Technologies AG, Munich
