! Infineon Technologies  Discrete & RF Semiconductors
! BFP460
! VCE =  1.5 V,  IC =  45 mA
! Common Emitter S-Parameters:                            Jan 2016
# GHz  S  MA  R  50
!  f         S11            S21            S12            S22
! GHz     MAG   ANG      MAG   ANG      MAG   ANG      MAG   ANG
 0.030  0.3547  -30.6  63.888  168.4  0.0048   83.7  0.8770  -12.9
 0.035  0.3557  -35.2  63.326  166.3  0.0054   82.0  0.8715  -15.3
 0.040  0.3589  -39.7  62.853  164.1  0.0061   80.7  0.8675  -17.7
 0.045  0.3586  -43.9  62.090  161.9  0.0068   79.0  0.8598  -20.0
 0.050  0.3602  -48.1  61.423  159.6  0.0075   77.6  0.8535  -22.4
 0.055  0.3645  -52.4  60.728  157.9  0.0081   76.1  0.8441  -24.6
 0.060  0.3709  -56.6  60.090  156.1  0.0087   74.8  0.8360  -26.9
 0.065  0.3736  -60.8  59.355  154.2  0.0092   73.5  0.8252  -29.0
 0.070  0.3784  -65.0  58.689  152.2  0.0098   72.3  0.8155  -31.1
 0.075  0.3844  -68.3  57.829  150.7  0.0103   71.4  0.8041  -33.1
 0.080  0.3917  -71.4  57.011  149.1  0.0109   70.6  0.7938  -35.2
 0.085  0.3945  -74.9  56.055  147.5  0.0114   69.9  0.7817  -37.1
 0.090  0.3988  -78.3  55.146  145.8  0.0120   69.3  0.7705  -39.0
 0.095  0.3995  -81.1  54.138  144.4  0.0124   68.3  0.7586  -40.8
 0.100  0.4011  -83.9  53.162  143.0  0.0128   67.4  0.7475  -42.6
 0.105  0.4064  -86.5  52.320  141.6  0.0133   66.6  0.7351  -44.3
 0.110  0.4125  -89.1  51.511  140.1  0.0139   65.8  0.7233  -46.1
 0.115  0.4135  -92.0  50.564  138.8  0.0143   65.3  0.7114  -47.7
 0.120  0.4156  -94.8  49.646  137.4  0.0147   64.8  0.7001  -49.4
 0.125  0.4173  -97.1  48.762  136.3  0.0151   64.3  0.6881  -50.9
 0.130  0.4197  -99.4  47.897  135.1  0.0155   63.8  0.6766  -52.4
 0.135  0.4225 -101.7  47.063  133.9  0.0158   63.1  0.6654  -53.8
 0.140  0.4259 -103.9  46.249  132.7  0.0162   62.4  0.6547  -55.3
 0.145  0.4270 -105.9  45.355  131.6  0.0165   62.0  0.6437  -56.7
 0.150  0.4286 -107.8  44.478  130.5  0.0169   61.6  0.6331  -58.1
 0.155  0.4290 -109.4  43.726  129.8  0.0172   61.3  0.6228  -59.1
 0.160  0.4297 -111.1  42.982  129.0  0.0175   61.0  0.6126  -60.1
 0.165  0.4308 -112.7  42.246  128.2  0.0177   60.8  0.6027  -61.2
 0.170  0.4322 -114.3  41.518  127.4  0.0180   60.5  0.5930  -62.3
 0.175  0.4339 -115.9  40.799  126.5  0.0183   60.3  0.5836  -63.5
 0.180  0.4360 -117.5  40.089  125.6  0.0186   60.0  0.5743  -64.7
 0.185  0.4385 -119.1  39.389  124.7  0.0189   59.8  0.5654  -65.9
 0.190  0.4412 -120.6  38.699  123.8  0.0191   59.5  0.5567  -67.2
 0.195  0.4443 -122.2  38.020  122.8  0.0194   59.3  0.5482  -68.5
 0.200  0.4477 -123.7  37.353  121.8  0.0197   59.1  0.5401  -69.8
 0.220  0.4502 -128.3  35.074  119.5  0.0207   58.7  0.5102  -73.2
 0.240  0.4556 -132.8  32.860  116.9  0.0217   58.3  0.4822  -76.9
 0.260  0.4601 -136.7  30.909  114.5  0.0227   58.1  0.4578  -80.4
 0.280  0.4628 -140.0  29.187  112.6  0.0236   58.2  0.4360  -83.3
 0.300  0.4670 -143.2  27.501  110.5  0.0245   58.3  0.4154  -86.5
 0.320  0.4686 -145.8  26.134  109.1  0.0253   58.5  0.3985  -88.9
 0.340  0.4711 -148.3  24.786  107.5  0.0262   58.6  0.3823  -91.5
 0.360  0.4730 -150.7  23.582  106.0  0.0270   58.8  0.3680  -93.9
 0.380  0.4742 -152.8  22.514  104.8  0.0279   59.1  0.3552  -96.1
 0.400  0.4760 -154.9  21.458  103.4  0.0288   59.3  0.3431  -98.5
 0.420  0.4771 -156.7  20.584  102.4  0.0297   59.6  0.3329 -100.4
 0.440  0.4787 -158.4  19.716  101.4  0.0306   59.8  0.3231 -102.4
 0.450  0.4797 -159.3  19.285  100.8  0.0310   59.9  0.3183 -103.4
 0.460  0.4799 -160.0  18.928  100.4  0.0315   60.1  0.3142 -104.2
 0.480  0.4807 -161.5  18.218   99.5  0.0324   60.4  0.3063 -105.9
 0.500  0.4817 -163.0  17.512   98.5  0.0333   60.7  0.2986 -107.7
 0.520  0.4822 -164.2  16.955   97.8  0.0342   60.9  0.2925 -109.1
 0.540  0.4829 -165.5  16.402   97.1  0.0351   61.2  0.2865 -110.5
 0.560  0.4839 -166.7  15.851   96.3  0.0360   61.4  0.2807 -112.0
 0.580  0.4851 -168.0  15.303   95.4  0.0369   61.6  0.2752 -113.6
 0.600  0.4865 -169.2  14.759   94.5  0.0378   61.8  0.2698 -115.2
 0.620  0.4868 -170.2  14.352   93.9  0.0387   62.0  0.2657 -116.4
 0.640  0.4873 -171.2  13.947   93.3  0.0396   62.1  0.2617 -117.6
 0.660  0.4879 -172.1  13.544   92.7  0.0406   62.3  0.2578 -118.9
 0.680  0.4886 -173.1  13.142   92.0  0.0415   62.5  0.2540 -120.2
 0.700  0.4895 -174.1  12.742   91.3  0.0424   62.6  0.2504 -121.5
 0.720  0.4900 -174.9  12.433   90.8  0.0433   62.7  0.2475 -122.5
 0.740  0.4906 -175.7  12.126   90.3  0.0443   62.8  0.2447 -123.6
 0.760  0.4914 -176.6  11.819   89.7  0.0452   62.9  0.2420 -124.7
 0.780  0.4922 -177.4  11.514   89.1  0.0462   63.0  0.2393 -125.8
 0.800  0.4931 -178.2  11.210   88.5  0.0471   63.1  0.2368 -126.9
 0.820  0.4935 -178.9  10.969   88.0  0.0480   63.2  0.2348 -127.8
 0.840  0.4939 -179.6  10.728   87.6  0.0490   63.2  0.2329 -128.7
 0.860  0.4944  179.6  10.489   87.1  0.0499   63.3  0.2310 -129.6
 0.880  0.4950  178.9  10.250   86.5  0.0509   63.3  0.2292 -130.5
 0.900  0.4957  178.2  10.012   86.0  0.0518   63.4  0.2275 -131.4
 0.920  0.4959  177.5   9.817   85.6  0.0528   63.4  0.2260 -132.2
 0.940  0.4963  176.8   9.622   85.2  0.0537   63.4  0.2246 -133.0
 0.960  0.4966  176.2   9.428   84.7  0.0547   63.5  0.2232 -133.8
 0.980  0.4971  175.5   9.234   84.3  0.0556   63.5  0.2219 -134.6
 1.000  0.4976  174.8   9.041   83.8  0.0566   63.5  0.2206 -135.4
 1.020  0.4979  174.2   8.880   83.4  0.0576   63.5  0.2196 -136.1
 1.040  0.4982  173.6   8.719   83.0  0.0585   63.5  0.2186 -136.8
 1.060  0.4986  173.0   8.559   82.5  0.0595   63.4  0.2177 -137.5
 1.080  0.4991  172.4   8.400   82.1  0.0604   63.4  0.2168 -138.2
 1.100  0.4996  171.8   8.241   81.6  0.0614   63.4  0.2159 -138.9
 1.120  0.5000  171.2   8.106   81.2  0.0624   63.4  0.2151 -139.5
 1.140  0.5005  170.6   7.972   80.8  0.0633   63.3  0.2144 -140.2
 1.160  0.5011  170.1   7.838   80.4  0.0643   63.3  0.2137 -140.8
 1.180  0.5017  169.5   7.704   80.0  0.0652   63.2  0.2130 -141.5
 1.200  0.5023  168.9   7.571   79.6  0.0662   63.2  0.2123 -142.1
 1.220  0.5027  168.4   7.456   79.2  0.0672   63.1  0.2118 -142.6
 1.240  0.5031  167.9   7.341   78.8  0.0682   63.1  0.2114 -143.2
 1.260  0.5035  167.4   7.226   78.4  0.0691   63.0  0.2109 -143.7
 1.280  0.5040  166.9   7.112   78.0  0.0701   63.0  0.2105 -144.3
 1.300  0.5045  166.4   6.998   77.6  0.0711   62.9  0.2101 -144.8
 1.320  0.5050  165.9   6.900   77.2  0.0721   62.8  0.2097 -145.3
 1.340  0.5055  165.4   6.802   76.9  0.0730   62.7  0.2093 -145.9
 1.360  0.5060  164.8   6.704   76.5  0.0740   62.7  0.2090 -146.4
 1.380  0.5066  164.3   6.607   76.1  0.0749   62.6  0.2086 -147.0
 1.400  0.5072  163.8   6.510   75.7  0.0759   62.5  0.2083 -147.5
 1.420  0.5076  163.3   6.425   75.4  0.0769   62.4  0.2081 -147.9
 1.440  0.5081  162.8   6.339   75.0  0.0778   62.3  0.2079 -148.4
 1.460  0.5086  162.3   6.254   74.6  0.0788   62.2  0.2077 -148.8
 1.480  0.5091  161.8   6.169   74.3  0.0797   62.1  0.2076 -149.3
 1.500  0.5097  161.3   6.085   73.9  0.0807   62.0  0.2074 -149.7
 1.520  0.5103  160.8   6.010   73.6  0.0817   61.9  0.2073 -150.2
 1.540  0.5110  160.4   5.934   73.2  0.0826   61.8  0.2072 -150.6
 1.560  0.5117  159.9   5.859   72.9  0.0836   61.7  0.2071 -151.1
 1.580  0.5124  159.5   5.785   72.6  0.0845   61.6  0.2071 -151.5
 1.600  0.5132  159.0   5.710   72.2  0.0855   61.5  0.2070 -152.0
 1.620  0.5135  158.5   5.645   71.9  0.0865   61.4  0.2069 -152.4
 1.640  0.5138  158.1   5.579   71.5  0.0874   61.2  0.2069 -152.8
 1.660  0.5142  157.6   5.514   71.1  0.0884   61.1  0.2068 -153.2
 1.680  0.5146  157.2   5.450   70.8  0.0893   60.9  0.2068 -153.6
 1.700  0.5150  156.7   5.385   70.4  0.0903   60.8  0.2068 -154.0
 1.720  0.5154  156.3   5.325   70.1  0.0913   60.7  0.2069 -154.4
 1.740  0.5158  155.9   5.266   69.7  0.0922   60.5  0.2070 -154.8
 1.760  0.5163  155.4   5.207   69.3  0.0932   60.4  0.2071 -155.2
 1.780  0.5168  155.0   5.148   69.0  0.0941   60.2  0.2072 -155.6
 1.800  0.5173  154.6   5.089   68.6  0.0951   60.1  0.2073 -156.0
 1.820  0.5179  154.1   5.037   68.3  0.0960   60.0  0.2074 -156.4
 1.840  0.5185  153.7   4.985   68.0  0.0970   59.8  0.2075 -156.8
 1.860  0.5192  153.2   4.933   67.7  0.0979   59.7  0.2076 -157.1
 1.880  0.5199  152.8   4.881   67.3  0.0989   59.5  0.2077 -157.5
 1.900  0.5206  152.3   4.830   67.0  0.0998   59.4  0.2078 -157.9
 1.920  0.5212  151.9   4.782   66.7  0.1007   59.3  0.2080 -158.3
 1.940  0.5218  151.5   4.735   66.3  0.1017   59.1  0.2083 -158.7
 1.960  0.5225  151.0   4.688   65.9  0.1026   59.0  0.2085 -159.0
 1.980  0.5232  150.6   4.641   65.6  0.1036   58.8  0.2087 -159.4
 2.000  0.5239  150.2   4.594   65.2  0.1045   58.7  0.2090 -159.8
 2.020  0.5245  149.8   4.552   64.9  0.1054   58.5  0.2093 -160.2
 2.040  0.5251  149.4   4.509   64.6  0.1064   58.3  0.2096 -160.6
 2.060  0.5258  149.0   4.467   64.3  0.1073   58.2  0.2099 -161.0
 2.080  0.5265  148.5   4.425   64.0  0.1082   58.0  0.2102 -161.3
 2.100  0.5272  148.1   4.384   63.6  0.1091   57.8  0.2106 -161.7
 2.120  0.5280  147.7   4.342   63.3  0.1101   57.6  0.2109 -162.1
 2.140  0.5287  147.3   4.301   63.0  0.1110   57.5  0.2113 -162.5
 2.160  0.5295  146.9   4.259   62.6  0.1119   57.3  0.2116 -162.9
 2.180  0.5303  146.5   4.218   62.3  0.1129   57.2  0.2120 -163.2
 2.200  0.5312  146.1   4.177   61.9  0.1138   57.0  0.2124 -163.6
 2.220  0.5319  145.7   4.142   61.6  0.1147   56.8  0.2128 -164.0
 2.240  0.5326  145.3   4.107   61.3  0.1156   56.6  0.2133 -164.4
 2.260  0.5334  144.9   4.072   61.0  0.1165   56.5  0.2137 -164.8
 2.280  0.5341  144.6   4.037   60.6  0.1174   56.3  0.2142 -165.1
 2.300  0.5349  144.2   4.002   60.3  0.1183   56.1  0.2147 -165.5
 2.320  0.5357  143.8   3.968   60.0  0.1192   55.9  0.2152 -165.9
 2.340  0.5366  143.4   3.933   59.7  0.1201   55.8  0.2157 -166.3
 2.360  0.5374  143.1   3.899   59.3  0.1210   55.6  0.2162 -166.7
 2.380  0.5383  142.7   3.865   59.0  0.1219   55.5  0.2167 -167.0
 2.400  0.5392  142.3   3.831   58.6  0.1228   55.3  0.2172 -167.4
 2.420  0.5400  141.9   3.801   58.3  0.1237   55.1  0.2178 -167.8
 2.440  0.5408  141.5   3.771   58.0  0.1245   54.9  0.2185 -168.2
 2.460  0.5417  141.1   3.741   57.7  0.1254   54.7  0.2191 -168.5
 2.480  0.5426  140.8   3.711   57.4  0.1263   54.5  0.2198 -168.9
 2.500  0.5435  140.4   3.682   57.1  0.1272   54.4  0.2204 -169.3
 2.520  0.5444  140.0   3.652   56.7  0.1281   54.2  0.2211 -169.6
 2.540  0.5453  139.6   3.623   56.4  0.1289   54.0  0.2218 -170.0
 2.560  0.5463  139.2   3.593   56.1  0.1298   53.8  0.2225 -170.4
 2.580  0.5473  138.9   3.564   55.7  0.1307   53.7  0.2232 -170.7
 2.600  0.5483  138.5   3.535   55.4  0.1316   53.5  0.2239 -171.1
 2.620  0.5491  138.1   3.509   55.1  0.1324   53.3  0.2247 -171.4
 2.640  0.5500  137.8   3.483   54.8  0.1333   53.1  0.2255 -171.8
 2.660  0.5508  137.4   3.457   54.5  0.1341   52.9  0.2263 -172.1
 2.680  0.5517  137.1   3.431   54.2  0.1350   52.8  0.2271 -172.4
 2.700  0.5526  136.7   3.406   53.9  0.1358   52.6  0.2279 -172.8
 2.720  0.5535  136.4   3.380   53.6  0.1367   52.4  0.2287 -173.1
 2.740  0.5545  136.0   3.355   53.3  0.1375   52.2  0.2296 -173.4
 2.760  0.5554  135.7   3.329   53.0  0.1384   52.0  0.2304 -173.8
 2.780  0.5564  135.3   3.304   52.6  0.1392   51.9  0.2312 -174.1
 2.800  0.5574  135.0   3.279   52.3  0.1401   51.7  0.2321 -174.4
 2.820  0.5582  134.7   3.256   52.0  0.1409   51.5  0.2329 -174.7
 2.840  0.5590  134.3   3.234   51.7  0.1417   51.3  0.2337 -175.1
 2.860  0.5598  134.0   3.211   51.4  0.1425   51.1  0.2346 -175.4
 2.880  0.5606  133.7   3.188   51.2  0.1434   51.0  0.2354 -175.7
 2.900  0.5615  133.3   3.166   50.9  0.1442   50.8  0.2363 -176.0
 2.920  0.5623  133.0   3.144   50.6  0.1450   50.6  0.2371 -176.3
 2.940  0.5632  132.7   3.121   50.2  0.1458   50.4  0.2380 -176.7
 2.960  0.5641  132.4   3.099   49.9  0.1466   50.2  0.2388 -177.0
 2.980  0.5651  132.0   3.077   49.6  0.1475   50.1  0.2397 -177.3
 3.000  0.5660  131.7   3.055   49.3  0.1483   49.9  0.2406 -177.6
 3.100  0.5698  130.0   2.962   48.0  0.1521   48.9  0.2449 -179.1
 3.200  0.5742  128.4   2.870   46.7  0.1560   47.9  0.2493  179.4
 3.300  0.5789  126.8   2.779   45.2  0.1599   46.9  0.2539  178.0
 3.400  0.5842  125.2   2.691   43.7  0.1639   46.0  0.2587  176.6
 3.500  0.5898  123.7   2.605   42.0  0.1679   45.2  0.2636  175.3
 3.600  0.5949  122.2   2.534   40.8  0.1713   44.2  0.2685  173.7
 3.700  0.6004  120.8   2.463   39.5  0.1747   43.3  0.2737  172.1
 3.800  0.6062  119.4   2.394   38.2  0.1781   42.3  0.2790  170.6
 3.900  0.6124  118.0   2.327   36.7  0.1817   41.4  0.2845  169.2
 4.000  0.6190  116.6   2.261   35.2  0.1852   40.6  0.2902  167.8
 4.100  0.6239  115.4   2.205   34.0  0.1882   39.7  0.2962  166.3
 4.200  0.6291  114.2   2.149   32.8  0.1913   38.9  0.3023  165.0
 4.300  0.6345  113.0   2.095   31.6  0.1944   38.1  0.3086  163.6
 4.400  0.6402  111.8   2.042   30.2  0.1975   37.3  0.3151  162.3
 4.500  0.6462  110.7   1.990   28.8  0.2007   36.5  0.3217  161.1
 4.600  0.6499  109.6   1.946   27.7  0.2036   35.7  0.3263  160.0
 4.700  0.6539  108.5   1.903   26.6  0.2066   35.0  0.3310  159.0
 4.800  0.6581  107.4   1.861   25.5  0.2096   34.3  0.3357  158.0
 4.900  0.6625  106.3   1.820   24.3  0.2126   33.6  0.3406  157.0
 5.000  0.6672  105.2   1.779   23.0  0.2157   32.9  0.3456  156.1
 5.100  0.6697  104.3   1.746   22.0  0.2189   32.1  0.3485  155.3
 5.200  0.6724  103.3   1.713   21.0  0.2222   31.4  0.3514  154.5
 5.300  0.6753  102.4   1.681   19.9  0.2255   30.6  0.3544  153.7
 5.400  0.6783  101.5   1.650   18.8  0.2288   29.9  0.3575  152.9
 5.500  0.6815  100.6   1.619   17.7  0.2322   29.2  0.3606  152.1
 5.600  0.6832   99.8   1.592   16.7  0.2351   28.3  0.3639  151.3
 5.700  0.6851   99.0   1.566   15.6  0.2381   27.5  0.3672  150.6
 5.800  0.6871   98.2   1.541   14.5  0.2411   26.7  0.3706  149.8
 5.900  0.6892   97.5   1.516   13.4  0.2442   25.9  0.3741  149.1
 6.000  0.6914   96.7   1.492   12.2  0.2473   25.1  0.3776  148.4
 6.100  0.6917   95.9   1.470   11.3  0.2499   24.3  0.3795  147.9
 6.200  0.6921   95.2   1.447   10.3  0.2525   23.5  0.3815  147.4
 6.300  0.6926   94.4   1.426    9.3  0.2551   22.8  0.3835  146.9
 6.400  0.6932   93.7   1.405    8.3  0.2579   22.0  0.3855  146.5
 6.500  0.6940   92.9   1.384    7.2  0.2606   21.3  0.3875  146.0
 6.600  0.6932   92.0   1.367    6.2  0.2636   20.6  0.3867  145.6
 6.800  0.6922   90.1   1.334    4.3  0.2697   19.2  0.3852  144.7
 7.000  0.6919   88.2   1.303    2.2  0.2759   17.8  0.3837  143.9
 7.200  0.6934   86.0   1.277    0.1  0.2824   16.1  0.3829  142.4
 7.400  0.6958   83.9   1.252   -2.0  0.2892   14.4  0.3824  140.9
 7.600  0.6993   81.5   1.227   -4.3  0.2955   12.6  0.3839  139.0
 7.800  0.7042   79.1   1.202   -6.7  0.3014   10.7  0.3877  136.8
 8.000  0.7104   76.6   1.180   -9.3  0.3077    8.8  0.3920  134.6
 8.200  0.7154   74.0   1.150  -11.6  0.3114    6.6  0.3965  131.9
 8.400  0.7219   71.5   1.121  -14.0  0.3156    4.4  0.4019  129.2
 8.600  0.7303   69.1   1.092  -16.4  0.3181    2.2  0.4089  126.0
 8.800  0.7407   66.8   1.060  -18.7  0.3187    0.1  0.4184  122.2
 9.000  0.7522   64.6   1.031  -21.1  0.3198   -2.0  0.4295  118.6
 9.200  0.7673   62.8   0.997  -22.9  0.3181   -3.5  0.4465  114.5
 9.400  0.7831   61.0   0.964  -24.8  0.3166   -5.1  0.4657  110.7
 9.600  0.7972   59.4   0.932  -26.5  0.3151   -6.4  0.4850  107.4
 9.800  0.8094   57.9   0.901  -27.8  0.3134   -7.3  0.5041  104.5
10.000  0.8221   56.5   0.870  -29.3  0.3117   -8.3  0.5243  101.9
!
!  f       NFmin   Gammaopt  rn/50
! GHz       dB    MAG  ANG    -
 0.450      1.77  0.29 -170   0.13
 0.900      1.79  0.27 -162   0.14
 1.900      1.89  0.36 -141   0.15
 3.500      1.72  0.59 -117   0.24
!
! (c) 2016  Infineon Technologies AG, Munich
