! Infineon Technologies  Discrete & RF Semiconductors
! BFP460
! VCE =  1.5 V,  IC =  16 mA
! Common Emitter S-Parameters:                            Jan 2016
# GHz  S  MA  R  50
!  f         S11            S21            S12            S22
! GHz     MAG   ANG      MAG   ANG      MAG   ANG      MAG   ANG
 0.030  0.6562  -13.6  39.719  172.4  0.0058   84.6  0.9484   -8.7
 0.035  0.6533  -15.7  39.562  171.0  0.0067   83.3  0.9455  -10.2
 0.040  0.6512  -17.8  39.431  169.5  0.0076   82.3  0.9433  -11.7
 0.045  0.6488  -19.9  39.180  167.9  0.0084   81.1  0.9394  -13.1
 0.050  0.6473  -22.0  38.960  166.3  0.0092   80.2  0.9362  -14.6
 0.055  0.6444  -24.3  38.775  165.2  0.0102   79.3  0.9319  -16.0
 0.060  0.6425  -26.6  38.605  164.1  0.0112   78.5  0.9281  -17.5
 0.065  0.6398  -28.8  38.479  162.7  0.0120   77.6  0.9228  -18.9
 0.070  0.6381  -31.0  38.376  161.3  0.0129   76.9  0.9181  -20.4
 0.075  0.6389  -33.0  38.101  160.3  0.0136   76.0  0.9121  -21.8
 0.080  0.6405  -35.0  37.837  159.3  0.0144   75.1  0.9067  -23.2
 0.085  0.6368  -37.2  37.544  158.0  0.0153   74.3  0.9001  -24.5
 0.090  0.6340  -39.5  37.270  156.7  0.0162   73.5  0.8940  -25.9
 0.095  0.6312  -41.3  36.885  155.7  0.0170   72.7  0.8874  -27.2
 0.100  0.6291  -43.1  36.513  154.6  0.0178   71.9  0.8812  -28.5
 0.105  0.6282  -45.0  36.254  153.5  0.0185   71.1  0.8738  -29.8
 0.110  0.6280  -47.0  36.009  152.4  0.0192   70.4  0.8668  -31.1
 0.115  0.6236  -49.0  35.677  151.3  0.0199   69.6  0.8594  -32.4
 0.120  0.6199  -51.1  35.359  150.1  0.0206   68.8  0.8524  -33.7
 0.125  0.6165  -52.8  35.026  149.2  0.0212   68.1  0.8445  -34.9
 0.130  0.6136  -54.6  34.702  148.2  0.0218   67.5  0.8369  -36.1
 0.135  0.6110  -56.4  34.384  147.1  0.0225   66.7  0.8291  -37.2
 0.140  0.6091  -58.2  34.079  146.0  0.0232   66.0  0.8217  -38.4
 0.145  0.6054  -60.0  33.681  145.0  0.0238   65.4  0.8136  -39.5
 0.150  0.6023  -61.8  33.294  144.0  0.0244   64.8  0.8059  -40.7
 0.155  0.5979  -63.3  32.931  143.2  0.0249   64.2  0.7971  -41.6
 0.160  0.5939  -64.8  32.574  142.4  0.0254   63.6  0.7886  -42.6
 0.165  0.5903  -66.4  32.224  141.6  0.0259   63.0  0.7803  -43.6
 0.170  0.5872  -67.9  31.880  140.8  0.0264   62.4  0.7722  -44.6
 0.175  0.5845  -69.5  31.544  139.9  0.0269   61.9  0.7643  -45.6
 0.180  0.5823  -71.1  31.214  139.1  0.0274   61.4  0.7567  -46.6
 0.185  0.5805  -72.7  30.892  138.2  0.0279   60.9  0.7494  -47.7
 0.190  0.5791  -74.3  30.577  137.3  0.0285   60.4  0.7423  -48.8
 0.195  0.5782  -75.9  30.270  136.3  0.0290   59.9  0.7354  -49.9
 0.200  0.5778  -77.5  29.971  135.4  0.0295   59.5  0.7289  -51.0
 0.220  0.5655  -82.7  28.663  132.8  0.0311   57.9  0.6988  -54.2
 0.240  0.5581  -88.1  27.420  129.9  0.0328   56.5  0.6711  -57.7
 0.260  0.5512  -93.1  26.255  127.3  0.0342   55.3  0.6450  -61.0
 0.280  0.5435  -97.5  25.143  125.1  0.0355   54.2  0.6197  -63.9
 0.300  0.5392 -102.1  24.074  122.6  0.0368   53.3  0.5961  -67.0
 0.320  0.5322 -105.8  23.097  120.8  0.0379   52.5  0.5744  -69.4
 0.340  0.5274 -109.6  22.147  118.8  0.0390   51.8  0.5538  -71.9
 0.360  0.5227 -113.1  21.270  116.9  0.0401   51.2  0.5347  -74.3
 0.380  0.5176 -116.3  20.459  115.3  0.0410   50.7  0.5167  -76.5
 0.400  0.5141 -119.6  19.665  113.6  0.0419   50.3  0.4996  -78.9
 0.420  0.5105 -122.4  18.963  112.3  0.0428   50.0  0.4844  -80.8
 0.440  0.5081 -125.2  18.272  110.9  0.0437   49.7  0.4698  -82.8
 0.450  0.5074 -126.6  17.930  110.2  0.0441   49.5  0.4627  -83.8
 0.460  0.5054 -127.8  17.632  109.6  0.0445   49.4  0.4562  -84.7
 0.480  0.5022 -130.2  17.042  108.5  0.0453   49.3  0.4436  -86.4
 0.500  0.4998 -132.6  16.460  107.2  0.0461   49.2  0.4314  -88.3
 0.520  0.4970 -134.6  15.976  106.3  0.0469   49.2  0.4211  -89.7
 0.540  0.4948 -136.6  15.497  105.3  0.0477   49.1  0.4110  -91.1
 0.560  0.4933 -138.7  15.023  104.3  0.0484   49.1  0.4012  -92.6
 0.580  0.4924 -140.7  14.554  103.2  0.0492   49.0  0.3917  -94.2
 0.600  0.4921 -142.8  14.090  102.0  0.0500   49.0  0.3825  -95.9
 0.620  0.4903 -144.4  13.723  101.3  0.0508   49.1  0.3750  -97.1
 0.640  0.4889 -146.1  13.359  100.5  0.0515   49.1  0.3676  -98.4
 0.660  0.4880 -147.7  12.997   99.7  0.0523   49.2  0.3604  -99.7
 0.680  0.4874 -149.3  12.638   98.8  0.0530   49.2  0.3535 -101.1
 0.700  0.4872 -151.0  12.282   97.9  0.0538   49.3  0.3467 -102.5
 0.720  0.4861 -152.3  11.997   97.2  0.0546   49.4  0.3411 -103.6
 0.740  0.4853 -153.7  11.714   96.6  0.0553   49.4  0.3356 -104.7
 0.760  0.4848 -155.0  11.433   95.8  0.0561   49.5  0.3302 -105.9
 0.780  0.4845 -156.4  11.153   95.1  0.0568   49.5  0.3250 -107.1
 0.800  0.4845 -157.7  10.876   94.3  0.0576   49.6  0.3199 -108.3
 0.820  0.4839 -158.9  10.650   93.7  0.0584   49.7  0.3157 -109.2
 0.840  0.4835 -160.0  10.426   93.1  0.0592   49.8  0.3115 -110.2
 0.860  0.4834 -161.2  10.203   92.5  0.0599   49.9  0.3075 -111.2
 0.880  0.4834 -162.3   9.981   91.9  0.0607   50.0  0.3035 -112.2
 0.900  0.4836 -163.5   9.760   91.2  0.0615   50.1  0.2997 -113.3
 0.920  0.4832 -164.5   9.575   90.7  0.0623   50.2  0.2964 -114.2
 0.940  0.4829 -165.5   9.392   90.1  0.0631   50.3  0.2932 -115.1
 0.960  0.4828 -166.6   9.209   89.6  0.0638   50.4  0.2901 -116.0
 0.980  0.4828 -167.6   9.027   89.0  0.0646   50.5  0.2870 -116.9
 1.000  0.4830 -168.6   8.846   88.4  0.0654   50.6  0.2840 -117.9
 1.020  0.4828 -169.5   8.692   87.9  0.0662   50.7  0.2815 -118.7
 1.040  0.4828 -170.4   8.538   87.5  0.0670   50.7  0.2791 -119.5
 1.060  0.4829 -171.3   8.385   87.0  0.0678   50.8  0.2767 -120.3
 1.080  0.4831 -172.2   8.233   86.4  0.0686   50.8  0.2744 -121.2
 1.100  0.4834 -173.1   8.081   85.9  0.0694   50.9  0.2721 -122.0
 1.120  0.4833 -173.9   7.951   85.5  0.0702   50.9  0.2701 -122.7
 1.140  0.4832 -174.7   7.822   85.0  0.0710   51.0  0.2681 -123.5
 1.160  0.4832 -175.5   7.694   84.5  0.0719   51.0  0.2661 -124.2
 1.180  0.4834 -176.3   7.565   84.0  0.0727   51.1  0.2642 -125.0
 1.200  0.4836 -177.1   7.438   83.5  0.0735   51.1  0.2624 -125.8
 1.220  0.4838 -177.9   7.327   83.1  0.0743   51.1  0.2609 -126.4
 1.240  0.4842 -178.6   7.217   82.6  0.0751   51.2  0.2594 -127.1
 1.260  0.4846 -179.4   7.108   82.2  0.0760   51.2  0.2579 -127.8
 1.280  0.4851  179.9   6.999   81.7  0.0768   51.3  0.2565 -128.4
 1.300  0.4857  179.1   6.890   81.2  0.0776   51.3  0.2551 -129.1
 1.320  0.4858  178.4   6.795   80.8  0.0784   51.3  0.2538 -129.7
 1.340  0.4860  177.7   6.700   80.4  0.0793   51.3  0.2525 -130.4
 1.360  0.4863  177.1   6.605   80.0  0.0801   51.3  0.2512 -131.1
 1.380  0.4866  176.4   6.511   79.5  0.0810   51.3  0.2500 -131.7
 1.400  0.4870  175.7   6.417   79.1  0.0818   51.3  0.2488 -132.4
 1.420  0.4873  175.0   6.334   78.7  0.0826   51.3  0.2478 -133.0
 1.440  0.4876  174.3   6.251   78.3  0.0835   51.3  0.2469 -133.5
 1.460  0.4880  173.7   6.169   77.9  0.0843   51.3  0.2460 -134.1
 1.480  0.4885  173.0   6.087   77.4  0.0852   51.3  0.2451 -134.7
 1.500  0.4890  172.3   6.005   77.0  0.0860   51.3  0.2443 -135.3
 1.520  0.4894  171.7   5.932   76.6  0.0868   51.3  0.2435 -135.9
 1.540  0.4899  171.0   5.859   76.3  0.0877   51.3  0.2427 -136.4
 1.560  0.4904  170.4   5.786   75.9  0.0885   51.2  0.2420 -137.0
 1.580  0.4910  169.7   5.714   75.5  0.0894   51.2  0.2412 -137.5
 1.600  0.4917  169.1   5.642   75.1  0.0902   51.2  0.2405 -138.1
 1.620  0.4920  168.6   5.578   74.7  0.0910   51.2  0.2399 -138.6
 1.640  0.4922  168.0   5.514   74.3  0.0919   51.1  0.2392 -139.1
 1.660  0.4926  167.5   5.450   73.9  0.0927   51.1  0.2386 -139.7
 1.680  0.4930  166.9   5.387   73.5  0.0936   51.0  0.2381 -140.2
 1.700  0.4934  166.4   5.324   73.1  0.0944   51.0  0.2375 -140.7
 1.720  0.4939  165.8   5.266   72.7  0.0953   50.9  0.2371 -141.2
 1.740  0.4944  165.3   5.207   72.4  0.0961   50.9  0.2366 -141.7
 1.760  0.4949  164.7   5.149   72.0  0.0970   50.8  0.2362 -142.3
 1.780  0.4955  164.2   5.092   71.6  0.0978   50.8  0.2359 -142.8
 1.800  0.4962  163.6   5.034   71.2  0.0987   50.7  0.2355 -143.3
 1.820  0.4968  163.1   4.983   70.9  0.0996   50.6  0.2351 -143.8
 1.840  0.4973  162.5   4.933   70.5  0.1004   50.6  0.2348 -144.3
 1.860  0.4980  162.0   4.883   70.1  0.1013   50.5  0.2344 -144.7
 1.880  0.4987  161.4   4.833   69.8  0.1021   50.5  0.2341 -145.2
 1.900  0.4994  160.9   4.783   69.4  0.1030   50.4  0.2338 -145.7
 1.920  0.4999  160.4   4.736   69.0  0.1038   50.3  0.2336 -146.2
 1.940  0.5004  159.8   4.690   68.7  0.1047   50.2  0.2334 -146.7
 1.960  0.5010  159.3   4.643   68.3  0.1055   50.2  0.2332 -147.1
 1.980  0.5016  158.7   4.597   67.9  0.1064   50.1  0.2330 -147.6
 2.000  0.5023  158.2   4.551   67.5  0.1072   50.0  0.2328 -148.1
 2.020  0.5029  157.7   4.509   67.2  0.1080   49.9  0.2327 -148.6
 2.040  0.5035  157.2   4.468   66.8  0.1089   49.8  0.2326 -149.1
 2.060  0.5041  156.7   4.427   66.5  0.1097   49.7  0.2325 -149.5
 2.080  0.5048  156.2   4.386   66.1  0.1106   49.6  0.2324 -150.0
 2.100  0.5055  155.7   4.345   65.8  0.1114   49.5  0.2324 -150.5
 2.120  0.5063  155.2   4.304   65.4  0.1123   49.4  0.2324 -151.0
 2.140  0.5071  154.7   4.264   65.1  0.1131   49.3  0.2323 -151.5
 2.160  0.5079  154.2   4.223   64.7  0.1140   49.2  0.2323 -151.9
 2.180  0.5088  153.7   4.183   64.3  0.1148   49.1  0.2324 -152.4
 2.200  0.5097  153.2   4.143   63.9  0.1157   49.0  0.2324 -152.9
 2.220  0.5104  152.7   4.109   63.6  0.1165   48.9  0.2325 -153.4
 2.240  0.5111  152.3   4.074   63.2  0.1174   48.8  0.2326 -153.8
 2.260  0.5119  151.8   4.040   62.9  0.1182   48.7  0.2327 -154.3
 2.280  0.5127  151.3   4.006   62.6  0.1190   48.5  0.2329 -154.7
 2.300  0.5135  150.9   3.972   62.2  0.1198   48.4  0.2330 -155.2
 2.320  0.5144  150.4   3.938   61.9  0.1207   48.3  0.2332 -155.7
 2.340  0.5153  150.0   3.905   61.5  0.1215   48.2  0.2334 -156.1
 2.360  0.5162  149.5   3.871   61.1  0.1223   48.1  0.2336 -156.6
 2.380  0.5172  149.1   3.838   60.8  0.1232   48.0  0.2338 -157.0
 2.400  0.5182  148.6   3.805   60.4  0.1240   47.9  0.2340 -157.5
 2.420  0.5190  148.2   3.775   60.1  0.1248   47.8  0.2343 -158.0
 2.440  0.5199  147.7   3.745   59.8  0.1256   47.6  0.2347 -158.4
 2.460  0.5208  147.3   3.715   59.5  0.1264   47.5  0.2350 -158.9
 2.480  0.5217  146.8   3.686   59.1  0.1272   47.4  0.2354 -159.4
 2.500  0.5227  146.4   3.656   58.8  0.1280   47.2  0.2358 -159.8
 2.520  0.5237  145.9   3.627   58.5  0.1289   47.1  0.2362 -160.3
 2.540  0.5247  145.5   3.597   58.1  0.1297   47.0  0.2366 -160.7
 2.560  0.5258  145.1   3.568   57.8  0.1305   46.8  0.2370 -161.2
 2.580  0.5269  144.6   3.539   57.5  0.1313   46.7  0.2374 -161.6
 2.600  0.5280  144.2   3.510   57.1  0.1321   46.6  0.2379 -162.1
 2.620  0.5287  143.8   3.485   56.8  0.1329   46.5  0.2384 -162.5
 2.640  0.5295  143.4   3.459   56.5  0.1337   46.3  0.2389 -162.9
 2.660  0.5303  143.0   3.434   56.2  0.1345   46.2  0.2395 -163.4
 2.680  0.5311  142.5   3.409   55.8  0.1353   46.1  0.2400 -163.8
 2.700  0.5319  142.1   3.384   55.5  0.1360   45.9  0.2406 -164.2
 2.720  0.5328  141.7   3.359   55.2  0.1368   45.8  0.2412 -164.6
 2.740  0.5337  141.3   3.334   54.8  0.1376   45.7  0.2418 -165.0
 2.760  0.5346  140.9   3.309   54.5  0.1384   45.5  0.2424 -165.4
 2.780  0.5355  140.5   3.284   54.2  0.1392   45.4  0.2430 -165.8
 2.800  0.5365  140.1   3.260   53.8  0.1400   45.3  0.2436 -166.2
 2.820  0.5374  139.7   3.237   53.5  0.1408   45.2  0.2442 -166.6
 2.840  0.5383  139.3   3.215   53.2  0.1416   45.0  0.2448 -167.0
 2.860  0.5393  138.9   3.192   52.9  0.1423   44.9  0.2454 -167.4
 2.880  0.5403  138.6   3.170   52.6  0.1431   44.7  0.2461 -167.8
 2.900  0.5413  138.2   3.148   52.3  0.1439   44.6  0.2467 -168.2
 2.920  0.5423  137.8   3.126   52.0  0.1447   44.4  0.2474 -168.6
 2.940  0.5433  137.4   3.104   51.7  0.1455   44.3  0.2480 -169.0
 2.960  0.5444  137.0   3.082   51.4  0.1462   44.2  0.2487 -169.3
 2.980  0.5455  136.7   3.060   51.0  0.1470   44.0  0.2494 -169.7
 3.000  0.5466  136.3   3.038   50.7  0.1478   43.9  0.2501 -170.1
 3.100  0.5506  134.5   2.945   49.3  0.1514   43.1  0.2534 -171.9
 3.200  0.5551  132.6   2.854   47.9  0.1550   42.3  0.2570 -173.7
 3.300  0.5602  130.9   2.765   46.4  0.1587   41.5  0.2607 -175.4
 3.400  0.5658  129.1   2.679   44.7  0.1624   40.8  0.2648 -177.1
 3.500  0.5719  127.4   2.594   43.0  0.1661   40.1  0.2690 -178.7
 3.600  0.5768  125.8   2.523   41.7  0.1693   39.3  0.2731  179.5
 3.700  0.5822  124.1   2.453   40.4  0.1726   38.5  0.2776  177.7
 3.800  0.5881  122.6   2.385   39.0  0.1758   37.7  0.2822  176.0
 3.900  0.5944  121.0   2.318   37.5  0.1792   37.0  0.2871  174.3
 4.000  0.6011  119.5   2.253   35.9  0.1825   36.3  0.2923  172.7
 4.100  0.6064  118.2   2.197   34.7  0.1854   35.5  0.2976  171.1
 4.200  0.6120  116.9   2.142   33.5  0.1882   34.8  0.3032  169.5
 4.300  0.6179  115.6   2.088   32.1  0.1912   34.1  0.3090  168.0
 4.400  0.6242  114.3   2.035   30.8  0.1941   33.4  0.3149  166.6
 4.500  0.6307  113.1   1.983   29.3  0.1971   32.7  0.3211  165.2
 4.600  0.6344  111.9   1.939   28.2  0.1999   32.0  0.3254  164.0
 4.700  0.6384  110.7   1.897   27.1  0.2027   31.4  0.3298  162.9
 4.800  0.6427  109.6   1.855   25.9  0.2056   30.8  0.3343  161.8
 4.900  0.6472  108.4   1.813   24.7  0.2085   30.2  0.3389  160.7
 5.000  0.6520  107.3   1.773   23.4  0.2114   29.6  0.3437  159.7
 5.100  0.6546  106.3   1.740   22.4  0.2145   28.9  0.3464  158.8
 5.200  0.6575  105.3   1.707   21.3  0.2177   28.2  0.3492  157.9
 5.300  0.6605  104.3   1.675   20.2  0.2209   27.6  0.3520  157.1
 5.400  0.6637  103.4   1.643   19.1  0.2241   26.9  0.3550  156.2
 5.500  0.6671  102.4   1.612   17.9  0.2273   26.3  0.3580  155.4
 5.600  0.6692  101.6   1.586   16.9  0.2302   25.5  0.3612  154.6
 5.700  0.6714  100.8   1.560   15.8  0.2331   24.7  0.3645  153.8
 5.800  0.6738  100.0   1.535   14.7  0.2360   24.0  0.3679  153.0
 5.900  0.6763   99.2   1.510   13.6  0.2390   23.2  0.3714  152.2
 6.000  0.6789   98.4   1.486   12.4  0.2420   22.5  0.3749  151.4
 6.100  0.6791   97.6   1.463   11.4  0.2445   21.8  0.3769  150.9
 6.200  0.6795   96.8   1.441   10.4  0.2471   21.1  0.3790  150.4
 6.300  0.6800   95.9   1.420    9.4  0.2496   20.4  0.3811  149.9
 6.400  0.6807   95.1   1.399    8.3  0.2523   19.8  0.3832  149.4
 6.500  0.6815   94.3   1.378    7.2  0.2549   19.1  0.3853  148.9
 6.600  0.6808   93.4   1.361    6.2  0.2579   18.4  0.3846  148.5
 6.800  0.6801   91.5   1.328    4.2  0.2639   17.1  0.3833  147.6
 7.000  0.6800   89.7   1.296    2.1  0.2700   15.9  0.3820  146.7
 7.200  0.6816   87.4   1.270    0.0  0.2764   14.2  0.3813  145.2
 7.400  0.6842   85.2   1.245   -2.2  0.2830   12.7  0.3808  143.7
 7.600  0.6881   82.8   1.221   -4.5  0.2892   10.9  0.3823  141.8
 7.800  0.6934   80.3   1.196   -6.9  0.2952    9.1  0.3860  139.5
 8.000  0.7001   77.8   1.174   -9.5  0.3014    7.3  0.3903  137.3
 8.200  0.7055   75.2   1.144  -11.8  0.3053    5.2  0.3947  134.5
 8.400  0.7124   72.6   1.116  -14.3  0.3096    3.1  0.4000  131.7
 8.600  0.7214   70.1   1.087  -16.7  0.3122    1.1  0.4068  128.4
 8.800  0.7323   67.8   1.056  -19.0  0.3130   -1.0  0.4157  124.6
 9.000  0.7444   65.5   1.027  -21.4  0.3142   -3.1  0.4265  120.9
 9.200  0.7601   63.6   0.993  -23.2  0.3127   -4.7  0.4432  116.7
 9.400  0.7766   61.9   0.961  -25.2  0.3115   -6.2  0.4620  112.8
 9.600  0.7910   60.2   0.929  -26.9  0.3102   -7.5  0.4812  109.4
 9.800  0.8033   58.7   0.897  -28.3  0.3086   -8.4  0.5002  106.5
10.000  0.8162   57.2   0.866  -29.8  0.3071   -9.3  0.5204  103.7
!
!  f       NFmin   Gammaopt  rn/50
! GHz       dB    MAG  ANG    -
 0.450      1.15  0.02 -171   0.12
 0.900      1.13  0.05   97   0.15
 1.900      1.29  0.14 -157   0.12
 3.500      1.26  0.38 -127   0.14
!
! (c) 2016  Infineon Technologies AG, Munich
