! Infineon Technologies  Discrete & RF Semiconductors
! BFP460
! VCE =  4.0 V,  IC =  10 mA
! Common Emitter S-Parameters:                            Jan 2016
# GHz  S  MA  R  50
!  f         S11            S21            S12            S22
! GHz     MAG   ANG      MAG   ANG      MAG   ANG      MAG   ANG
 0.030  0.7706   -8.5  28.347  173.9  0.0054   81.4  0.9709   -5.9
 0.035  0.7698   -9.9  28.272  172.9  0.0063   81.0  0.9693   -6.8
 0.040  0.7694  -11.3  28.207  171.8  0.0072   80.7  0.9680   -7.7
 0.045  0.7682  -12.7  28.058  170.8  0.0080   80.7  0.9659   -8.5
 0.050  0.7675  -14.2  27.918  169.7  0.0089   80.7  0.9640   -9.3
 0.055  0.7644  -15.7  27.853  168.9  0.0099   79.8  0.9617  -10.2
 0.060  0.7619  -17.2  27.793  168.1  0.0109   79.0  0.9597  -11.2
 0.065  0.7611  -18.6  27.795  167.1  0.0115   78.4  0.9569  -12.1
 0.070  0.7608  -20.1  27.806  166.1  0.0122   77.9  0.9543  -13.1
 0.075  0.7604  -21.5  27.674  165.4  0.0131   77.6  0.9512  -14.0
 0.080  0.7605  -22.9  27.546  164.7  0.0140   77.3  0.9483  -14.9
 0.085  0.7571  -24.3  27.439  163.8  0.0148   76.8  0.9446  -15.8
 0.090  0.7542  -25.8  27.340  162.8  0.0157   76.3  0.9411  -16.8
 0.095  0.7526  -27.0  27.150  162.0  0.0164   75.4  0.9372  -17.6
 0.100  0.7513  -28.3  26.966  161.2  0.0172   74.6  0.9335  -18.5
 0.105  0.7502  -29.7  26.874  160.4  0.0180   74.2  0.9293  -19.4
 0.110  0.7496  -31.1  26.788  159.5  0.0188   73.8  0.9254  -20.3
 0.115  0.7457  -32.4  26.666  158.6  0.0196   73.2  0.9209  -21.1
 0.120  0.7422  -33.8  26.551  157.7  0.0204   72.7  0.9166  -22.0
 0.125  0.7387  -35.0  26.411  157.0  0.0211   72.1  0.9119  -22.8
 0.130  0.7355  -36.3  26.275  156.2  0.0218   71.6  0.9075  -23.7
 0.135  0.7329  -37.6  26.146  155.4  0.0225   71.0  0.9027  -24.5
 0.140  0.7308  -39.0  26.023  154.5  0.0232   70.4  0.8981  -25.3
 0.145  0.7272  -40.2  25.837  153.7  0.0239   69.9  0.8930  -26.1
 0.150  0.7240  -41.5  25.656  152.8  0.0247   69.5  0.8881  -26.9
 0.155  0.7198  -42.7  25.485  152.1  0.0253   68.9  0.8821  -27.6
 0.160  0.7159  -43.9  25.318  151.4  0.0259   68.3  0.8763  -28.3
 0.165  0.7124  -45.1  25.155  150.7  0.0266   67.7  0.8707  -29.1
 0.170  0.7091  -46.3  24.995  149.9  0.0272   67.2  0.8651  -29.8
 0.175  0.7062  -47.5  24.840  149.2  0.0278   66.7  0.8598  -30.6
 0.180  0.7036  -48.7  24.689  148.5  0.0285   66.2  0.8545  -31.3
 0.185  0.7013  -49.9  24.542  147.7  0.0291   65.7  0.8495  -32.1
 0.190  0.6993  -51.2  24.400  147.0  0.0297   65.2  0.8445  -32.9
 0.195  0.6977  -52.4  24.262  146.2  0.0304   64.8  0.8398  -33.7
 0.200  0.6964  -53.7  24.128  145.4  0.0310   64.4  0.8352  -34.5
 0.220  0.6812  -58.0  23.424  142.9  0.0331   62.6  0.8118  -37.1
 0.240  0.6700  -62.5  22.769  140.2  0.0353   61.0  0.7902  -39.8
 0.260  0.6588  -66.7  22.119  137.7  0.0373   59.5  0.7685  -42.3
 0.280  0.6466  -70.6  21.462  135.4  0.0390   58.1  0.7463  -44.6
 0.300  0.6375  -74.7  20.840  133.0  0.0408   56.8  0.7253  -47.1
 0.320  0.6255  -78.3  20.207  131.1  0.0423   55.6  0.7044  -49.1
 0.340  0.6160  -82.0  19.598  129.0  0.0438   54.5  0.6843  -51.1
 0.360  0.6065  -85.5  19.015  127.1  0.0451   53.5  0.6650  -53.0
 0.380  0.5965  -88.7  18.449  125.3  0.0464   52.5  0.6462  -54.8
 0.400  0.5884  -92.0  17.902  123.4  0.0476   51.6  0.6280  -56.7
 0.420  0.5796  -94.9  17.380  121.9  0.0487   50.9  0.6110  -58.2
 0.440  0.5723  -97.9  16.870  120.2  0.0498   50.1  0.5945  -59.9
 0.450  0.5692  -99.4  16.621  119.4  0.0504   49.8  0.5864  -60.7
 0.460  0.5651 -100.7  16.389  118.7  0.0509   49.5  0.5787  -61.4
 0.480  0.5578 -103.4  15.930  117.4  0.0518   49.0  0.5636  -62.7
 0.500  0.5518 -106.2  15.482  115.9  0.0528   48.5  0.5488  -64.2
 0.520  0.5446 -108.5  15.081  114.8  0.0536   48.1  0.5358  -65.3
 0.540  0.5384 -110.8  14.686  113.7  0.0544   47.7  0.5229  -66.5
 0.560  0.5330 -113.1  14.297  112.4  0.0553   47.3  0.5103  -67.7
 0.580  0.5285 -115.6  13.915  111.2  0.0561   46.9  0.4980  -69.0
 0.600  0.5250 -118.0  13.540  109.8  0.0569   46.5  0.4859  -70.4
 0.620  0.5200 -119.9  13.220  108.9  0.0576   46.2  0.4756  -71.3
 0.640  0.5157 -121.9  12.903  107.9  0.0583   46.0  0.4654  -72.3
 0.660  0.5119 -123.9  12.590  106.9  0.0591   45.8  0.4553  -73.3
 0.680  0.5088 -125.9  12.282  105.9  0.0598   45.5  0.4454  -74.4
 0.700  0.5063 -127.9  11.977  104.8  0.0605   45.3  0.4357  -75.5
 0.720  0.5029 -129.6  11.719  104.0  0.0611   45.2  0.4275  -76.3
 0.740  0.4999 -131.2  11.464  103.2  0.0618   45.0  0.4194  -77.2
 0.760  0.4973 -132.9  11.211  102.4  0.0624   44.9  0.4114  -78.0
 0.780  0.4952 -134.7  10.960  101.5  0.0631   44.7  0.4035  -79.0
 0.800  0.4935 -136.4  10.712  100.6  0.0637   44.6  0.3957  -79.9
 0.820  0.4910 -137.9  10.504   99.9  0.0643   44.6  0.3891  -80.6
 0.840  0.4889 -139.3  10.297   99.2  0.0650   44.5  0.3825  -81.3
 0.860  0.4871 -140.8  10.092   98.5  0.0656   44.5  0.3761  -82.1
 0.880  0.4856 -142.3   9.889   97.7  0.0663   44.4  0.3696  -82.9
 0.900  0.4844 -143.8   9.687   96.9  0.0669   44.4  0.3633  -83.7
 0.920  0.4824 -145.1   9.512   96.3  0.0675   44.4  0.3580  -84.3
 0.940  0.4807 -146.4   9.338   95.7  0.0681   44.4  0.3527  -85.0
 0.960  0.4792 -147.7   9.165   95.0  0.0688   44.3  0.3474  -85.7
 0.980  0.4779 -149.0   8.994   94.3  0.0694   44.3  0.3422  -86.4
 1.000  0.4769 -150.3   8.824   93.6  0.0700   44.3  0.3371  -87.1
 1.020  0.4755 -151.5   8.677   93.0  0.0706   44.3  0.3327  -87.7
 1.040  0.4744 -152.6   8.530   92.5  0.0713   44.3  0.3284  -88.3
 1.060  0.4734 -153.8   8.385   91.9  0.0719   44.3  0.3241  -89.0
 1.080  0.4727 -155.0   8.240   91.2  0.0726   44.3  0.3199  -89.6
 1.100  0.4721 -156.2   8.097   90.6  0.0732   44.3  0.3157  -90.3
 1.120  0.4713 -157.2   7.972   90.1  0.0738   44.3  0.3120  -90.9
 1.140  0.4706 -158.3   7.848   89.5  0.0744   44.3  0.3083  -91.4
 1.160  0.4700 -159.3   7.724   89.0  0.0751   44.4  0.3047  -92.0
 1.180  0.4696 -160.4   7.601   88.4  0.0757   44.4  0.3011  -92.6
 1.200  0.4694 -161.4   7.479   87.8  0.0763   44.4  0.2975  -93.2
 1.220  0.4690 -162.4   7.371   87.3  0.0769   44.4  0.2945  -93.7
 1.240  0.4688 -163.3   7.264   86.8  0.0776   44.4  0.2915  -94.2
 1.260  0.4687 -164.3   7.157   86.3  0.0782   44.5  0.2885  -94.8
 1.280  0.4687 -165.2   7.051   85.8  0.0789   44.5  0.2856  -95.3
 1.300  0.4689 -166.2   6.946   85.2  0.0795   44.5  0.2827  -95.9
 1.320  0.4684 -167.1   6.852   84.7  0.0801   44.5  0.2800  -96.4
 1.340  0.4680 -168.0   6.759   84.3  0.0808   44.5  0.2774  -96.9
 1.360  0.4677 -168.8   6.666   83.8  0.0814   44.6  0.2747  -97.4
 1.380  0.4676 -169.7   6.574   83.3  0.0821   44.6  0.2721  -98.0
 1.400  0.4675 -170.6   6.482   82.8  0.0827   44.6  0.2695  -98.5
 1.420  0.4673 -171.4   6.400   82.3  0.0834   44.6  0.2674  -99.0
 1.440  0.4673 -172.3   6.319   81.9  0.0840   44.6  0.2653  -99.4
 1.460  0.4673 -173.1   6.238   81.4  0.0847   44.6  0.2632  -99.9
 1.480  0.4675 -174.0   6.158   80.9  0.0853   44.6  0.2611 -100.4
 1.500  0.4677 -174.8   6.078   80.4  0.0860   44.6  0.2591 -100.9
 1.520  0.4678 -175.6   6.005   80.0  0.0866   44.6  0.2571 -101.4
 1.540  0.4679 -176.4   5.933   79.6  0.0873   44.6  0.2552 -101.8
 1.560  0.4682 -177.1   5.860   79.1  0.0879   44.7  0.2532 -102.3
 1.580  0.4685 -177.9   5.788   78.7  0.0886   44.7  0.2513 -102.8
 1.600  0.4689 -178.7   5.717   78.2  0.0892   44.7  0.2494 -103.3
 1.620  0.4688 -179.4   5.654   77.8  0.0899   44.7  0.2478 -103.7
 1.640  0.4688  179.9   5.591   77.4  0.0905   44.7  0.2462 -104.2
 1.660  0.4689  179.1   5.528   77.0  0.0912   44.6  0.2447 -104.7
 1.680  0.4691  178.4   5.465   76.5  0.0918   44.6  0.2431 -105.1
 1.700  0.4693  177.7   5.403   76.1  0.0925   44.6  0.2416 -105.6
 1.720  0.4695  177.0   5.345   75.7  0.0932   44.6  0.2402 -106.0
 1.740  0.4697  176.3   5.287   75.3  0.0939   44.6  0.2388 -106.5
 1.760  0.4700  175.6   5.229   74.9  0.0945   44.5  0.2374 -107.0
 1.780  0.4704  174.9   5.172   74.4  0.0952   44.5  0.2360 -107.4
 1.800  0.4708  174.2   5.115   74.0  0.0959   44.5  0.2347 -107.9
 1.820  0.4712  173.6   5.064   73.6  0.0966   44.5  0.2335 -108.4
 1.840  0.4717  172.9   5.013   73.2  0.0973   44.5  0.2322 -108.8
 1.860  0.4722  172.3   4.963   72.8  0.0979   44.5  0.2310 -109.3
 1.880  0.4728  171.6   4.913   72.4  0.0986   44.5  0.2298 -109.7
 1.900  0.4734  171.0   4.863   72.0  0.0993   44.5  0.2286 -110.2
 1.920  0.4738  170.4   4.816   71.6  0.1000   44.5  0.2275 -110.7
 1.940  0.4743  169.8   4.770   71.2  0.1007   44.4  0.2264 -111.1
 1.960  0.4748  169.1   4.724   70.8  0.1013   44.4  0.2254 -111.6
 1.980  0.4754  168.5   4.678   70.3  0.1020   44.3  0.2243 -112.0
 2.000  0.4760  167.9   4.632   69.9  0.1027   44.3  0.2233 -112.5
 2.020  0.4764  167.3   4.590   69.6  0.1034   44.3  0.2224 -113.0
 2.040  0.4769  166.7   4.549   69.2  0.1041   44.2  0.2215 -113.4
 2.060  0.4774  166.1   4.508   68.8  0.1048   44.2  0.2206 -113.9
 2.080  0.4779  165.4   4.466   68.5  0.1055   44.1  0.2197 -114.4
 2.100  0.4786  164.8   4.426   68.1  0.1061   44.1  0.2188 -114.9
 2.120  0.4792  164.2   4.385   67.7  0.1068   44.1  0.2179 -115.4
 2.140  0.4800  163.6   4.344   67.3  0.1075   44.0  0.2171 -115.9
 2.160  0.4808  163.0   4.304   66.9  0.1082   44.0  0.2163 -116.4
 2.180  0.4816  162.4   4.264   66.5  0.1089   43.9  0.2155 -116.9
 2.200  0.4825  161.8   4.224   66.1  0.1096   43.9  0.2147 -117.4
 2.220  0.4832  161.3   4.189   65.8  0.1103   43.8  0.2140 -117.9
 2.240  0.4838  160.7   4.155   65.4  0.1110   43.8  0.2133 -118.4
 2.260  0.4846  160.2   4.120   65.1  0.1116   43.7  0.2126 -118.9
 2.280  0.4854  159.7   4.086   64.7  0.1123   43.7  0.2120 -119.4
 2.300  0.4862  159.1   4.052   64.3  0.1130   43.6  0.2113 -119.9
 2.320  0.4870  158.6   4.018   64.0  0.1137   43.5  0.2107 -120.4
 2.340  0.4879  158.1   3.984   63.6  0.1144   43.5  0.2101 -120.9
 2.360  0.4889  157.5   3.951   63.2  0.1150   43.4  0.2095 -121.4
 2.380  0.4899  157.0   3.917   62.8  0.1157   43.4  0.2090 -121.9
 2.400  0.4909  156.5   3.884   62.4  0.1164   43.3  0.2084 -122.4
 2.420  0.4916  156.0   3.854   62.1  0.1171   43.2  0.2080 -122.9
 2.440  0.4924  155.4   3.824   61.7  0.1178   43.1  0.2075 -123.4
 2.460  0.4932  154.9   3.794   61.4  0.1184   43.1  0.2071 -124.0
 2.480  0.4940  154.4   3.765   61.0  0.1191   43.0  0.2067 -124.5
 2.500  0.4949  153.9   3.735   60.7  0.1198   42.9  0.2063 -125.0
 2.520  0.4958  153.4   3.706   60.3  0.1205   42.8  0.2060 -125.6
 2.540  0.4968  152.8   3.677   59.9  0.1212   42.7  0.2056 -126.1
 2.560  0.4978  152.3   3.648   59.6  0.1218   42.7  0.2053 -126.6
 2.580  0.4988  151.8   3.619   59.2  0.1225   42.6  0.2050 -127.2
 2.600  0.4999  151.3   3.590   58.8  0.1232   42.5  0.2047 -127.7
 2.620  0.5006  150.8   3.564   58.5  0.1239   42.4  0.2045 -128.2
 2.640  0.5014  150.3   3.538   58.1  0.1245   42.3  0.2044 -128.8
 2.660  0.5023  149.8   3.512   57.8  0.1252   42.2  0.2042 -129.3
 2.680  0.5031  149.4   3.487   57.5  0.1259   42.1  0.2041 -129.8
 2.700  0.5040  148.9   3.461   57.1  0.1265   42.0  0.2040 -130.3
 2.720  0.5049  148.4   3.436   56.8  0.1272   41.9  0.2039 -130.9
 2.740  0.5059  147.9   3.411   56.4  0.1279   41.9  0.2038 -131.4
 2.760  0.5069  147.4   3.386   56.0  0.1286   41.8  0.2038 -131.9
 2.780  0.5079  147.0   3.361   55.7  0.1292   41.7  0.2037 -132.5
 2.800  0.5090  146.5   3.336   55.3  0.1299   41.6  0.2037 -133.0
 2.820  0.5099  146.1   3.313   55.0  0.1305   41.5  0.2037 -133.5
 2.840  0.5109  145.6   3.291   54.7  0.1312   41.4  0.2037 -134.0
 2.860  0.5119  145.2   3.268   54.4  0.1318   41.3  0.2037 -134.5
 2.880  0.5129  144.8   3.246   54.0  0.1325   41.2  0.2038 -135.0
 2.900  0.5140  144.4   3.223   53.7  0.1331   41.1  0.2038 -135.6
 2.920  0.5151  144.0   3.201   53.4  0.1338   41.0  0.2039 -136.1
 2.940  0.5162  143.5   3.179   53.0  0.1344   41.0  0.2040 -136.6
 2.960  0.5173  143.1   3.157   52.7  0.1351   40.9  0.2041 -137.1
 2.980  0.5185  142.7   3.135   52.4  0.1357   40.8  0.2043 -137.6
 3.000  0.5197  142.3   3.113   52.0  0.1364   40.7  0.2044 -138.1
 3.100  0.5236  140.2   3.019   50.6  0.1396   40.1  0.2052 -140.5
 3.200  0.5282  138.1   2.926   49.1  0.1428   39.5  0.2065 -142.9
 3.300  0.5335  136.1   2.836   47.4  0.1460   39.0  0.2080 -145.3
 3.400  0.5394  134.1   2.748   45.7  0.1492   38.5  0.2099 -147.6
 3.500  0.5460  132.2   2.663   43.9  0.1524   38.0  0.2122 -149.9
 3.600  0.5514  130.4   2.591   42.6  0.1553   37.4  0.2141 -152.4
 3.700  0.5573  128.6   2.520   41.1  0.1582   36.8  0.2164 -154.8
 3.800  0.5637  126.9   2.451   39.7  0.1612   36.2  0.2191 -157.2
 3.900  0.5706  125.2   2.383   38.1  0.1641   35.6  0.2221 -159.5
 4.000  0.5780  123.6   2.318   36.4  0.1671   35.1  0.2255 -161.8
 4.100  0.5833  122.1   2.261   35.1  0.1698   34.5  0.2294 -164.1
 4.200  0.5890  120.7   2.204   33.8  0.1725   33.9  0.2336 -166.3
 4.300  0.5950  119.3   2.149   32.4  0.1752   33.4  0.2381 -168.4
 4.400  0.6014  117.9   2.095   30.9  0.1779   32.8  0.2430 -170.4
 4.500  0.6082  116.5   2.043   29.4  0.1807   32.3  0.2481 -172.4
 4.600  0.6124  115.2   1.998   28.2  0.1834   31.8  0.2521 -174.0
 4.700  0.6168  114.0   1.954   27.0  0.1861   31.3  0.2563 -175.5
 4.800  0.6215  112.8   1.910   25.7  0.1888   30.8  0.2607 -176.9
 4.900  0.6265  111.6   1.868   24.4  0.1916   30.4  0.2652 -178.3
 5.000  0.6318  110.4   1.827   23.0  0.1943   29.9  0.2699 -179.7
 5.100  0.6349  109.3   1.792   21.9  0.1973   29.3  0.2731  179.2
 5.200  0.6383  108.3   1.758   20.8  0.2003   28.7  0.2764  178.1
 5.300  0.6418  107.2   1.724   19.7  0.2033   28.2  0.2798  177.0
 5.400  0.6456  106.2   1.691   18.5  0.2063   27.6  0.2832  176.0
 5.500  0.6496  105.2   1.659   17.2  0.2094   27.1  0.2868  175.0
 5.600  0.6520  104.3   1.631   16.1  0.2122   26.4  0.2908  174.0
 5.700  0.6545  103.5   1.604   15.0  0.2151   25.7  0.2948  173.0
 5.800  0.6572  102.7   1.577   13.8  0.2180   25.1  0.2990  172.0
 5.900  0.6600  101.8   1.551   12.6  0.2209   24.4  0.3032  171.0
 6.000  0.6629  101.0   1.526   11.3  0.2238   23.8  0.3075  170.1
 6.100  0.6635  100.2   1.502   10.3  0.2263   23.2  0.3108  169.4
 6.200  0.6643   99.3   1.479    9.2  0.2289   22.6  0.3142  168.8
 6.300  0.6652   98.5   1.456    8.2  0.2315   22.0  0.3176  168.1
 6.400  0.6663   97.6   1.434    7.0  0.2341   21.4  0.3210  167.5
 6.500  0.6675   96.8   1.412    5.9  0.2367   20.8  0.3245  166.9
 6.600  0.6671   95.8   1.393    4.9  0.2396   20.2  0.3252  166.5
 6.800  0.6669   93.9   1.357    2.8  0.2454   19.0  0.3266  165.7
 7.000  0.6674   92.0   1.323    0.6  0.2513   17.9  0.3281  164.9
 7.200  0.6697   89.7   1.294   -1.6  0.2577   16.4  0.3288  163.4
 7.400  0.6730   87.4   1.268   -3.8  0.2643   15.1  0.3297  161.9
 7.600  0.6776   85.0   1.241   -6.2  0.2706   13.5  0.3319  160.0
 7.800  0.6836   82.4   1.215   -8.6  0.2768   11.8  0.3357  157.6
 8.000  0.6910   79.9   1.191  -11.2  0.2833   10.2  0.3401  155.2
 8.200  0.6968   77.1   1.159  -13.6  0.2879    8.2  0.3442  152.2
 8.400  0.7041   74.4   1.130  -16.1  0.2929    6.2  0.3492  149.2
 8.600  0.7138   71.9   1.100  -18.5  0.2963    4.3  0.3549  145.6
 8.800  0.7255   69.4   1.068  -20.8  0.2982    2.3  0.3620  141.2
 9.000  0.7384   67.1   1.039  -23.2  0.3004    0.4  0.3711  137.0
 9.200  0.7544   65.2   1.005  -25.1  0.3000   -1.2  0.3860  131.9
 9.400  0.7713   63.3   0.973  -27.2  0.2999   -2.7  0.4037  127.2
 9.600  0.7863   61.6   0.941  -29.0  0.2996   -4.0  0.4228  123.0
 9.800  0.7992   60.0   0.908  -30.6  0.2990   -4.9  0.4428  119.3
10.000  0.8128   58.5   0.877  -32.2  0.2985   -5.9  0.4645  116.0
!
!  f       NFmin   Gammaopt  rn/50
! GHz       dB    MAG  ANG    -
 0.450      0.95  0.14   16   0.15
 0.900      1.19  0.12   12   0.13
 1.900      1.15  0.07  152   0.12
 3.500      1.18  0.34 -137   0.11
!
! (c) 2016  Infineon Technologies AG, Munich
