! Infineon Technologies  Discrete & RF Semiconductors
! BFP460
! VCE =  4.0 V,  IC =  18 mA
! Common Emitter S-Parameters:                            Jan 2016
# GHz  S  MA  R  50
!  f         S11            S21            S12            S22
! GHz     MAG   ANG      MAG   ANG      MAG   ANG      MAG   ANG
 0.030  0.6424  -12.6  41.876  171.7  0.0051   80.7  0.9509   -8.1
 0.035  0.6407  -14.6  41.675  170.4  0.0058   80.5  0.9481   -9.4
 0.040  0.6397  -16.6  41.498  169.0  0.0066   80.3  0.9458  -10.7
 0.045  0.6366  -18.6  41.188  167.7  0.0073   78.9  0.9421  -11.9
 0.050  0.6342  -20.6  40.900  166.3  0.0081   77.8  0.9388  -13.1
 0.055  0.6326  -22.8  40.701  165.2  0.0089   77.7  0.9348  -14.4
 0.060  0.6320  -25.0  40.518  164.1  0.0097   77.6  0.9312  -15.7
 0.065  0.6292  -27.2  40.384  162.8  0.0104   76.3  0.9259  -17.0
 0.070  0.6273  -29.4  40.271  161.5  0.0111   75.2  0.9210  -18.3
 0.075  0.6269  -31.3  39.976  160.5  0.0118   75.0  0.9155  -19.5
 0.080  0.6271  -33.2  39.694  159.5  0.0126   74.9  0.9104  -20.8
 0.085  0.6251  -35.2  39.390  158.3  0.0133   73.9  0.9039  -22.0
 0.090  0.6239  -37.2  39.103  157.1  0.0140   73.0  0.8978  -23.3
 0.095  0.6204  -38.9  38.708  156.1  0.0147   72.5  0.8913  -24.4
 0.100  0.6175  -40.7  38.327  155.0  0.0154   72.1  0.8852  -25.6
 0.105  0.6161  -42.5  38.065  154.0  0.0160   71.0  0.8779  -26.7
 0.110  0.6154  -44.3  37.816  152.9  0.0167   70.0  0.8710  -27.9
 0.115  0.6114  -46.2  37.489  151.8  0.0173   69.4  0.8638  -29.0
 0.120  0.6081  -48.2  37.176  150.7  0.0179   68.9  0.8570  -30.2
 0.125  0.6041  -49.9  36.835  149.8  0.0185   68.3  0.8494  -31.2
 0.130  0.6006  -51.7  36.504  148.8  0.0191   67.8  0.8421  -32.3
 0.135  0.5972  -53.4  36.190  147.8  0.0197   67.2  0.8345  -33.4
 0.140  0.5944  -55.1  35.888  146.7  0.0203   66.7  0.8272  -34.5
 0.145  0.5912  -56.8  35.483  145.8  0.0208   66.1  0.8194  -35.5
 0.150  0.5885  -58.6  35.087  144.8  0.0214   65.6  0.8119  -36.5
 0.155  0.5842  -60.1  34.720  144.0  0.0219   65.0  0.8034  -37.3
 0.160  0.5802  -61.5  34.358  143.3  0.0223   64.5  0.7951  -38.2
 0.165  0.5767  -63.0  34.004  142.5  0.0228   64.0  0.7870  -39.0
 0.170  0.5735  -64.6  33.656  141.6  0.0233   63.4  0.7791  -39.9
 0.175  0.5708  -66.1  33.315  140.8  0.0237   63.0  0.7714  -40.8
 0.180  0.5684  -67.6  32.981  140.0  0.0242   62.5  0.7638  -41.7
 0.185  0.5665  -69.2  32.655  139.1  0.0247   62.0  0.7565  -42.7
 0.190  0.5650  -70.7  32.336  138.2  0.0251   61.6  0.7493  -43.6
 0.195  0.5639  -72.3  32.025  137.3  0.0256   61.2  0.7424  -44.6
 0.200  0.5633  -73.9  31.722  136.4  0.0261   60.8  0.7357  -45.6
 0.220  0.5500  -79.0  30.382  133.7  0.0275   59.3  0.7059  -48.5
 0.240  0.5412  -84.3  29.113  130.8  0.0290   58.0  0.6780  -51.6
 0.260  0.5335  -89.2  27.919  128.3  0.0303   56.9  0.6515  -54.4
 0.280  0.5256  -93.6  26.770  126.0  0.0316   55.8  0.6258  -56.9
 0.300  0.5210  -98.1  25.666  123.6  0.0328   54.9  0.6013  -59.7
 0.320  0.5130 -101.9  24.652  121.8  0.0338   54.2  0.5790  -61.7
 0.340  0.5072 -105.7  23.666  119.8  0.0349   53.5  0.5575  -63.9
 0.360  0.5018 -109.3  22.752  117.9  0.0358   53.0  0.5376  -66.0
 0.380  0.4963 -112.5  21.901  116.3  0.0367   52.6  0.5190  -67.8
 0.400  0.4924 -115.8  21.069  114.6  0.0376   52.2  0.5010  -69.8
 0.420  0.4878 -118.6  20.329  113.3  0.0385   51.9  0.4849  -71.4
 0.440  0.4844 -121.5  19.600  111.9  0.0394   51.6  0.4693  -73.0
 0.450  0.4832 -123.0  19.241  111.1  0.0398   51.5  0.4616  -73.9
 0.460  0.4812 -124.2  18.926  110.5  0.0402   51.4  0.4547  -74.6
 0.480  0.4779 -126.6  18.302  109.4  0.0409   51.3  0.4412  -76.0
 0.500  0.4754 -129.1  17.686  108.1  0.0417   51.1  0.4280  -77.5
 0.520  0.4721 -131.2  17.172  107.2  0.0424   51.1  0.4170  -78.6
 0.540  0.4694 -133.2  16.663  106.2  0.0432   51.1  0.4061  -79.8
 0.560  0.4674 -135.3  16.158  105.2  0.0439   51.1  0.3955  -81.0
 0.580  0.4660 -137.5  15.660  104.1  0.0447   51.1  0.3850  -82.3
 0.600  0.4652 -139.6  15.167  102.9  0.0454   51.1  0.3747  -83.7
 0.620  0.4632 -141.3  14.775  102.1  0.0461   51.1  0.3665  -84.7
 0.640  0.4616 -143.0  14.386  101.3  0.0469   51.2  0.3583  -85.7
 0.660  0.4604 -144.7  14.000  100.5  0.0476   51.2  0.3503  -86.8
 0.680  0.4596 -146.4  13.617   99.6  0.0484   51.3  0.3424  -87.9
 0.700  0.4592 -148.1  13.238   98.6  0.0491   51.3  0.3347  -89.1
 0.720  0.4579 -149.5  12.933   97.9  0.0498   51.4  0.3284  -89.9
 0.740  0.4569 -150.9  12.631   97.3  0.0506   51.5  0.3223  -90.8
 0.760  0.4562 -152.3  12.330   96.5  0.0513   51.6  0.3162  -91.7
 0.780  0.4558 -153.8  12.031   95.8  0.0521   51.7  0.3101  -92.6
 0.800  0.4556 -155.2  11.734   95.0  0.0528   51.8  0.3042  -93.6
 0.820  0.4549 -156.4  11.492   94.4  0.0535   51.9  0.2994  -94.4
 0.840  0.4545 -157.6  11.251   93.8  0.0543   52.0  0.2946  -95.2
 0.860  0.4542 -158.8  11.012   93.2  0.0550   52.0  0.2899  -96.0
 0.880  0.4542 -160.0  10.774   92.6  0.0558   52.1  0.2852  -96.8
 0.900  0.4543 -161.2  10.537   91.9  0.0565   52.2  0.2806  -97.7
 0.920  0.4538 -162.3  10.338   91.4  0.0573   52.3  0.2768  -98.4
 0.940  0.4534 -163.3  10.140   90.8  0.0580   52.4  0.2730  -99.1
 0.960  0.4532 -164.4   9.943   90.3  0.0588   52.4  0.2692  -99.9
 0.980  0.4531 -165.4   9.747   89.7  0.0595   52.5  0.2655 -100.6
 1.000  0.4532 -166.5   9.552   89.1  0.0603   52.6  0.2619 -101.4
 1.020  0.4529 -167.4   9.386   88.6  0.0611   52.7  0.2589 -102.0
 1.040  0.4527 -168.3   9.221   88.1  0.0618   52.8  0.2560 -102.7
 1.060  0.4527 -169.3   9.056   87.6  0.0626   52.8  0.2530 -103.4
 1.080  0.4527 -170.2   8.892   87.1  0.0633   52.9  0.2501 -104.1
 1.100  0.4529 -171.1   8.729   86.5  0.0641   53.0  0.2473 -104.8
 1.120  0.4528 -172.0   8.590   86.1  0.0649   53.0  0.2448 -105.4
 1.140  0.4529 -172.8   8.451   85.6  0.0657   53.1  0.2424 -106.0
 1.160  0.4530 -173.7   8.313   85.2  0.0664   53.1  0.2399 -106.7
 1.180  0.4533 -174.5   8.176   84.7  0.0672   53.2  0.2376 -107.3
 1.200  0.4536 -175.4   8.039   84.2  0.0680   53.2  0.2352 -108.0
 1.220  0.4538 -176.2   7.919   83.8  0.0688   53.2  0.2333 -108.6
 1.240  0.4540 -176.9   7.800   83.3  0.0696   53.3  0.2314 -109.1
 1.260  0.4544 -177.7   7.682   82.9  0.0704   53.3  0.2295 -109.7
 1.280  0.4548 -178.4   7.564   82.4  0.0712   53.4  0.2276 -110.3
 1.300  0.4553 -179.2   7.446   81.9  0.0720   53.4  0.2258 -110.9
 1.320  0.4553 -179.9   7.343   81.5  0.0728   53.4  0.2241 -111.5
 1.340  0.4553  179.4   7.241   81.1  0.0736   53.4  0.2223 -112.0
 1.360  0.4554  178.6   7.139   80.7  0.0743   53.5  0.2206 -112.6
 1.380  0.4556  177.9   7.037   80.2  0.0751   53.5  0.2190 -113.2
 1.400  0.4558  177.2   6.936   79.8  0.0759   53.5  0.2173 -113.8
 1.420  0.4562  176.5   6.846   79.4  0.0767   53.5  0.2160 -114.3
 1.440  0.4567  175.8   6.757   79.0  0.0775   53.5  0.2148 -114.8
 1.460  0.4573  175.1   6.669   78.6  0.0784   53.4  0.2136 -115.3
 1.480  0.4579  174.4   6.580   78.1  0.0792   53.4  0.2124 -115.9
 1.500  0.4586  173.7   6.492   77.7  0.0800   53.4  0.2112 -116.4
 1.520  0.4590  173.1   6.413   77.3  0.0808   53.4  0.2101 -116.9
 1.540  0.4594  172.5   6.334   76.9  0.0816   53.4  0.2089 -117.4
 1.560  0.4598  171.8   6.255   76.5  0.0824   53.3  0.2078 -117.9
 1.580  0.4603  171.2   6.177   76.1  0.0832   53.3  0.2068 -118.5
 1.600  0.4609  170.6   6.099   75.7  0.0840   53.3  0.2057 -119.0
 1.620  0.4613  170.0   6.030   75.3  0.0848   53.3  0.2048 -119.5
 1.640  0.4617  169.4   5.961   75.0  0.0856   53.2  0.2039 -119.9
 1.660  0.4622  168.8   5.892   74.6  0.0865   53.2  0.2030 -120.4
 1.680  0.4627  168.2   5.823   74.2  0.0873   53.1  0.2022 -120.9
 1.700  0.4633  167.6   5.755   73.8  0.0881   53.1  0.2013 -121.4
 1.720  0.4637  167.0   5.692   73.4  0.0889   53.0  0.2005 -121.9
 1.740  0.4640  166.5   5.630   73.1  0.0897   53.0  0.1998 -122.4
 1.760  0.4645  165.9   5.568   72.7  0.0905   52.9  0.1991 -122.9
 1.780  0.4650  165.4   5.506   72.3  0.0913   52.9  0.1984 -123.4
 1.800  0.4655  164.8   5.444   71.9  0.0921   52.8  0.1977 -123.9
 1.820  0.4660  164.2   5.389   71.6  0.0929   52.7  0.1971 -124.4
 1.840  0.4665  163.6   5.334   71.2  0.0937   52.7  0.1964 -124.9
 1.860  0.4670  163.1   5.279   70.8  0.0946   52.6  0.1958 -125.3
 1.880  0.4676  162.5   5.224   70.5  0.0954   52.6  0.1952 -125.8
 1.900  0.4683  161.9   5.170   70.1  0.0962   52.5  0.1946 -126.3
 1.920  0.4689  161.4   5.120   69.7  0.0970   52.4  0.1941 -126.8
 1.940  0.4696  160.9   5.069   69.4  0.0978   52.3  0.1936 -127.3
 1.960  0.4703  160.3   5.019   69.0  0.0986   52.3  0.1932 -127.7
 1.980  0.4710  159.8   4.970   68.6  0.0994   52.2  0.1927 -128.2
 2.000  0.4718  159.3   4.920   68.2  0.1002   52.1  0.1923 -128.7
 2.020  0.4724  158.8   4.875   67.9  0.1010   52.0  0.1919 -129.2
 2.040  0.4731  158.3   4.831   67.6  0.1018   51.9  0.1916 -129.7
 2.060  0.4737  157.8   4.786   67.2  0.1027   51.8  0.1912 -130.2
 2.080  0.4745  157.2   4.742   66.9  0.1035   51.7  0.1909 -130.7
 2.100  0.4752  156.7   4.698   66.5  0.1043   51.6  0.1906 -131.2
 2.120  0.4760  156.2   4.654   66.2  0.1051   51.5  0.1903 -131.7
 2.140  0.4769  155.7   4.611   65.8  0.1059   51.5  0.1900 -132.2
 2.160  0.4777  155.2   4.567   65.5  0.1068   51.4  0.1898 -132.7
 2.180  0.4787  154.7   4.524   65.1  0.1076   51.3  0.1895 -133.2
 2.200  0.4796  154.2   4.481   64.7  0.1084   51.2  0.1893 -133.7
 2.220  0.4803  153.7   4.444   64.4  0.1092   51.1  0.1891 -134.2
 2.240  0.4811  153.3   4.407   64.0  0.1100   51.0  0.1890 -134.7
 2.260  0.4819  152.8   4.370   63.7  0.1108   50.9  0.1888 -135.2
 2.280  0.4827  152.3   4.333   63.4  0.1116   50.7  0.1887 -135.7
 2.300  0.4836  151.9   4.296   63.0  0.1123   50.6  0.1886 -136.2
 2.320  0.4844  151.4   4.259   62.7  0.1131   50.5  0.1885 -136.8
 2.340  0.4854  151.0   4.223   62.3  0.1139   50.4  0.1884 -137.3
 2.360  0.4863  150.5   4.187   61.9  0.1147   50.3  0.1883 -137.8
 2.380  0.4873  150.1   4.151   61.6  0.1155   50.2  0.1882 -138.3
 2.400  0.4883  149.6   4.115   61.2  0.1163   50.1  0.1882 -138.8
 2.420  0.4892  149.1   4.083   60.9  0.1171   50.0  0.1883 -139.3
 2.440  0.4900  148.7   4.051   60.6  0.1179   49.8  0.1884 -139.8
 2.460  0.4909  148.2   4.019   60.3  0.1187   49.7  0.1885 -140.4
 2.480  0.4919  147.8   3.987   59.9  0.1195   49.6  0.1886 -140.9
 2.500  0.4929  147.3   3.955   59.6  0.1202   49.5  0.1887 -141.4
 2.520  0.4939  146.9   3.924   59.3  0.1210   49.4  0.1889 -141.9
 2.540  0.4949  146.4   3.892   58.9  0.1218   49.2  0.1890 -142.4
 2.560  0.4960  146.0   3.861   58.6  0.1226   49.1  0.1892 -143.0
 2.580  0.4971  145.5   3.830   58.3  0.1234   49.0  0.1894 -143.5
 2.600  0.4982  145.1   3.799   57.9  0.1242   48.9  0.1896 -144.0
 2.620  0.4990  144.7   3.771   57.6  0.1250   48.8  0.1899 -144.5
 2.640  0.4998  144.3   3.744   57.3  0.1257   48.6  0.1902 -145.0
 2.660  0.5006  143.9   3.716   57.0  0.1265   48.5  0.1905 -145.5
 2.680  0.5015  143.4   3.689   56.6  0.1273   48.4  0.1909 -146.0
 2.700  0.5023  143.0   3.661   56.3  0.1280   48.2  0.1912 -146.5
 2.720  0.5032  142.6   3.634   56.0  0.1288   48.1  0.1916 -147.0
 2.740  0.5042  142.2   3.607   55.6  0.1296   48.0  0.1920 -147.5
 2.760  0.5051  141.8   3.580   55.3  0.1304   47.8  0.1924 -148.0
 2.780  0.5061  141.4   3.554   55.0  0.1311   47.7  0.1928 -148.5
 2.800  0.5071  141.0   3.527   54.6  0.1319   47.6  0.1932 -149.0
 2.820  0.5080  140.6   3.503   54.3  0.1326   47.5  0.1936 -149.5
 2.840  0.5089  140.2   3.479   54.0  0.1334   47.3  0.1941 -150.0
 2.860  0.5099  139.8   3.455   53.7  0.1341   47.2  0.1945 -150.4
 2.880  0.5109  139.5   3.431   53.4  0.1349   47.0  0.1950 -150.9
 2.900  0.5119  139.1   3.407   53.1  0.1356   46.9  0.1955 -151.4
 2.920  0.5129  138.7   3.383   52.8  0.1364   46.7  0.1960 -151.8
 2.940  0.5139  138.3   3.359   52.5  0.1371   46.6  0.1965 -152.3
 2.960  0.5150  137.9   3.336   52.2  0.1379   46.5  0.1970 -152.8
 2.980  0.5161  137.6   3.312   51.8  0.1386   46.3  0.1976 -153.2
 3.000  0.5172  137.2   3.289   51.5  0.1394   46.2  0.1981 -153.7
 3.100  0.5215  135.3   3.189   50.2  0.1429   45.4  0.2008 -155.9
 3.200  0.5263  133.5   3.091   48.7  0.1465   44.7  0.2037 -158.1
 3.300  0.5317  131.7   2.995   47.2  0.1501   43.9  0.2069 -160.2
 3.400  0.5376  129.9   2.901   45.6  0.1537   43.3  0.2104 -162.2
 3.500  0.5440  128.2   2.810   43.9  0.1573   42.6  0.2142 -164.2
 3.600  0.5494  126.6   2.734   42.6  0.1605   41.8  0.2177 -166.4
 3.700  0.5553  125.0   2.658   41.3  0.1637   41.0  0.2215 -168.6
 3.800  0.5616  123.4   2.585   39.9  0.1670   40.2  0.2257 -170.7
 3.900  0.5683  121.9   2.513   38.4  0.1703   39.5  0.2301 -172.7
 4.000  0.5754  120.4   2.443   36.8  0.1736   38.8  0.2348 -174.6
 4.100  0.5810  119.1   2.383   35.6  0.1765   38.1  0.2399 -176.6
 4.200  0.5869  117.8   2.323   34.4  0.1794   37.3  0.2452 -178.5
 4.300  0.5931  116.5   2.265   33.0  0.1824   36.6  0.2508  179.6
 4.400  0.5995  115.2   2.208   31.7  0.1854   36.0  0.2567  177.9
 4.500  0.6063  114.0   2.153   30.2  0.1884   35.3  0.2628  176.2
 4.600  0.6104  112.8   2.106   29.1  0.1913   34.6  0.2672  174.8
 4.700  0.6147  111.6   2.059   27.9  0.1941   34.0  0.2718  173.5
 4.800  0.6193  110.5   2.013   26.7  0.1970   33.4  0.2765  172.2
 4.900  0.6242  109.3   1.969   25.4  0.2000   32.8  0.2813  171.0
 5.000  0.6293  108.2   1.925   24.1  0.2029   32.2  0.2863  169.8
 5.100  0.6323  107.2   1.888   23.1  0.2060   31.5  0.2894  168.8
 5.200  0.6356  106.2   1.853   22.0  0.2091   30.8  0.2926  167.8
 5.300  0.6390  105.2   1.817   20.9  0.2123   30.2  0.2958  166.9
 5.400  0.6426  104.3   1.783   19.7  0.2155   29.5  0.2992  165.9
 5.500  0.6464  103.3   1.749   18.5  0.2187   28.9  0.3026  165.0
 5.600  0.6487  102.5   1.720   17.5  0.2216   28.1  0.3063  164.1
 5.700  0.6511  101.7   1.691   16.4  0.2245   27.4  0.3101  163.2
 5.800  0.6536  100.9   1.663   15.3  0.2275   26.6  0.3140  162.4
 5.900  0.6563  100.1   1.636   14.1  0.2305   25.9  0.3179  161.5
 6.000  0.6591   99.3   1.609   12.9  0.2336   25.2  0.3219  160.7
 6.100  0.6597   98.5   1.584   11.9  0.2361   24.5  0.3246  160.1
 6.200  0.6605   97.7   1.560   10.8  0.2387   23.8  0.3274  159.6
 6.300  0.6613   96.8   1.537    9.8  0.2413   23.1  0.3302  159.1
 6.400  0.6623   96.0   1.513    8.6  0.2439   22.4  0.3330  158.5
 6.500  0.6635   95.2   1.491    7.5  0.2466   21.7  0.3359  158.0
 6.600  0.6630   94.3   1.472    6.5  0.2495   21.0  0.3359  157.6
 6.800  0.6625   92.4   1.434    4.5  0.2554   19.7  0.3358  156.9
 7.000  0.6627   90.5   1.399    2.4  0.2615   18.5  0.3358  156.1
 7.200  0.6648   88.3   1.369    0.3  0.2679   16.9  0.3357  154.7
 7.400  0.6678   86.1   1.341   -2.0  0.2745   15.4  0.3358  153.2
 7.600  0.6720   83.7   1.313   -4.3  0.2808   13.8  0.3375  151.3
 7.800  0.6776   81.2   1.286   -6.7  0.2869   11.9  0.3413  149.0
 8.000  0.6845   78.8   1.261   -9.3  0.2932   10.2  0.3455  146.8
 8.200  0.6902   76.1   1.228  -11.7  0.2975    8.1  0.3498  143.9
 8.400  0.6975   73.5   1.198  -14.2  0.3021    6.0  0.3551  141.0
 8.600  0.7070   71.0   1.167  -16.6  0.3051    4.0  0.3615  137.4
 8.800  0.7186   68.7   1.134  -18.9  0.3065    1.9  0.3698  133.3
 9.000  0.7314   66.4   1.103  -21.3  0.3083   -0.1  0.3801  129.3
 9.200  0.7480   64.5   1.067  -23.2  0.3074   -1.7  0.3964  124.5
 9.400  0.7653   62.7   1.033  -25.2  0.3068   -3.2  0.4152  120.1
 9.600  0.7807   61.0   0.999  -26.9  0.3061   -4.5  0.4348  116.3
 9.800  0.7938   59.5   0.964  -28.5  0.3050   -5.5  0.4548  113.0
10.000  0.8074   58.1   0.931  -30.1  0.3041   -6.5  0.4762  109.9
!
!  f       NFmin   Gammaopt  rn/50
! GHz       dB    MAG  ANG    -
 0.450      1.21  0.04  164   0.13
 0.900      1.13  0.18  150   0.14
 1.900      1.33  0.16 -152   0.12
 3.500      1.29  0.41 -126   0.14
!
! (c) 2016  Infineon Technologies AG, Munich
