! Infineon Technologies  Discrete & RF Semiconductors
! BFP460
! VCE =  2.0 V,  IC =  20 mA
! Common Emitter S-Parameters:                            Jan 2016
# GHz  S  MA  R  50
!  f         S11            S21            S12            S22
! GHz     MAG   ANG      MAG   ANG      MAG   ANG      MAG   ANG
 0.030  0.6044  -15.0  45.448  171.6  0.0054   85.3  0.9460   -9.2
 0.035  0.6012  -17.4  45.224  170.1  0.0061   83.3  0.9426  -10.8
 0.040  0.5990  -19.9  45.034  168.5  0.0069   81.7  0.9400  -12.4
 0.045  0.5977  -22.3  44.705  166.9  0.0077   80.9  0.9358  -13.9
 0.050  0.5975  -24.7  44.414  165.2  0.0086   80.3  0.9322  -15.5
 0.055  0.5955  -27.2  44.164  164.0  0.0095   78.9  0.9270  -17.0
 0.060  0.5946  -29.7  43.936  162.7  0.0104   77.8  0.9224  -18.6
 0.065  0.5912  -32.0  43.729  161.3  0.0111   77.3  0.9162  -20.1
 0.070  0.5888  -34.4  43.550  159.8  0.0118   76.8  0.9107  -21.6
 0.075  0.5888  -36.7  43.181  158.7  0.0125   75.8  0.9037  -23.0
 0.080  0.5897  -39.0  42.830  157.5  0.0132   74.9  0.8973  -24.5
 0.085  0.5858  -41.3  42.443  156.2  0.0139   73.8  0.8894  -25.9
 0.090  0.5828  -43.6  42.077  154.9  0.0146   72.9  0.8821  -27.4
 0.095  0.5809  -45.6  41.588  153.8  0.0153   72.0  0.8744  -28.7
 0.100  0.5797  -47.6  41.116  152.6  0.0161   71.1  0.8671  -30.1
 0.105  0.5791  -49.7  40.764  151.4  0.0167   70.3  0.8586  -31.4
 0.110  0.5794  -51.9  40.429  150.2  0.0173   69.5  0.8506  -32.8
 0.115  0.5745  -54.0  40.002  149.1  0.0179   68.8  0.8421  -34.1
 0.120  0.5704  -56.1  39.591  147.9  0.0186   68.1  0.8340  -35.4
 0.125  0.5674  -58.0  39.162  146.9  0.0191   67.3  0.8252  -36.6
 0.130  0.5650  -59.9  38.746  145.8  0.0197   66.6  0.8167  -37.9
 0.135  0.5620  -61.9  38.331  144.7  0.0202   66.1  0.8080  -39.1
 0.140  0.5596  -63.9  37.931  143.6  0.0207   65.7  0.7997  -40.3
 0.145  0.5578  -65.7  37.439  142.6  0.0212   65.0  0.7908  -41.4
 0.150  0.5565  -67.6  36.959  141.6  0.0218   64.3  0.7823  -42.6
 0.155  0.5523  -69.2  36.513  140.8  0.0222   63.7  0.7729  -43.5
 0.160  0.5485  -70.8  36.074  140.0  0.0227   63.2  0.7638  -44.5
 0.165  0.5452  -72.4  35.642  139.2  0.0231   62.7  0.7548  -45.4
 0.170  0.5423  -74.1  35.218  138.3  0.0236   62.2  0.7461  -46.4
 0.175  0.5398  -75.7  34.801  137.5  0.0240   61.7  0.7376  -47.5
 0.180  0.5379  -77.4  34.393  136.6  0.0245   61.2  0.7293  -48.5
 0.185  0.5363  -79.1  33.994  135.7  0.0249   60.8  0.7213  -49.6
 0.190  0.5353  -80.8  33.603  134.7  0.0254   60.3  0.7135  -50.7
 0.195  0.5347  -82.5  33.221  133.8  0.0258   59.9  0.7060  -51.8
 0.200  0.5346  -84.2  32.849  132.8  0.0263   59.5  0.6988  -52.9
 0.220  0.5243  -89.5  31.292  130.2  0.0276   58.1  0.6674  -56.0
 0.240  0.5186  -94.9  29.806  127.3  0.0290   56.8  0.6382  -59.5
 0.260  0.5135  -99.9  28.437  124.8  0.0303   55.7  0.6111  -62.6
 0.280  0.5077 -104.2  27.153  122.6  0.0314   54.9  0.5854  -65.4
 0.300  0.5049 -108.7  25.912  120.2  0.0326   54.1  0.5612  -68.4
 0.320  0.4994 -112.4  24.809  118.4  0.0336   53.6  0.5395  -70.7
 0.340  0.4960 -116.1  23.731  116.5  0.0345   53.1  0.5186  -73.1
 0.360  0.4928 -119.5  22.744  114.8  0.0354   52.7  0.4996  -75.4
 0.380  0.4892 -122.7  21.837  113.3  0.0363   52.4  0.4820  -77.5
 0.400  0.4871 -125.8  20.947  111.6  0.0372   52.1  0.4651  -79.8
 0.420  0.4845 -128.5  20.174  110.3  0.0380   52.0  0.4503  -81.6
 0.440  0.4830 -131.2  19.412  108.9  0.0388   51.9  0.4360  -83.4
 0.450  0.4827 -132.5  19.035  108.2  0.0392   51.8  0.4290  -84.4
 0.460  0.4812 -133.6  18.710  107.7  0.0396   51.8  0.4228  -85.2
 0.480  0.4789 -136.0  18.066  106.6  0.0405   51.8  0.4106  -86.8
 0.500  0.4773 -138.3  17.428  105.4  0.0413   51.8  0.3987  -88.5
 0.520  0.4753 -140.2  16.906  104.5  0.0421   51.9  0.3889  -89.8
 0.540  0.4739 -142.1  16.388  103.6  0.0429   51.9  0.3792  -91.2
 0.560  0.4730 -144.0  15.875  102.6  0.0436   52.0  0.3698  -92.6
 0.580  0.4726 -145.9  15.366  101.6  0.0444   52.0  0.3607  -94.1
 0.600  0.4727 -147.8  14.863  100.5  0.0452   52.1  0.3518  -95.7
 0.620  0.4715 -149.3  14.471   99.8  0.0460   52.2  0.3447  -96.9
 0.640  0.4706 -150.9  14.081   99.1  0.0467   52.3  0.3377  -98.1
 0.660  0.4701 -152.4  13.693   98.3  0.0475   52.4  0.3309  -99.3
 0.680  0.4699 -154.0  13.308   97.5  0.0482   52.5  0.3242 -100.6
 0.700  0.4701 -155.5  12.926   96.6  0.0490   52.6  0.3177 -102.0
 0.720  0.4696 -156.8  12.623   96.0  0.0498   52.7  0.3124 -103.0
 0.740  0.4694 -158.0  12.321   95.3  0.0506   52.9  0.3073 -104.1
 0.760  0.4694 -159.3  12.021   94.7  0.0514   53.0  0.3022 -105.1
 0.780  0.4696 -160.5  11.723   93.9  0.0522   53.1  0.2972 -106.2
 0.800  0.4700 -161.8  11.427   93.2  0.0530   53.2  0.2924 -107.4
 0.820  0.4696 -162.9  11.188   92.7  0.0538   53.3  0.2884 -108.3
 0.840  0.4694 -164.0  10.949   92.1  0.0546   53.5  0.2845 -109.2
 0.860  0.4693 -165.0  10.712   91.5  0.0554   53.6  0.2807 -110.1
 0.880  0.4694 -166.1  10.477   90.9  0.0562   53.7  0.2770 -111.1
 0.900  0.4697 -167.2  10.242   90.2  0.0570   53.8  0.2733 -112.1
 0.920  0.4695 -168.1  10.047   89.7  0.0578   53.9  0.2702 -112.9
 0.940  0.4695 -169.1   9.852   89.2  0.0586   54.0  0.2672 -113.8
 0.960  0.4696 -170.0   9.658   88.7  0.0595   54.0  0.2643 -114.6
 0.980  0.4698 -171.0   9.465   88.2  0.0603   54.1  0.2614 -115.5
 1.000  0.4701 -171.9   9.273   87.6  0.0611   54.2  0.2586 -116.4
 1.020  0.4700 -172.7   9.110   87.1  0.0619   54.3  0.2563 -117.2
 1.040  0.4700 -173.6   8.949   86.7  0.0628   54.3  0.2540 -117.9
 1.060  0.4702 -174.4   8.787   86.2  0.0636   54.4  0.2517 -118.7
 1.080  0.4704 -175.3   8.627   85.6  0.0645   54.4  0.2495 -119.5
 1.100  0.4707 -176.1   8.467   85.1  0.0653   54.5  0.2474 -120.3
 1.120  0.4708 -176.9   8.331   84.7  0.0661   54.5  0.2455 -121.0
 1.140  0.4709 -177.7   8.195   84.2  0.0670   54.6  0.2437 -121.7
 1.160  0.4712 -178.4   8.059   83.8  0.0678   54.6  0.2419 -122.4
 1.180  0.4715 -179.2   7.924   83.3  0.0687   54.7  0.2401 -123.2
 1.200  0.4719 -180.0   7.790   82.8  0.0695   54.7  0.2384 -123.9
 1.220  0.4722  179.3   7.674   82.4  0.0704   54.7  0.2370 -124.5
 1.240  0.4725  178.6   7.558   82.0  0.0712   54.7  0.2356 -125.2
 1.260  0.4730  178.0   7.442   81.6  0.0721   54.8  0.2342 -125.8
 1.280  0.4734  177.3   7.327   81.1  0.0729   54.8  0.2329 -126.4
 1.300  0.4740  176.6   7.212   80.7  0.0738   54.8  0.2316 -127.1
 1.320  0.4741  175.9   7.112   80.3  0.0747   54.8  0.2304 -127.7
 1.340  0.4743  175.2   7.012   79.9  0.0755   54.8  0.2292 -128.3
 1.360  0.4746  174.6   6.912   79.5  0.0764   54.8  0.2281 -128.9
 1.380  0.4749  173.9   6.813   79.0  0.0772   54.8  0.2270 -129.6
 1.400  0.4753  173.2   6.714   78.6  0.0781   54.8  0.2259 -130.2
 1.420  0.4757  172.6   6.627   78.2  0.0790   54.8  0.2250 -130.7
 1.440  0.4763  172.0   6.540   77.8  0.0798   54.7  0.2242 -131.3
 1.460  0.4768  171.3   6.454   77.4  0.0807   54.7  0.2233 -131.8
 1.480  0.4774  170.7   6.368   77.0  0.0815   54.6  0.2225 -132.4
 1.500  0.4781  170.1   6.282   76.6  0.0824   54.6  0.2217 -132.9
 1.520  0.4784  169.5   6.205   76.2  0.0833   54.6  0.2210 -133.5
 1.540  0.4788  168.9   6.128   75.9  0.0841   54.6  0.2202 -134.0
 1.560  0.4792  168.3   6.052   75.5  0.0850   54.5  0.2195 -134.6
 1.580  0.4797  167.7   5.976   75.1  0.0858   54.5  0.2189 -135.1
 1.600  0.4802  167.1   5.900   74.7  0.0867   54.5  0.2182 -135.7
 1.620  0.4806  166.6   5.833   74.3  0.0876   54.4  0.2176 -136.2
 1.640  0.4810  166.0   5.765   74.0  0.0885   54.4  0.2171 -136.7
 1.660  0.4815  165.5   5.698   73.6  0.0893   54.3  0.2166 -137.2
 1.680  0.4820  164.9   5.631   73.2  0.0902   54.3  0.2161 -137.7
 1.700  0.4825  164.4   5.565   72.8  0.0911   54.2  0.2156 -138.2
 1.720  0.4830  163.9   5.504   72.5  0.0920   54.1  0.2152 -138.7
 1.740  0.4835  163.3   5.444   72.1  0.0929   54.0  0.2148 -139.2
 1.760  0.4841  162.8   5.384   71.7  0.0937   54.0  0.2144 -139.7
 1.780  0.4847  162.2   5.324   71.4  0.0946   53.9  0.2140 -140.2
 1.800  0.4854  161.7   5.264   71.0  0.0955   53.8  0.2137 -140.7
 1.820  0.4859  161.2   5.210   70.7  0.0964   53.7  0.2134 -141.2
 1.840  0.4865  160.6   5.157   70.3  0.0972   53.6  0.2131 -141.6
 1.860  0.4871  160.1   5.104   69.9  0.0981   53.6  0.2128 -142.1
 1.880  0.4877  159.5   5.051   69.6  0.0989   53.5  0.2126 -142.5
 1.900  0.4884  159.0   4.998   69.2  0.0998   53.4  0.2123 -143.0
 1.920  0.4889  158.5   4.949   68.8  0.1007   53.3  0.2121 -143.5
 1.940  0.4895  158.0   4.900   68.5  0.1015   53.2  0.2119 -144.0
 1.960  0.4900  157.6   4.851   68.1  0.1024   53.1  0.2118 -144.4
 1.980  0.4907  157.1   4.802   67.7  0.1032   53.0  0.2116 -144.9
 2.000  0.4913  156.6   4.754   67.3  0.1041   52.9  0.2115 -145.4
 2.020  0.4919  156.1   4.711   67.0  0.1050   52.8  0.2114 -145.9
 2.040  0.4926  155.6   4.667   66.7  0.1058   52.7  0.2113 -146.3
 2.060  0.4933  155.1   4.624   66.3  0.1067   52.6  0.2113 -146.8
 2.080  0.4940  154.7   4.582   66.0  0.1075   52.4  0.2112 -147.3
 2.100  0.4948  154.2   4.539   65.6  0.1084   52.3  0.2112 -147.7
 2.120  0.4956  153.7   4.496   65.3  0.1093   52.2  0.2112 -148.2
 2.140  0.4965  153.2   4.454   64.9  0.1101   52.1  0.2112 -148.7
 2.160  0.4973  152.7   4.412   64.6  0.1110   52.0  0.2112 -149.2
 2.180  0.4983  152.3   4.370   64.2  0.1118   51.9  0.2113 -149.6
 2.200  0.4992  151.8   4.328   63.8  0.1127   51.8  0.2113 -150.1
 2.220  0.4999  151.3   4.292   63.5  0.1135   51.7  0.2114 -150.6
 2.240  0.5007  150.9   4.256   63.2  0.1144   51.5  0.2116 -151.0
 2.260  0.5015  150.4   4.220   62.8  0.1152   51.4  0.2117 -151.5
 2.280  0.5023  150.0   4.184   62.5  0.1161   51.3  0.2119 -152.0
 2.300  0.5032  149.5   4.149   62.2  0.1169   51.2  0.2121 -152.5
 2.320  0.5040  149.1   4.113   61.8  0.1177   51.1  0.2123 -152.9
 2.340  0.5050  148.6   4.078   61.5  0.1186   50.9  0.2125 -153.4
 2.360  0.5059  148.2   4.043   61.1  0.1194   50.8  0.2127 -153.9
 2.380  0.5069  147.7   4.008   60.8  0.1203   50.7  0.2129 -154.3
 2.400  0.5079  147.3   3.973   60.4  0.1211   50.6  0.2132 -154.8
 2.420  0.5088  146.9   3.942   60.1  0.1219   50.5  0.2135 -155.3
 2.440  0.5096  146.4   3.911   59.8  0.1228   50.3  0.2139 -155.7
 2.460  0.5105  146.0   3.880   59.5  0.1236   50.2  0.2143 -156.2
 2.480  0.5115  145.6   3.849   59.1  0.1244   50.0  0.2147 -156.7
 2.500  0.5125  145.2   3.818   58.8  0.1252   49.9  0.2151 -157.1
 2.520  0.5135  144.8   3.788   58.5  0.1261   49.7  0.2155 -157.6
 2.540  0.5145  144.3   3.757   58.1  0.1269   49.6  0.2159 -158.0
 2.560  0.5155  143.9   3.727   57.8  0.1277   49.5  0.2164 -158.5
 2.580  0.5166  143.5   3.697   57.5  0.1286   49.3  0.2168 -158.9
 2.600  0.5177  143.1   3.667   57.1  0.1294   49.2  0.2173 -159.4
 2.620  0.5185  142.7   3.640   56.8  0.1302   49.0  0.2178 -159.8
 2.640  0.5193  142.3   3.613   56.5  0.1310   48.9  0.2184 -160.3
 2.660  0.5201  141.9   3.587   56.2  0.1318   48.7  0.2189 -160.7
 2.680  0.5210  141.5   3.560   55.9  0.1326   48.6  0.2195 -161.1
 2.700  0.5218  141.1   3.534   55.6  0.1334   48.4  0.2201 -161.5
 2.720  0.5228  140.7   3.507   55.2  0.1342   48.3  0.2207 -161.9
 2.740  0.5237  140.4   3.481   54.9  0.1350   48.1  0.2213 -162.4
 2.760  0.5246  140.0   3.455   54.6  0.1358   48.0  0.2219 -162.8
 2.780  0.5256  139.6   3.429   54.2  0.1366   47.8  0.2226 -163.2
 2.800  0.5266  139.2   3.403   53.9  0.1374   47.7  0.2232 -163.6
 2.820  0.5275  138.8   3.380   53.6  0.1382   47.5  0.2238 -164.0
 2.840  0.5284  138.4   3.356   53.3  0.1390   47.4  0.2245 -164.4
 2.860  0.5294  138.1   3.333   53.0  0.1398   47.2  0.2251 -164.8
 2.880  0.5304  137.7   3.310   52.7  0.1405   47.1  0.2258 -165.2
 2.900  0.5314  137.3   3.287   52.4  0.1413   46.9  0.2265 -165.6
 2.920  0.5324  137.0   3.264   52.1  0.1421   46.8  0.2271 -166.0
 2.940  0.5334  136.6   3.241   51.8  0.1429   46.6  0.2278 -166.4
 2.960  0.5345  136.2   3.218   51.5  0.1437   46.5  0.2286 -166.8
 2.980  0.5356  135.9   3.196   51.1  0.1445   46.3  0.2293 -167.2
 3.000  0.5367  135.5   3.173   50.8  0.1453   46.2  0.2300 -167.6
 3.100  0.5408  133.7   3.076   49.5  0.1490   45.3  0.2334 -169.5
 3.200  0.5455  131.9   2.981   48.1  0.1526   44.5  0.2371 -171.2
 3.300  0.5506  130.1   2.888   46.6  0.1564   43.7  0.2410 -173.0
 3.400  0.5563  128.4   2.797   45.0  0.1601   42.9  0.2452 -174.7
 3.500  0.5625  126.7   2.708   43.3  0.1639   42.2  0.2495 -176.3
 3.600  0.5677  125.1   2.634   42.1  0.1672   41.3  0.2538 -178.2
 3.700  0.5733  123.6   2.562   40.7  0.1705   40.5  0.2583  180.0
 3.800  0.5793  122.0   2.490   39.3  0.1738   39.7  0.2630  178.2
 3.900  0.5858  120.6   2.421   37.9  0.1772   38.9  0.2681  176.5
 4.000  0.5926  119.1   2.353   36.3  0.1806   38.2  0.2733  174.9
 4.100  0.5980  117.8   2.294   35.1  0.1835   37.4  0.2788  173.2
 4.200  0.6037  116.5   2.237   33.9  0.1865   36.6  0.2845  171.6
 4.300  0.6097  115.2   2.180   32.6  0.1895   35.9  0.2905  170.0
 4.400  0.6159  114.0   2.125   31.2  0.1925   35.2  0.2966  168.5
 4.500  0.6225  112.8   2.071   29.8  0.1956   34.5  0.3030  167.1
 4.600  0.6264  111.6   2.025   28.7  0.1985   33.8  0.3074  165.9
 4.700  0.6305  110.5   1.980   27.6  0.2014   33.2  0.3120  164.8
 4.800  0.6349  109.3   1.936   26.4  0.2043   32.5  0.3167  163.6
 4.900  0.6395  108.2   1.893   25.1  0.2072   31.9  0.3215  162.6
 5.000  0.6444  107.1   1.851   23.8  0.2102   31.3  0.3264  161.5
 5.100  0.6471  106.1   1.816   22.8  0.2133   30.6  0.3292  160.6
 5.200  0.6500  105.2   1.782   21.7  0.2165   29.8  0.3322  159.7
 5.300  0.6532  104.2   1.748   20.6  0.2197   29.1  0.3352  158.8
 5.400  0.6564  103.2   1.715   19.5  0.2229   28.5  0.3382  157.9
 5.500  0.6599  102.3   1.683   18.3  0.2262   27.8  0.3414  157.1
 5.600  0.6621  101.5   1.655   17.3  0.2291   27.0  0.3448  156.3
 5.700  0.6644  100.6   1.628   16.2  0.2320   26.2  0.3482  155.5
 5.800  0.6668   99.8   1.602   15.1  0.2350   25.5  0.3517  154.7
 5.900  0.6694   99.0   1.576   14.0  0.2380   24.7  0.3553  153.9
 6.000  0.6721   98.2   1.551   12.8  0.2410   24.0  0.3589  153.1
 6.100  0.6723   97.4   1.527   11.8  0.2435   23.2  0.3611  152.6
 6.200  0.6727   96.6   1.504   10.8  0.2461   22.5  0.3634  152.0
 6.300  0.6732   95.9   1.481    9.8  0.2487   21.8  0.3657  151.5
 6.400  0.6738   95.1   1.459    8.7  0.2514   21.1  0.3680  151.0
 6.500  0.6745   94.3   1.437    7.6  0.2541   20.4  0.3703  150.5
 6.600  0.6740   93.4   1.419    6.6  0.2570   19.7  0.3697  150.1
 6.800  0.6735   91.5   1.384    4.7  0.2631   18.4  0.3686  149.3
 7.000  0.6737   89.6   1.351    2.6  0.2692   17.1  0.3675  148.5
 7.200  0.6755   87.4   1.323    0.5  0.2756   15.4  0.3669  147.0
 7.400  0.6782   85.2   1.297   -1.7  0.2823   13.9  0.3665  145.5
 7.600  0.6822   82.8   1.271   -4.0  0.2886   12.1  0.3680  143.6
 7.800  0.6874   80.3   1.245   -6.4  0.2945   10.3  0.3718  141.3
 8.000  0.6940   77.9   1.221   -9.0  0.3008    8.5  0.3761  139.1
 8.200  0.6996   75.3   1.190  -11.4  0.3048    6.3  0.3806  136.3
 8.400  0.7066   72.7   1.161  -13.9  0.3092    4.2  0.3859  133.5
 8.600  0.7157   70.2   1.130  -16.3  0.3118    2.2  0.3927  130.2
 8.800  0.7269   67.9   1.098  -18.6  0.3128    0.1  0.4017  126.2
 9.000  0.7392   65.6   1.068  -21.0  0.3141   -2.0  0.4125  122.5
 9.200  0.7553   63.7   1.033  -22.8  0.3128   -3.6  0.4293  118.2
 9.400  0.7721   62.0   0.999  -24.8  0.3117   -5.1  0.4484  114.2
 9.600  0.7867   60.3   0.966  -26.5  0.3105   -6.4  0.4679  110.7
 9.800  0.7990   58.8   0.934  -27.9  0.3090   -7.3  0.4872  107.6
10.000  0.8119   57.3   0.902  -29.5  0.3076   -8.3  0.5079  104.8
!
!  f       NFmin   Gammaopt  rn/50
! GHz       dB    MAG  ANG    -
 0.450      1.24  0.07 -176   0.13
 0.900      1.26  0.04  175   0.15
 1.900      1.38  0.18 -150   0.12
 3.500      1.34  0.41 -125   0.15
!
! (c) 2016  Infineon Technologies AG, Munich
