! Infineon Technologies  Discrete & RF Semiconductors
! BFP460
! VCE =  3.0 V,  IC =  35 mA
! Common Emitter S-Parameters:                            Jan 2016
# GHz  S  MA  R  50
!  f         S11            S21            S12            S22
! GHz     MAG   ANG      MAG   ANG      MAG   ANG      MAG   ANG
 0.030  0.4588  -20.8  58.999  169.2  0.0045   84.5  0.9260  -10.9
 0.035  0.4578  -24.1  58.558  167.4  0.0052   82.8  0.9217  -12.8
 0.040  0.4583  -27.5  58.178  165.5  0.0060   81.5  0.9184  -14.7
 0.045  0.4542  -30.8  57.547  163.7  0.0066   80.2  0.9117  -16.4
 0.050  0.4517  -34.1  56.973  161.9  0.0073   79.2  0.9059  -18.2
 0.055  0.4532  -37.2  56.470  160.5  0.0079   77.6  0.8984  -20.0
 0.060  0.4561  -40.3  56.004  159.0  0.0086   76.2  0.8919  -21.9
 0.065  0.4561  -43.7  55.531  157.3  0.0092   75.8  0.8835  -23.6
 0.070  0.4576  -47.0  55.107  155.6  0.0099   75.5  0.8759  -25.4
 0.075  0.4586  -49.8  54.457  154.3  0.0105   74.4  0.8662  -27.1
 0.080  0.4606  -52.5  53.838  152.9  0.0111   73.5  0.8572  -28.8
 0.085  0.4591  -55.4  53.129  151.4  0.0116   72.1  0.8465  -30.4
 0.090  0.4588  -58.4  52.457  149.9  0.0122   70.9  0.8364  -32.0
 0.095  0.4569  -60.8  51.668  148.6  0.0127   70.3  0.8262  -33.5
 0.100  0.4559  -63.2  50.906  147.3  0.0133   69.7  0.8166  -35.1
 0.105  0.4573  -65.9  50.271  146.0  0.0137   68.8  0.8056  -36.5
 0.110  0.4598  -68.6  49.661  144.7  0.0142   67.9  0.7952  -38.0
 0.115  0.4575  -70.9  48.937  143.4  0.0146   67.4  0.7844  -39.4
 0.120  0.4560  -73.3  48.239  142.1  0.0151   67.0  0.7742  -40.9
 0.125  0.4549  -75.6  47.538  141.0  0.0156   66.2  0.7632  -42.2
 0.130  0.4546  -78.0  46.854  139.9  0.0161   65.4  0.7525  -43.5
 0.135  0.4536  -80.2  46.189  138.8  0.0164   64.9  0.7419  -44.8
 0.140  0.4534  -82.5  45.543  137.6  0.0168   64.5  0.7316  -46.1
 0.145  0.4525  -84.5  44.790  136.5  0.0172   64.0  0.7210  -47.3
 0.150  0.4521  -86.6  44.054  135.4  0.0176   63.5  0.7108  -48.5
 0.155  0.4501  -88.3  43.402  134.6  0.0179   63.1  0.7004  -49.4
 0.160  0.4485  -90.1  42.759  133.9  0.0183   62.7  0.6903  -50.3
 0.165  0.4473  -91.8  42.123  133.1  0.0186   62.3  0.6803  -51.3
 0.170  0.4465  -93.6  41.496  132.2  0.0189   61.9  0.6705  -52.3
 0.175  0.4461  -95.3  40.878  131.4  0.0192   61.5  0.6609  -53.3
 0.180  0.4462  -97.1  40.269  130.5  0.0196   61.1  0.6515  -54.4
 0.185  0.4467  -98.9  39.670  129.6  0.0199   60.8  0.6424  -55.5
 0.190  0.4476 -100.6  39.081  128.7  0.0202   60.4  0.6335  -56.6
 0.195  0.4490 -102.4  38.503  127.7  0.0206   60.1  0.6248  -57.7
 0.200  0.4507 -104.1  37.936  126.7  0.0209   59.8  0.6164  -58.9
 0.220  0.4474 -109.3  35.837  124.2  0.0219   58.9  0.5840  -61.9
 0.240  0.4479 -114.6  33.813  121.4  0.0230   58.2  0.5534  -65.3
 0.260  0.4485 -119.2  31.996  118.9  0.0240   57.6  0.5260  -68.3
 0.280  0.4481 -123.1  30.349  116.9  0.0249   57.3  0.5009  -70.9
 0.300  0.4499 -127.1  28.746  114.6  0.0258   57.0  0.4769  -73.8
 0.320  0.4489 -130.4  27.400  113.0  0.0267   57.0  0.4567  -75.9
 0.340  0.4493 -133.7  26.076  111.3  0.0276   56.9  0.4371  -78.2
 0.360  0.4494 -136.6  24.880  109.8  0.0284   56.9  0.4195  -80.3
 0.380  0.4487 -139.3  23.805  108.4  0.0292   57.0  0.4037  -82.2
 0.400  0.4490 -142.0  22.745  106.9  0.0300   57.1  0.3884  -84.3
 0.420  0.4488 -144.2  21.853  105.8  0.0308   57.3  0.3754  -85.9
 0.440  0.4493 -146.5  20.969  104.6  0.0317   57.4  0.3626  -87.7
 0.450  0.4498 -147.6  20.531  104.0  0.0321   57.5  0.3564  -88.6
 0.460  0.4496 -148.5  20.162  103.5  0.0325   57.6  0.3511  -89.3
 0.480  0.4496 -150.4  19.428  102.6  0.0333   57.7  0.3406  -90.8
 0.500  0.4500 -152.2  18.701  101.5  0.0341   57.9  0.3303  -92.3
 0.520  0.4497 -153.8  18.119  100.7  0.0349   58.1  0.3221  -93.5
 0.540  0.4498 -155.3  17.541   99.9  0.0358   58.4  0.3140  -94.7
 0.560  0.4501 -156.9  16.967   99.0  0.0366   58.6  0.3060  -96.1
 0.580  0.4509 -158.4  16.397   98.1  0.0375   58.8  0.2983  -97.4
 0.600  0.4519 -160.0  15.832   97.1  0.0383   59.0  0.2907  -98.9
 0.620  0.4518 -161.2  15.403   96.5  0.0391   59.2  0.2848 -100.0
 0.640  0.4518 -162.4  14.976   95.8  0.0400   59.3  0.2791 -101.1
 0.660  0.4521 -163.7  14.551   95.1  0.0408   59.4  0.2734 -102.2
 0.680  0.4526 -164.9  14.128   94.4  0.0417   59.6  0.2679 -103.4
 0.700  0.4533 -166.1  13.708   93.6  0.0425   59.7  0.2625 -104.7
 0.720  0.4534 -167.1  13.380   93.1  0.0434   59.8  0.2583 -105.6
 0.740  0.4537 -168.2  13.053   92.5  0.0442   60.0  0.2541 -106.6
 0.760  0.4541 -169.2  12.727   91.9  0.0451   60.1  0.2500 -107.5
 0.780  0.4547 -170.3  12.403   91.3  0.0459   60.2  0.2459 -108.6
 0.800  0.4554 -171.3  12.080   90.6  0.0468   60.3  0.2420 -109.6
 0.820  0.4556 -172.2  11.823   90.1  0.0477   60.4  0.2389 -110.4
 0.840  0.4560 -173.0  11.567   89.6  0.0486   60.6  0.2358 -111.3
 0.860  0.4564 -173.9  11.312   89.1  0.0494   60.7  0.2327 -112.2
 0.880  0.4570 -174.7  11.057   88.6  0.0503   60.8  0.2297 -113.1
 0.900  0.4576 -175.6  10.804   88.0  0.0512   60.9  0.2268 -114.0
 0.920  0.4577 -176.4  10.595   87.5  0.0521   60.9  0.2244 -114.7
 0.940  0.4579 -177.2  10.387   87.1  0.0530   61.0  0.2221 -115.5
 0.960  0.4582 -178.0  10.179   86.6  0.0539   61.0  0.2198 -116.3
 0.980  0.4585 -178.8   9.973   86.0  0.0548   61.1  0.2175 -117.1
 1.000  0.4590 -179.6   9.767   85.5  0.0557   61.1  0.2153 -117.9
 1.020  0.4592  179.7   9.594   85.1  0.0566   61.1  0.2135 -118.6
 1.040  0.4595  179.0   9.421   84.7  0.0575   61.1  0.2118 -119.3
 1.060  0.4599  178.3   9.249   84.2  0.0583   61.2  0.2101 -120.0
 1.080  0.4603  177.6   9.077   83.8  0.0592   61.2  0.2084 -120.7
 1.100  0.4608  176.9   8.906   83.3  0.0601   61.2  0.2068 -121.4
 1.120  0.4612  176.2   8.761   82.9  0.0610   61.2  0.2054 -122.1
 1.140  0.4617  175.6   8.617   82.5  0.0619   61.2  0.2040 -122.7
 1.160  0.4622  174.9   8.473   82.1  0.0628   61.2  0.2026 -123.4
 1.180  0.4628  174.3   8.329   81.6  0.0637   61.2  0.2013 -124.1
 1.200  0.4635  173.6   8.186   81.2  0.0646   61.2  0.2000 -124.8
 1.220  0.4638  173.0   8.063   80.8  0.0655   61.2  0.1990 -125.4
 1.240  0.4642  172.4   7.940   80.4  0.0664   61.1  0.1980 -125.9
 1.260  0.4647  171.7   7.817   80.0  0.0674   61.1  0.1970 -126.5
 1.280  0.4652  171.1   7.695   79.6  0.0683   61.0  0.1960 -127.1
 1.300  0.4657  170.5   7.573   79.2  0.0692   61.0  0.1951 -127.7
 1.320  0.4660  170.0   7.467   78.8  0.0701   61.0  0.1942 -128.3
 1.340  0.4663  169.4   7.362   78.4  0.0710   60.9  0.1934 -128.8
 1.360  0.4666  168.9   7.256   78.0  0.0719   60.9  0.1925 -129.4
 1.380  0.4670  168.3   7.151   77.6  0.0728   60.8  0.1917 -129.9
 1.400  0.4674  167.8   7.047   77.2  0.0737   60.8  0.1909 -130.5
 1.420  0.4679  167.2   6.955   76.8  0.0746   60.7  0.1903 -131.0
 1.440  0.4684  166.6   6.863   76.5  0.0755   60.6  0.1898 -131.5
 1.460  0.4690  166.1   6.771   76.1  0.0764   60.6  0.1892 -132.0
 1.480  0.4696  165.5   6.679   75.7  0.0773   60.5  0.1887 -132.5
 1.500  0.4703  164.9   6.588   75.3  0.0782   60.4  0.1882 -133.0
 1.520  0.4707  164.4   6.507   75.0  0.0791   60.3  0.1877 -133.5
 1.540  0.4712  163.9   6.426   74.6  0.0800   60.2  0.1872 -134.0
 1.560  0.4717  163.3   6.345   74.3  0.0809   60.2  0.1868 -134.6
 1.580  0.4722  162.8   6.264   74.0  0.0818   60.1  0.1863 -135.1
 1.600  0.4728  162.3   6.184   73.6  0.0827   60.0  0.1859 -135.6
 1.620  0.4733  161.8   6.113   73.3  0.0836   59.9  0.1856 -136.0
 1.640  0.4739  161.3   6.043   72.9  0.0845   59.8  0.1852 -136.5
 1.660  0.4744  160.9   5.973   72.5  0.0855   59.7  0.1849 -136.9
 1.680  0.4751  160.4   5.903   72.2  0.0864   59.6  0.1846 -137.4
 1.700  0.4757  159.9   5.833   71.8  0.0873   59.5  0.1843 -137.8
 1.720  0.4763  159.4   5.769   71.5  0.0882   59.4  0.1841 -138.3
 1.740  0.4769  158.9   5.705   71.1  0.0891   59.3  0.1839 -138.7
 1.760  0.4775  158.5   5.641   70.7  0.0900   59.1  0.1837 -139.2
 1.780  0.4782  158.0   5.577   70.4  0.0909   59.0  0.1836 -139.6
 1.800  0.4789  157.5   5.514   70.0  0.0918   58.9  0.1834 -140.1
 1.820  0.4794  157.0   5.458   69.7  0.0927   58.8  0.1832 -140.5
 1.840  0.4800  156.5   5.402   69.3  0.0936   58.7  0.1831 -141.0
 1.860  0.4806  156.1   5.346   69.0  0.0944   58.5  0.1829 -141.4
 1.880  0.4812  155.6   5.290   68.7  0.0953   58.4  0.1828 -141.9
 1.900  0.4819  155.1   5.235   68.3  0.0962   58.3  0.1827 -142.3
 1.920  0.4825  154.6   5.183   68.0  0.0971   58.2  0.1827 -142.8
 1.940  0.4830  154.2   5.132   67.6  0.0980   58.1  0.1827 -143.2
 1.960  0.4837  153.7   5.080   67.3  0.0989   57.9  0.1827 -143.7
 1.980  0.4843  153.3   5.029   67.0  0.0998   57.8  0.1827 -144.1
 2.000  0.4850  152.8   4.978   66.6  0.1007   57.7  0.1827 -144.6
 2.020  0.4857  152.4   4.932   66.3  0.1016   57.5  0.1828 -145.1
 2.040  0.4865  151.9   4.887   66.0  0.1025   57.4  0.1828 -145.5
 2.060  0.4872  151.5   4.842   65.6  0.1033   57.2  0.1829 -146.0
 2.080  0.4880  151.1   4.797   65.3  0.1042   57.1  0.1830 -146.4
 2.100  0.4889  150.7   4.752   65.0  0.1051   56.9  0.1832 -146.9
 2.120  0.4897  150.3   4.707   64.6  0.1060   56.8  0.1833 -147.3
 2.140  0.4906  149.8   4.663   64.3  0.1069   56.6  0.1834 -147.8
 2.160  0.4915  149.4   4.618   63.9  0.1077   56.5  0.1836 -148.2
 2.180  0.4924  149.0   4.574   63.6  0.1086   56.3  0.1837 -148.7
 2.200  0.4934  148.6   4.530   63.2  0.1095   56.2  0.1839 -149.1
 2.220  0.4941  148.2   4.492   62.9  0.1104   56.1  0.1841 -149.6
 2.240  0.4948  147.7   4.454   62.6  0.1112   55.9  0.1844 -150.0
 2.260  0.4955  147.3   4.416   62.3  0.1121   55.8  0.1846 -150.5
 2.280  0.4962  146.9   4.379   61.9  0.1130   55.6  0.1849 -150.9
 2.300  0.4970  146.5   4.341   61.6  0.1138   55.5  0.1852 -151.4
 2.320  0.4978  146.1   4.304   61.3  0.1147   55.3  0.1855 -151.8
 2.340  0.4987  145.6   4.267   61.0  0.1156   55.2  0.1858 -152.3
 2.360  0.4995  145.2   4.230   60.6  0.1165   55.1  0.1861 -152.7
 2.380  0.5004  144.8   4.193   60.3  0.1173   54.9  0.1865 -153.2
 2.400  0.5013  144.4   4.156   59.9  0.1182   54.8  0.1868 -153.6
 2.420  0.5022  144.0   4.123   59.6  0.1190   54.6  0.1873 -154.1
 2.440  0.5031  143.6   4.091   59.3  0.1199   54.4  0.1877 -154.5
 2.460  0.5041  143.2   4.058   59.0  0.1207   54.3  0.1882 -155.0
 2.480  0.5050  142.8   4.026   58.7  0.1216   54.1  0.1887 -155.4
 2.500  0.5060  142.4   3.994   58.4  0.1224   53.9  0.1892 -155.9
 2.520  0.5070  142.0   3.962   58.1  0.1233   53.8  0.1897 -156.3
 2.540  0.5081  141.7   3.930   57.8  0.1241   53.6  0.1902 -156.8
 2.560  0.5091  141.3   3.898   57.5  0.1250   53.4  0.1908 -157.2
 2.580  0.5102  140.9   3.867   57.1  0.1258   53.3  0.1913 -157.7
 2.600  0.5113  140.5   3.835   56.8  0.1267   53.1  0.1919 -158.1
 2.620  0.5121  140.1   3.807   56.5  0.1275   52.9  0.1925 -158.5
 2.640  0.5129  139.7   3.779   56.2  0.1283   52.8  0.1932 -159.0
 2.660  0.5137  139.4   3.751   55.9  0.1291   52.6  0.1938 -159.4
 2.680  0.5146  139.0   3.723   55.6  0.1300   52.4  0.1945 -159.8
 2.700  0.5155  138.6   3.696   55.3  0.1308   52.3  0.1951 -160.2
 2.720  0.5164  138.3   3.668   55.0  0.1316   52.1  0.1958 -160.7
 2.740  0.5173  137.9   3.641   54.7  0.1324   52.0  0.1965 -161.1
 2.760  0.5182  137.5   3.613   54.4  0.1333   51.8  0.1972 -161.5
 2.780  0.5192  137.2   3.586   54.0  0.1341   51.7  0.1979 -161.9
 2.800  0.5202  136.8   3.559   53.7  0.1349   51.5  0.1986 -162.3
 2.820  0.5211  136.5   3.534   53.4  0.1357   51.3  0.1993 -162.7
 2.840  0.5220  136.1   3.510   53.1  0.1365   51.1  0.2000 -163.1
 2.860  0.5229  135.8   3.485   52.8  0.1373   51.0  0.2008 -163.5
 2.880  0.5238  135.4   3.461   52.6  0.1381   50.8  0.2015 -163.9
 2.900  0.5248  135.1   3.437   52.3  0.1389   50.6  0.2023 -164.3
 2.920  0.5257  134.7   3.413   52.0  0.1397   50.5  0.2030 -164.7
 2.940  0.5267  134.4   3.389   51.6  0.1405   50.3  0.2038 -165.1
 2.960  0.5277  134.1   3.365   51.3  0.1413   50.1  0.2046 -165.4
 2.980  0.5288  133.7   3.341   51.0  0.1421   50.0  0.2054 -165.8
 3.000  0.5298  133.4   3.317   50.7  0.1429   49.8  0.2062 -166.2
 3.100  0.5341  131.7   3.216   49.4  0.1466   48.8  0.2100 -168.1
 3.200  0.5388  130.0   3.116   48.1  0.1504   47.9  0.2141 -169.9
 3.300  0.5440  128.4   3.019   46.6  0.1542   47.0  0.2183 -171.6
 3.400  0.5496  126.8   2.923   45.1  0.1580   46.2  0.2228 -173.3
 3.500  0.5557  125.2   2.830   43.4  0.1619   45.4  0.2274 -174.9
 3.600  0.5611  123.7   2.753   42.2  0.1652   44.5  0.2319 -176.8
 3.700  0.5669  122.2   2.677   40.9  0.1686   43.6  0.2367 -178.7
 3.800  0.5730  120.7   2.603   39.5  0.1720   42.7  0.2418  179.5
 3.900  0.5795  119.3   2.531   38.0  0.1754   41.9  0.2470  177.8
 4.000  0.5864  117.9   2.460   36.5  0.1789   41.1  0.2525  176.2
 4.100  0.5919  116.7   2.399   35.3  0.1819   40.2  0.2583  174.5
 4.200  0.5977  115.5   2.339   34.1  0.1850   39.4  0.2643  172.9
 4.300  0.6038  114.3   2.280   32.9  0.1880   38.6  0.2706  171.3
 4.400  0.6101  113.1   2.222   31.5  0.1911   37.8  0.2770  169.8
 4.500  0.6166  112.0   2.165   30.1  0.1943   37.1  0.2836  168.4
 4.600  0.6205  110.8   2.118   29.0  0.1972   36.4  0.2883  167.2
 4.700  0.6247  109.7   2.071   27.9  0.2002   35.6  0.2930  166.0
 4.800  0.6291  108.6   2.025   26.7  0.2032   34.9  0.2980  164.9
 4.900  0.6338  107.5   1.980   25.5  0.2062   34.3  0.3030  163.8
 5.000  0.6387  106.4   1.936   24.2  0.2093   33.6  0.3081  162.7
 5.100  0.6416  105.4   1.900   23.2  0.2125   32.8  0.3112  161.8
 5.200  0.6447  104.5   1.864   22.2  0.2157   32.1  0.3143  160.9
 5.300  0.6480  103.6   1.828   21.1  0.2190   31.4  0.3175  160.0
 5.400  0.6515  102.6   1.794   20.0  0.2223   30.7  0.3208  159.1
 5.500  0.6551  101.7   1.760   18.8  0.2256   30.0  0.3242  158.3
 5.600  0.6572  100.9   1.731   17.8  0.2285   29.2  0.3278  157.5
 5.700  0.6594  100.2   1.703   16.7  0.2315   28.3  0.3314  156.7
 5.800  0.6617   99.4   1.675   15.6  0.2345   27.5  0.3351  155.9
 5.900  0.6641   98.6   1.648   14.5  0.2375   26.8  0.3388  155.1
 6.000  0.6667   97.9   1.621   13.3  0.2406   26.0  0.3426  154.4
 6.100  0.6672   97.1   1.596   12.3  0.2432   25.2  0.3450  153.9
 6.200  0.6677   96.3   1.572   11.3  0.2458   24.5  0.3474  153.3
 6.300  0.6685   95.5   1.548   10.2  0.2485   23.7  0.3498  152.8
 6.400  0.6693   94.7   1.525    9.1  0.2512   23.0  0.3522  152.3
 6.500  0.6703   93.9   1.502    8.0  0.2539   22.3  0.3547  151.8
 6.600  0.6698   93.0   1.483    7.1  0.2568   21.6  0.3542  151.4
 6.800  0.6694   91.1   1.446    5.1  0.2628   20.2  0.3533  150.7
 7.000  0.6696   89.3   1.411    3.1  0.2690   18.8  0.3525  149.9
 7.200  0.6712   87.1   1.381    1.0  0.2755   17.1  0.3520  148.4
 7.400  0.6737   84.9   1.353   -1.3  0.2822   15.6  0.3517  146.9
 7.600  0.6776   82.6   1.326   -3.6  0.2885   13.8  0.3533  145.1
 7.800  0.6829   80.1   1.299   -6.0  0.2944   11.9  0.3571  142.8
 8.000  0.6895   77.7   1.274   -8.5  0.3007   10.1  0.3614  140.6
 8.200  0.6950   75.1   1.241  -10.9  0.3047    7.9  0.3659  137.8
 8.400  0.7020   72.5   1.210  -13.4  0.3091    5.7  0.3713  135.0
 8.600  0.7112   70.0   1.178  -15.8  0.3119    3.7  0.3782  131.6
 8.800  0.7224   67.8   1.145  -18.0  0.3129    1.6  0.3874  127.7
 9.000  0.7347   65.6   1.114  -20.4  0.3144   -0.5  0.3983  123.9
 9.200  0.7511   63.8   1.077  -22.3  0.3132   -2.1  0.4153  119.4
 9.400  0.7682   62.0   1.042  -24.3  0.3122   -3.7  0.4346  115.3
 9.600  0.7833   60.4   1.008  -26.0  0.3111   -5.0  0.4545  111.7
 9.800  0.7962   58.9   0.973  -27.5  0.3098   -5.9  0.4743  108.6
10.000  0.8096   57.5   0.940  -29.1  0.3085   -6.9  0.4954  105.7
!
!  f       NFmin   Gammaopt  rn/50
! GHz       dB    MAG  ANG    -
 0.450      1.56  0.23 -168   0.12
 0.900      1.59  0.20 -163   0.13
 1.900      1.71  0.31 -143   0.14
 3.500      1.58  0.54 -119   0.20
!
! (c) 2016  Infineon Technologies AG, Munich
