! Infineon Technologies  Discrete & RF Semiconductors
! BFP460
! VCE =  4.0 V,  IC =  35 mA
! Common Emitter S-Parameters:                            Jan 2016
# GHz  S  MA  R  50
!  f         S11            S21            S12            S22
! GHz     MAG   ANG      MAG   ANG      MAG   ANG      MAG   ANG
 0.030  0.4714  -19.6  57.860  169.2  0.0045   83.9  0.9244  -10.3
 0.035  0.4691  -22.5  57.427  167.5  0.0052   81.8  0.9204  -12.1
 0.040  0.4680  -25.5  57.045  165.8  0.0059   80.2  0.9174  -13.9
 0.045  0.4662  -28.7  56.448  164.1  0.0065   78.7  0.9113  -15.6
 0.050  0.4660  -32.0  55.903  162.3  0.0072   77.5  0.9060  -17.3
 0.055  0.4671  -34.9  55.430  160.9  0.0078   77.0  0.8990  -19.0
 0.060  0.4694  -37.7  54.993  159.4  0.0085   76.5  0.8929  -20.8
 0.065  0.4663  -41.2  54.550  157.8  0.0091   75.7  0.8848  -22.5
 0.070  0.4649  -44.7  54.149  156.2  0.0098   75.0  0.8775  -24.2
 0.075  0.4654  -47.2  53.539  154.9  0.0104   73.8  0.8683  -25.8
 0.080  0.4668  -49.7  52.958  153.5  0.0111   72.8  0.8599  -27.5
 0.085  0.4663  -52.6  52.290  152.1  0.0116   72.0  0.8500  -29.0
 0.090  0.4670  -55.5  51.655  150.6  0.0121   71.2  0.8407  -30.6
 0.095  0.4647  -57.8  50.910  149.4  0.0126   70.6  0.8309  -32.0
 0.100  0.4631  -60.2  50.190  148.1  0.0131   70.1  0.8216  -33.5
 0.105  0.4643  -62.7  49.604  146.8  0.0136   69.0  0.8109  -34.9
 0.110  0.4664  -65.1  49.043  145.5  0.0142   68.0  0.8007  -36.3
 0.115  0.4638  -67.6  48.361  144.3  0.0146   67.2  0.7904  -37.7
 0.120  0.4622  -70.2  47.703  143.0  0.0150   66.5  0.7805  -39.1
 0.125  0.4607  -72.3  47.035  141.9  0.0155   66.0  0.7698  -40.3
 0.130  0.4598  -74.5  46.384  140.8  0.0160   65.6  0.7594  -41.6
 0.135  0.4592  -76.7  45.758  139.7  0.0164   65.0  0.7493  -42.8
 0.140  0.4593  -79.0  45.148  138.6  0.0168   64.5  0.7395  -44.1
 0.145  0.4586  -81.0  44.431  137.5  0.0171   64.1  0.7291  -45.3
 0.150  0.4585  -83.1  43.731  136.4  0.0175   63.7  0.7191  -46.5
 0.155  0.4560  -84.8  43.105  135.6  0.0178   63.3  0.7089  -47.4
 0.160  0.4539  -86.5  42.486  134.9  0.0182   62.8  0.6990  -48.3
 0.165  0.4521  -88.2  41.876  134.0  0.0185   62.4  0.6891  -49.2
 0.170  0.4508  -89.9  41.274  133.2  0.0188   62.0  0.6795  -50.2
 0.175  0.4499  -91.6  40.682  132.4  0.0192   61.6  0.6701  -51.2
 0.180  0.4494  -93.4  40.098  131.5  0.0195   61.3  0.6609  -52.2
 0.185  0.4494  -95.1  39.524  130.6  0.0199   60.9  0.6519  -53.2
 0.190  0.4497  -96.8  38.961  129.6  0.0202   60.6  0.6431  -54.3
 0.195  0.4504  -98.6  38.408  128.7  0.0206   60.2  0.6345  -55.4
 0.200  0.4516 -100.3  37.866  127.7  0.0209   59.9  0.6262  -56.5
 0.220  0.4477 -105.7  35.821  125.2  0.0219   59.1  0.5938  -59.4
 0.240  0.4478 -111.1  33.854  122.3  0.0230   58.3  0.5632  -62.7
 0.260  0.4478 -115.8  32.080  119.8  0.0240   57.8  0.5356  -65.7
 0.280  0.4462 -120.0  30.459  117.8  0.0249   57.4  0.5102  -68.2
 0.300  0.4470 -124.1  28.883  115.5  0.0258   57.0  0.4860  -71.0
 0.320  0.4454 -127.5  27.549  113.9  0.0267   56.9  0.4654  -73.0
 0.340  0.4453 -130.8  26.239  112.1  0.0276   56.8  0.4454  -75.2
 0.360  0.4449 -133.9  25.054  110.5  0.0284   56.8  0.4274  -77.3
 0.380  0.4438 -136.6  23.985  109.1  0.0293   56.8  0.4112  -79.1
 0.400  0.4438 -139.3  22.931  107.6  0.0301   56.8  0.3954  -81.1
 0.420  0.4433 -141.6  22.039  106.5  0.0309   57.0  0.3820  -82.6
 0.440  0.4436 -143.9  21.156  105.3  0.0317   57.1  0.3688  -84.2
 0.450  0.4440 -145.1  20.718  104.7  0.0321   57.2  0.3624  -85.1
 0.460  0.4438 -146.1  20.349  104.2  0.0325   57.3  0.3568  -85.8
 0.480  0.4437 -148.0  19.616  103.2  0.0333   57.4  0.3459  -87.3
 0.500  0.4441 -150.0  18.889  102.1  0.0341   57.6  0.3352  -88.8
 0.520  0.4435 -151.6  18.305  101.3  0.0349   57.8  0.3266  -89.9
 0.540  0.4432 -153.2  17.725  100.5  0.0357   58.0  0.3182  -91.1
 0.560  0.4433 -154.9  17.149   99.6  0.0366   58.2  0.3098  -92.4
 0.580  0.4437 -156.5  16.576   98.7  0.0374   58.4  0.3017  -93.7
 0.600  0.4445 -158.1  16.009   97.7  0.0382   58.6  0.2937  -95.1
 0.620  0.4443 -159.4  15.576   97.1  0.0390   58.8  0.2876  -96.1
 0.640  0.4444 -160.7  15.145   96.4  0.0398   58.9  0.2815  -97.1
 0.660  0.4447 -161.9  14.717   95.7  0.0407   59.0  0.2756  -98.2
 0.680  0.4452 -163.2  14.290   94.9  0.0415   59.2  0.2697  -99.3
 0.700  0.4459 -164.5  13.867   94.1  0.0423   59.3  0.2640 -100.5
 0.720  0.4459 -165.6  13.536   93.6  0.0432   59.5  0.2595 -101.4
 0.740  0.4461 -166.6  13.207   93.0  0.0440   59.6  0.2550 -102.3
 0.760  0.4464 -167.7  12.879   92.4  0.0449   59.7  0.2506 -103.2
 0.780  0.4469 -168.7  12.553   91.8  0.0457   59.9  0.2463 -104.2
 0.800  0.4475 -169.8  12.228   91.1  0.0466   60.0  0.2420 -105.2
 0.820  0.4477 -170.7  11.968   90.6  0.0475   60.1  0.2387 -106.0
 0.840  0.4481 -171.6  11.709   90.1  0.0483   60.2  0.2354 -106.8
 0.860  0.4485 -172.6  11.451   89.6  0.0492   60.3  0.2321 -107.6
 0.880  0.4491 -173.5  11.195   89.0  0.0500   60.4  0.2289 -108.5
 0.900  0.4498 -174.4  10.939   88.4  0.0509   60.5  0.2258 -109.4
 0.920  0.4500 -175.2  10.728   87.9  0.0518   60.6  0.2232 -110.1
 0.940  0.4503 -176.0  10.517   87.5  0.0526   60.6  0.2206 -110.9
 0.960  0.4506 -176.8  10.308   87.0  0.0535   60.7  0.2181 -111.6
 0.980  0.4511 -177.6  10.099   86.4  0.0543   60.7  0.2156 -112.4
 1.000  0.4516 -178.4   9.891   85.9  0.0552   60.8  0.2132 -113.2
 1.020  0.4518 -179.1   9.716   85.5  0.0561   60.8  0.2113 -113.9
 1.040  0.4520 -179.9   9.542   85.1  0.0570   60.8  0.2094 -114.5
 1.060  0.4523  179.4   9.369   84.6  0.0579   60.9  0.2075 -115.2
 1.080  0.4527  178.6   9.195   84.2  0.0588   60.9  0.2057 -115.9
 1.100  0.4532  177.9   9.023   83.7  0.0597   60.9  0.2039 -116.6
 1.120  0.4535  177.2   8.876   83.3  0.0606   60.9  0.2023 -117.2
 1.140  0.4538  176.5   8.730   82.9  0.0615   60.9  0.2008 -117.9
 1.160  0.4541  175.9   8.584   82.4  0.0623   60.9  0.1993 -118.5
 1.180  0.4546  175.2   8.439   82.0  0.0632   60.9  0.1978 -119.1
 1.200  0.4551  174.5   8.294   81.5  0.0641   60.9  0.1963 -119.8
 1.220  0.4555  173.9   8.169   81.1  0.0650   60.9  0.1952 -120.4
 1.240  0.4559  173.3   8.044   80.7  0.0659   60.9  0.1940 -120.9
 1.260  0.4563  172.7   7.920   80.3  0.0668   60.8  0.1929 -121.5
 1.280  0.4568  172.1   7.796   79.9  0.0677   60.8  0.1919 -122.1
 1.300  0.4574  171.5   7.672   79.5  0.0686   60.8  0.1908 -122.7
 1.320  0.4577  170.9   7.565   79.1  0.0695   60.8  0.1898 -123.2
 1.340  0.4580  170.3   7.458   78.7  0.0704   60.7  0.1888 -123.8
 1.360  0.4584  169.8   7.351   78.3  0.0712   60.7  0.1879 -124.3
 1.380  0.4588  169.2   7.245   77.9  0.0721   60.6  0.1869 -124.8
 1.400  0.4593  168.6   7.139   77.5  0.0730   60.6  0.1860 -125.4
 1.420  0.4599  168.0   7.046   77.1  0.0739   60.5  0.1853 -125.9
 1.440  0.4605  167.4   6.953   76.8  0.0748   60.4  0.1847 -126.4
 1.460  0.4611  166.9   6.861   76.4  0.0757   60.4  0.1840 -126.9
 1.480  0.4618  166.3   6.769   76.0  0.0766   60.3  0.1834 -127.5
 1.500  0.4626  165.7   6.677   75.6  0.0775   60.2  0.1828 -128.0
 1.520  0.4630  165.2   6.595   75.3  0.0784   60.1  0.1822 -128.5
 1.540  0.4634  164.6   6.512   74.9  0.0793   60.0  0.1817 -129.0
 1.560  0.4639  164.1   6.430   74.6  0.0801   60.0  0.1811 -129.5
 1.580  0.4644  163.5   6.349   74.3  0.0810   59.9  0.1806 -130.0
 1.600  0.4649  163.0   6.267   73.9  0.0819   59.8  0.1801 -130.5
 1.620  0.4654  162.5   6.195   73.5  0.0828   59.7  0.1797 -131.0
 1.640  0.4658  162.0   6.124   73.2  0.0837   59.6  0.1793 -131.4
 1.660  0.4664  161.6   6.053   72.8  0.0846   59.5  0.1789 -131.9
 1.680  0.4669  161.1   5.982   72.4  0.0855   59.4  0.1785 -132.3
 1.700  0.4675  160.6   5.912   72.0  0.0864   59.3  0.1781 -132.8
 1.720  0.4680  160.1   5.847   71.7  0.0873   59.2  0.1778 -133.3
 1.740  0.4686  159.6   5.782   71.3  0.0882   59.1  0.1775 -133.7
 1.760  0.4691  159.1   5.717   71.0  0.0890   59.0  0.1773 -134.2
 1.780  0.4697  158.6   5.652   70.7  0.0899   58.9  0.1770 -134.6
 1.800  0.4704  158.1   5.588   70.3  0.0908   58.8  0.1768 -135.1
 1.820  0.4710  157.6   5.531   70.0  0.0917   58.7  0.1766 -135.6
 1.840  0.4717  157.2   5.474   69.6  0.0926   58.6  0.1763 -136.0
 1.860  0.4723  156.7   5.417   69.3  0.0934   58.4  0.1761 -136.5
 1.880  0.4731  156.3   5.360   69.0  0.0943   58.3  0.1759 -136.9
 1.900  0.4738  155.8   5.304   68.6  0.0952   58.2  0.1757 -137.4
 1.920  0.4744  155.3   5.252   68.3  0.0961   58.1  0.1756 -137.9
 1.940  0.4750  154.8   5.200   67.9  0.0970   58.0  0.1755 -138.3
 1.960  0.4757  154.3   5.149   67.6  0.0979   57.8  0.1755 -138.8
 1.980  0.4764  153.8   5.097   67.3  0.0988   57.7  0.1754 -139.2
 2.000  0.4771  153.3   5.046   66.9  0.0997   57.6  0.1754 -139.7
 2.020  0.4778  152.9   5.000   66.6  0.1006   57.4  0.1754 -140.2
 2.040  0.4785  152.4   4.954   66.3  0.1014   57.3  0.1754 -140.6
 2.060  0.4792  152.0   4.908   65.9  0.1023   57.2  0.1755 -141.1
 2.080  0.4800  151.6   4.862   65.6  0.1032   57.0  0.1755 -141.5
 2.100  0.4808  151.2   4.816   65.3  0.1040   56.9  0.1756 -142.0
 2.120  0.4816  150.8   4.771   64.9  0.1049   56.7  0.1756 -142.5
 2.140  0.4824  150.3   4.726   64.6  0.1058   56.6  0.1757 -142.9
 2.160  0.4833  149.9   4.681   64.2  0.1067   56.5  0.1758 -143.4
 2.180  0.4842  149.5   4.636   63.9  0.1075   56.3  0.1759 -143.8
 2.200  0.4851  149.1   4.591   63.5  0.1084   56.2  0.1760 -144.3
 2.220  0.4859  148.7   4.553   63.2  0.1092   56.1  0.1762 -144.8
 2.240  0.4866  148.2   4.514   62.9  0.1101   55.9  0.1763 -145.2
 2.260  0.4875  147.8   4.476   62.6  0.1109   55.8  0.1765 -145.7
 2.280  0.4883  147.4   4.438   62.2  0.1118   55.6  0.1767 -146.2
 2.300  0.4892  147.0   4.400   61.9  0.1126   55.5  0.1770 -146.7
 2.320  0.4901  146.6   4.362   61.6  0.1135   55.3  0.1772 -147.1
 2.340  0.4910  146.1   4.325   61.3  0.1143   55.2  0.1774 -147.6
 2.360  0.4919  145.7   4.287   60.9  0.1152   55.1  0.1777 -148.1
 2.380  0.4929  145.3   4.250   60.6  0.1160   54.9  0.1779 -148.5
 2.400  0.4939  144.9   4.213   60.2  0.1169   54.8  0.1782 -149.0
 2.420  0.4947  144.5   4.180   59.9  0.1177   54.6  0.1786 -149.5
 2.440  0.4956  144.1   4.147   59.6  0.1186   54.5  0.1790 -150.0
 2.460  0.4965  143.7   4.114   59.3  0.1194   54.3  0.1794 -150.5
 2.480  0.4974  143.3   4.081   59.0  0.1202   54.1  0.1798 -150.9
 2.500  0.4984  142.9   4.048   58.7  0.1211   54.0  0.1802 -151.4
 2.520  0.4993  142.5   4.016   58.3  0.1219   53.8  0.1807 -151.9
 2.540  0.5003  142.2   3.983   58.0  0.1228   53.7  0.1811 -152.4
 2.560  0.5013  141.8   3.951   57.7  0.1236   53.5  0.1816 -152.9
 2.580  0.5023  141.4   3.919   57.3  0.1245   53.4  0.1821 -153.3
 2.600  0.5034  141.0   3.887   57.0  0.1253   53.2  0.1826 -153.8
 2.620  0.5042  140.6   3.859   56.7  0.1261   53.0  0.1832 -154.3
 2.640  0.5050  140.2   3.830   56.4  0.1269   52.8  0.1838 -154.7
 2.660  0.5058  139.8   3.802   56.1  0.1277   52.7  0.1844 -155.2
 2.680  0.5067  139.5   3.774   55.8  0.1285   52.5  0.1850 -155.6
 2.700  0.5075  139.1   3.746   55.5  0.1293   52.3  0.1856 -156.0
 2.720  0.5084  138.7   3.718   55.2  0.1301   52.2  0.1862 -156.5
 2.740  0.5093  138.3   3.691   54.9  0.1310   52.0  0.1869 -156.9
 2.760  0.5103  137.9   3.663   54.6  0.1318   51.8  0.1876 -157.3
 2.780  0.5112  137.6   3.635   54.2  0.1326   51.7  0.1882 -157.8
 2.800  0.5122  137.2   3.608   53.9  0.1334   51.5  0.1889 -158.2
 2.820  0.5131  136.9   3.583   53.6  0.1342   51.3  0.1896 -158.6
 2.840  0.5141  136.5   3.558   53.3  0.1350   51.2  0.1902 -159.0
 2.860  0.5150  136.2   3.534   53.0  0.1358   51.0  0.1909 -159.5
 2.880  0.5160  135.8   3.509   52.8  0.1366   50.8  0.1916 -159.9
 2.900  0.5170  135.5   3.484   52.5  0.1374   50.7  0.1923 -160.3
 2.920  0.5180  135.1   3.460   52.2  0.1382   50.5  0.1930 -160.7
 2.940  0.5190  134.8   3.435   51.8  0.1390   50.4  0.1938 -161.1
 2.960  0.5201  134.5   3.411   51.5  0.1398   50.2  0.1945 -161.5
 2.980  0.5211  134.1   3.387   51.2  0.1406   50.1  0.1952 -161.9
 3.000  0.5222  133.8   3.363   50.9  0.1414   49.9  0.1960 -162.3
 3.100  0.5266  132.1   3.261   49.6  0.1451   49.0  0.1997 -164.3
 3.200  0.5314  130.4   3.160   48.3  0.1489   48.0  0.2035 -166.2
 3.300  0.5368  128.7   3.062   46.8  0.1526   47.2  0.2077 -168.1
 3.400  0.5425  127.1   2.965   45.3  0.1565   46.4  0.2120 -169.9
 3.500  0.5487  125.5   2.871   43.6  0.1603   45.6  0.2165 -171.6
 3.600  0.5541  124.0   2.793   42.4  0.1636   44.7  0.2209 -173.6
 3.700  0.5598  122.5   2.716   41.1  0.1669   43.8  0.2255 -175.6
 3.800  0.5659  121.0   2.641   39.7  0.1703   42.9  0.2304 -177.4
 3.900  0.5724  119.6   2.567   38.2  0.1737   42.1  0.2356 -179.2
 4.000  0.5792  118.2   2.495   36.7  0.1772   41.3  0.2409  179.1
 4.100  0.5848  117.0   2.433   35.5  0.1802   40.5  0.2466  177.3
 4.200  0.5907  115.7   2.372   34.3  0.1832   39.7  0.2525  175.5
 4.300  0.5969  114.5   2.313   33.1  0.1863   38.9  0.2587  173.9
 4.400  0.6033  113.3   2.254   31.7  0.1894   38.1  0.2650  172.3
 4.500  0.6100  112.2   2.197   30.3  0.1925   37.4  0.2716  170.8
 4.600  0.6141  111.0   2.149   29.2  0.1955   36.7  0.2763  169.5
 4.700  0.6184  109.9   2.102   28.1  0.1984   35.9  0.2812  168.3
 4.800  0.6230  108.8   2.055   26.9  0.2015   35.2  0.2861  167.1
 4.900  0.6279  107.7   2.010   25.7  0.2045   34.6  0.2912  166.0
 5.000  0.6329  106.6   1.965   24.4  0.2076   33.9  0.2964  164.9
 5.100  0.6359  105.7   1.928   23.4  0.2108   33.1  0.2995  164.0
 5.200  0.6390  104.7   1.891   22.3  0.2140   32.4  0.3027  163.0
 5.300  0.6423  103.8   1.856   21.2  0.2172   31.7  0.3060  162.1
 5.400  0.6458  102.9   1.820   20.1  0.2205   31.0  0.3093  161.3
 5.500  0.6494  102.0   1.786   18.9  0.2238   30.3  0.3127  160.4
 5.600  0.6515  101.2   1.756   17.9  0.2267   29.5  0.3163  159.6
 5.700  0.6538  100.4   1.727   16.8  0.2297   28.6  0.3200  158.7
 5.800  0.6562   99.6   1.699   15.7  0.2327   27.8  0.3238  157.9
 5.900  0.6587   98.9   1.671   14.6  0.2357   27.1  0.3276  157.2
 6.000  0.6613   98.1   1.644   13.4  0.2388   26.3  0.3315  156.4
 6.100  0.6618   97.3   1.619   12.4  0.2414   25.5  0.3340  155.9
 6.200  0.6625   96.5   1.594   11.4  0.2440   24.8  0.3366  155.3
 6.300  0.6632   95.8   1.570   10.4  0.2467   24.0  0.3392  154.8
 6.400  0.6641   95.0   1.546    9.3  0.2494   23.3  0.3418  154.3
 6.500  0.6651   94.2   1.523    8.2  0.2521   22.6  0.3444  153.8
 6.600  0.6646   93.3   1.504    7.2  0.2550   21.9  0.3440  153.4
 6.800  0.6641   91.4   1.466    5.2  0.2610   20.5  0.3433  152.7
 7.000  0.6644   89.5   1.431    3.1  0.2671   19.2  0.3427  151.9
 7.200  0.6661   87.3   1.401    1.0  0.2736   17.5  0.3423  150.5
 7.400  0.6687   85.2   1.372   -1.2  0.2803   16.0  0.3421  149.0
 7.600  0.6727   82.8   1.344   -3.5  0.2866   14.2  0.3438  147.2
 7.800  0.6783   80.3   1.316   -5.9  0.2926   12.3  0.3475  144.9
 8.000  0.6851   77.9   1.291   -8.4  0.2989   10.5  0.3518  142.7
 8.200  0.6907   75.3   1.257  -10.8  0.3030    8.3  0.3563  139.8
 8.400  0.6977   72.8   1.226  -13.3  0.3075    6.2  0.3616  137.1
 8.600  0.7069   70.3   1.193  -15.7  0.3103    4.2  0.3684  133.6
 8.800  0.7183   68.0   1.160  -18.0  0.3115    2.1  0.3775  129.5
 9.000  0.7307   65.8   1.128  -20.4  0.3131    0.0  0.3883  125.7
 9.200  0.7473   64.0   1.091  -22.3  0.3120   -1.6  0.4052  121.1
 9.400  0.7646   62.2   1.056  -24.3  0.3111   -3.1  0.4246  116.9
 9.600  0.7800   60.6   1.021  -26.0  0.3101   -4.4  0.4444  113.3
 9.800  0.7934   59.1   0.987  -27.5  0.3088   -5.4  0.4644  110.1
10.000  0.8074   57.7   0.953  -29.1  0.3077   -6.4  0.4857  107.1
!
!  f       NFmin   Gammaopt  rn/50
! GHz       dB    MAG  ANG    -
 0.450      1.56  0.23 -168   0.12
 0.900      1.59  0.20 -163   0.13
 1.900      1.71  0.31 -143   0.14
 3.500      1.58  0.54 -119   0.20
!
! (c) 2016  Infineon Technologies AG, Munich
