! Infineon Technologies  Discrete & RF Semiconductors
! BFP460
! VCE =  1.5 V,  IC =  70 mA
! Common Emitter S-Parameters:                            Jan 2016
# GHz  S  MA  R  50
!  f         S11            S21            S12            S22
! GHz     MAG   ANG      MAG   ANG      MAG   ANG      MAG   ANG
 0.030  0.2405  -59.1  57.187  166.1  0.0047   82.3  0.6903  -15.4
 0.035  0.2520  -65.8  56.455  163.6  0.0054   79.5  0.6840  -18.3
 0.040  0.2667  -71.9  55.835  161.0  0.0061   77.3  0.6795  -21.2
 0.045  0.2792  -77.2  54.921  158.4  0.0067   76.2  0.6703  -24.0
 0.050  0.2939  -82.1  54.120  155.8  0.0073   75.2  0.6628  -26.9
 0.055  0.3074  -87.0  53.246  153.7  0.0079   74.1  0.6528  -29.5
 0.060  0.3230  -91.5  52.443  151.6  0.0086   73.2  0.6442  -32.2
 0.065  0.3381  -95.7  51.498  149.5  0.0091   71.0  0.6327  -34.7
 0.070  0.3548  -99.5  50.626  147.3  0.0096   69.1  0.6224  -37.2
 0.075  0.3674 -102.3  49.635  145.5  0.0100   68.4  0.6107  -39.5
 0.080  0.3809 -105.0  48.693  143.7  0.0105   67.7  0.6000  -41.8
 0.085  0.3926 -108.2  47.601  141.9  0.0109   66.7  0.5880  -43.9
 0.090  0.4055 -111.2  46.559  140.0  0.0113   65.8  0.5767  -46.0
 0.095  0.4133 -113.6  45.505  138.5  0.0117   65.0  0.5652  -48.0
 0.100  0.4218 -116.0  44.483  137.0  0.0121   64.3  0.5543  -50.0
 0.105  0.4308 -118.0  43.564  135.5  0.0125   63.6  0.5428  -51.9
 0.110  0.4403 -120.0  42.676  133.9  0.0129   63.0  0.5318  -53.8
 0.115  0.4473 -122.3  41.696  132.6  0.0132   62.5  0.5209  -55.5
 0.120  0.4550 -124.5  40.740  131.2  0.0136   62.0  0.5105  -57.3
 0.125  0.4607 -126.3  39.855  130.0  0.0138   61.2  0.5001  -58.9
 0.130  0.4668 -128.0  38.988  128.8  0.0141   60.5  0.4900  -60.5
 0.135  0.4730 -129.7  38.170  127.7  0.0144   60.4  0.4801  -62.0
 0.140  0.4797 -131.4  37.367  126.5  0.0148   60.4  0.4706  -63.6
 0.145  0.4844 -133.0  36.524  125.5  0.0150   59.9  0.4615  -65.0
 0.150  0.4894 -134.6  35.693  124.4  0.0153   59.5  0.4527  -66.4
 0.155  0.4921 -135.8  35.013  123.7  0.0155   59.4  0.4446  -67.4
 0.160  0.4950 -137.0  34.338  123.0  0.0158   59.2  0.4366  -68.5
 0.165  0.4981 -138.1  33.668  122.2  0.0160   59.1  0.4287  -69.5
 0.170  0.5014 -139.3  33.005  121.5  0.0163   58.9  0.4210  -70.7
 0.175  0.5049 -140.4  32.348  120.7  0.0165   58.8  0.4135  -71.8
 0.180  0.5086 -141.5  31.697  119.8  0.0168   58.7  0.4061  -73.0
 0.185  0.5125 -142.6  31.054  119.0  0.0170   58.5  0.3990  -74.3
 0.190  0.5166 -143.7  30.418  118.0  0.0173   58.4  0.3920  -75.6
 0.195  0.5209 -144.8  29.790  117.1  0.0175   58.3  0.3852  -76.9
 0.200  0.5253 -145.8  29.171  116.1  0.0178   58.2  0.3787  -78.3
 0.220  0.5324 -149.0  27.234  114.0  0.0186   58.3  0.3568  -81.7
 0.240  0.5411 -152.0  25.340  111.6  0.0195   58.4  0.3362  -85.4
 0.260  0.5481 -154.7  23.698  109.4  0.0203   58.7  0.3186  -88.8
 0.280  0.5529 -157.0  22.286  107.7  0.0212   59.0  0.3033  -91.7
 0.300  0.5587 -159.3  20.897  105.7  0.0221   59.3  0.2889  -94.9
 0.320  0.5617 -161.0  19.810  104.5  0.0230   59.8  0.2775  -97.3
 0.340  0.5652 -162.8  18.734  103.1  0.0239   60.2  0.2666  -99.8
 0.360  0.5677 -164.4  17.780  101.8  0.0247   60.6  0.2571 -102.2
 0.380  0.5693 -165.9  16.942  100.6  0.0256   61.0  0.2489 -104.3
 0.400  0.5713 -167.4  16.112   99.3  0.0264   61.3  0.2410 -106.6
 0.420  0.5731 -168.6  15.435   98.4  0.0273   61.7  0.2345 -108.4
 0.440  0.5752 -169.9  14.762   97.5  0.0282   62.0  0.2283 -110.3
 0.450  0.5764 -170.5  14.427   97.0  0.0286   62.2  0.2253 -111.3
 0.460  0.5770 -171.0  14.154   96.6  0.0291   62.4  0.2228 -112.1
 0.480  0.5782 -172.1  13.609   95.8  0.0300   62.7  0.2179 -113.7
 0.500  0.5797 -173.2  13.067   94.9  0.0309   63.0  0.2132 -115.4
 0.520  0.5805 -174.1  12.644   94.3  0.0318   63.3  0.2095 -116.7
 0.540  0.5814 -175.0  12.222   93.6  0.0327   63.6  0.2060 -118.1
 0.560  0.5824 -175.9  11.802   92.9  0.0337   63.8  0.2025 -119.5
 0.580  0.5837 -176.8  11.385   92.1  0.0346   64.1  0.1992 -120.9
 0.600  0.5850 -177.7  10.969   91.3  0.0355   64.3  0.1960 -122.4
 0.620  0.5856 -178.4  10.663   90.8  0.0364   64.5  0.1936 -123.5
 0.640  0.5863 -179.2  10.357   90.2  0.0373   64.6  0.1914 -124.6
 0.660  0.5870 -179.9  10.053   89.6  0.0383   64.7  0.1892 -125.8
 0.680  0.5879  179.3   9.751   88.9  0.0392   64.9  0.1870 -127.0
 0.700  0.5889  178.6   9.449   88.2  0.0401   65.0  0.1850 -128.2
 0.720  0.5892  177.9   9.218   87.7  0.0410   65.1  0.1834 -129.1
 0.740  0.5896  177.3   8.988   87.2  0.0420   65.2  0.1819 -130.1
 0.760  0.5900  176.6   8.758   86.7  0.0429   65.3  0.1805 -131.0
 0.780  0.5906  176.0   8.530   86.1  0.0439   65.4  0.1791 -132.0
 0.800  0.5912  175.3   8.302   85.5  0.0448   65.5  0.1777 -133.0
 0.820  0.5917  174.7   8.122   85.1  0.0458   65.5  0.1767 -133.8
 0.840  0.5923  174.1   7.942   84.6  0.0467   65.6  0.1757 -134.5
 0.860  0.5929  173.6   7.762   84.1  0.0477   65.6  0.1748 -135.3
 0.880  0.5936  173.0   7.583   83.6  0.0486   65.7  0.1739 -136.1
 0.900  0.5944  172.4   7.405   83.1  0.0496   65.7  0.1730 -136.9
 0.920  0.5946  171.8   7.260   82.7  0.0506   65.7  0.1723 -137.6
 0.940  0.5948  171.3   7.115   82.3  0.0515   65.7  0.1716 -138.2
 0.960  0.5951  170.7   6.970   81.8  0.0525   65.7  0.1710 -138.9
 0.980  0.5954  170.2   6.826   81.4  0.0534   65.7  0.1704 -139.6
 1.000  0.5958  169.6   6.682   80.9  0.0544   65.7  0.1698 -140.3
 1.020  0.5962  169.1   6.562   80.5  0.0554   65.7  0.1694 -140.9
 1.040  0.5966  168.6   6.442   80.1  0.0563   65.6  0.1691 -141.5
 1.060  0.5971  168.0   6.323   79.6  0.0573   65.6  0.1687 -142.0
 1.080  0.5976  167.5   6.204   79.2  0.0582   65.5  0.1684 -142.6
 1.100  0.5982  167.0   6.086   78.7  0.0592   65.5  0.1681 -143.2
 1.120  0.5985  166.5   5.986   78.3  0.0602   65.4  0.1678 -143.7
 1.140  0.5988  166.0   5.887   77.9  0.0611   65.4  0.1676 -144.3
 1.160  0.5992  165.6   5.788   77.5  0.0621   65.3  0.1673 -144.8
 1.180  0.5996  165.1   5.689   77.1  0.0630   65.3  0.1671 -145.4
 1.200  0.6001  164.6   5.590   76.7  0.0640   65.2  0.1669 -145.9
 1.220  0.6006  164.1   5.505   76.3  0.0650   65.1  0.1668 -146.3
 1.240  0.6011  163.7   5.420   75.9  0.0659   65.0  0.1668 -146.7
 1.260  0.6016  163.2   5.335   75.5  0.0669   65.0  0.1667 -147.2
 1.280  0.6022  162.8   5.251   75.1  0.0678   64.9  0.1666 -147.6
 1.300  0.6028  162.3   5.167   74.7  0.0688   64.8  0.1666 -148.0
 1.320  0.6031  161.9   5.094   74.3  0.0698   64.7  0.1665 -148.4
 1.340  0.6034  161.4   5.022   74.0  0.0707   64.6  0.1665 -148.9
 1.360  0.6038  161.0   4.950   73.6  0.0717   64.6  0.1664 -149.3
 1.380  0.6042  160.5   4.878   73.2  0.0726   64.5  0.1663 -149.8
 1.400  0.6046  160.1   4.806   72.8  0.0736   64.4  0.1663 -150.2
 1.420  0.6050  159.7   4.743   72.4  0.0746   64.3  0.1664 -150.6
 1.440  0.6055  159.2   4.680   72.1  0.0755   64.2  0.1665 -150.9
 1.460  0.6060  158.8   4.617   71.7  0.0765   64.0  0.1666 -151.3
 1.480  0.6065  158.3   4.554   71.3  0.0774   63.9  0.1667 -151.6
 1.500  0.6071  157.9   4.492   70.9  0.0784   63.8  0.1668 -152.0
 1.520  0.6076  157.5   4.436   70.6  0.0793   63.7  0.1669 -152.4
 1.540  0.6082  157.0   4.380   70.2  0.0803   63.6  0.1671 -152.7
 1.560  0.6087  156.6   4.325   69.8  0.0812   63.4  0.1672 -153.1
 1.580  0.6093  156.1   4.269   69.5  0.0822   63.3  0.1673 -153.4
 1.600  0.6100  155.7   4.214   69.1  0.0831   63.2  0.1675 -153.8
 1.620  0.6103  155.3   4.166   68.8  0.0840   63.1  0.1677 -154.1
 1.640  0.6106  154.9   4.118   68.4  0.0850   62.9  0.1678 -154.4
 1.660  0.6109  154.4   4.071   68.0  0.0859   62.8  0.1680 -154.8
 1.680  0.6113  154.0   4.023   67.7  0.0869   62.6  0.1682 -155.1
 1.700  0.6117  153.6   3.976   67.3  0.0878   62.5  0.1684 -155.4
 1.720  0.6121  153.2   3.932   67.0  0.0887   62.3  0.1686 -155.7
 1.740  0.6126  152.8   3.888   66.6  0.0897   62.2  0.1689 -156.1
 1.760  0.6130  152.3   3.844   66.2  0.0906   62.0  0.1692 -156.4
 1.780  0.6136  151.9   3.800   65.9  0.0916   61.9  0.1694 -156.8
 1.800  0.6141  151.5   3.757   65.5  0.0925   61.7  0.1697 -157.1
 1.820  0.6147  151.1   3.719   65.2  0.0934   61.6  0.1699 -157.4
 1.840  0.6152  150.7   3.680   64.8  0.0944   61.4  0.1702 -157.7
 1.860  0.6159  150.3   3.642   64.4  0.0953   61.3  0.1705 -158.1
 1.880  0.6165  149.9   3.604   64.1  0.0963   61.1  0.1707 -158.4
 1.900  0.6172  149.5   3.566   63.7  0.0972   61.0  0.1710 -158.7
 1.920  0.6176  149.1   3.531   63.4  0.0981   60.8  0.1713 -159.0
 1.940  0.6180  148.7   3.496   63.0  0.0990   60.7  0.1717 -159.3
 1.960  0.6185  148.2   3.461   62.6  0.1000   60.5  0.1720 -159.7
 1.980  0.6190  147.8   3.427   62.3  0.1009   60.4  0.1723 -160.0
 2.000  0.6195  147.4   3.392   61.9  0.1018   60.2  0.1727 -160.3
 2.020  0.6200  147.0   3.361   61.6  0.1027   60.0  0.1731 -160.6
 2.040  0.6205  146.6   3.330   61.3  0.1036   59.8  0.1735 -161.0
 2.060  0.6210  146.2   3.298   60.9  0.1046   59.7  0.1740 -161.3
 2.080  0.6216  145.8   3.267   60.6  0.1055   59.5  0.1744 -161.7
 2.100  0.6222  145.4   3.237   60.3  0.1064   59.3  0.1748 -162.0
 2.120  0.6228  145.1   3.206   59.9  0.1073   59.1  0.1753 -162.4
 2.140  0.6235  144.7   3.175   59.6  0.1082   59.0  0.1757 -162.7
 2.160  0.6241  144.3   3.145   59.2  0.1092   58.8  0.1762 -163.0
 2.180  0.6249  143.9   3.114   58.9  0.1101   58.7  0.1766 -163.4
 2.200  0.6256  143.5   3.084   58.5  0.1110   58.5  0.1771 -163.7
 2.220  0.6262  143.1   3.058   58.2  0.1119   58.3  0.1776 -164.0
 2.240  0.6268  142.7   3.032   57.9  0.1128   58.1  0.1782 -164.4
 2.260  0.6274  142.4   3.007   57.5  0.1137   57.9  0.1787 -164.7
 2.280  0.6281  142.0   2.981   57.2  0.1145   57.7  0.1793 -165.1
 2.300  0.6288  141.6   2.956   56.9  0.1154   57.6  0.1798 -165.4
 2.320  0.6295  141.2   2.930   56.5  0.1163   57.4  0.1804 -165.8
 2.340  0.6302  140.8   2.905   56.2  0.1172   57.2  0.1810 -166.1
 2.360  0.6310  140.5   2.880   55.8  0.1181   57.0  0.1815 -166.4
 2.380  0.6318  140.1   2.855   55.5  0.1190   56.9  0.1821 -166.8
 2.400  0.6326  139.7   2.830   55.1  0.1199   56.7  0.1827 -167.1
 2.420  0.6333  139.3   2.808   54.8  0.1208   56.5  0.1834 -167.4
 2.440  0.6340  139.0   2.785   54.5  0.1216   56.3  0.1841 -167.8
 2.460  0.6348  138.6   2.763   54.2  0.1225   56.1  0.1849 -168.1
 2.480  0.6356  138.3   2.741   53.8  0.1234   55.9  0.1856 -168.5
 2.500  0.6364  137.9   2.719   53.5  0.1242   55.8  0.1863 -168.8
 2.520  0.6372  137.6   2.697   53.2  0.1251   55.6  0.1871 -169.1
 2.540  0.6381  137.2   2.675   52.8  0.1260   55.4  0.1878 -169.4
 2.560  0.6390  136.9   2.653   52.5  0.1269   55.2  0.1886 -169.8
 2.580  0.6399  136.5   2.632   52.2  0.1277   55.1  0.1893 -170.1
 2.600  0.6408  136.2   2.610   51.8  0.1286   54.9  0.1901 -170.4
 2.620  0.6413  135.9   2.591   51.5  0.1294   54.7  0.1909 -170.7
 2.640  0.6418  135.5   2.572   51.2  0.1302   54.5  0.1918 -171.0
 2.660  0.6423  135.2   2.553   50.9  0.1311   54.3  0.1926 -171.4
 2.680  0.6428  134.8   2.534   50.6  0.1319   54.2  0.1934 -171.7
 2.700  0.6434  134.5   2.515   50.3  0.1327   54.0  0.1943 -172.0
 2.720  0.6439  134.2   2.496   49.9  0.1336   53.8  0.1951 -172.3
 2.740  0.6446  133.8   2.478   49.6  0.1344   53.6  0.1960 -172.6
 2.760  0.6452  133.5   2.459   49.3  0.1352   53.4  0.1969 -172.9
 2.780  0.6458  133.1   2.440   48.9  0.1361   53.3  0.1977 -173.2
 2.800  0.6465  132.8   2.422   48.6  0.1369   53.1  0.1986 -173.5
 2.820  0.6472  132.5   2.405   48.3  0.1377   52.9  0.1995 -173.8
 2.840  0.6478  132.1   2.389   48.0  0.1385   52.7  0.2004 -174.1
 2.860  0.6486  131.8   2.372   47.7  0.1393   52.5  0.2012 -174.4
 2.880  0.6493  131.5   2.356   47.4  0.1402   52.4  0.2021 -174.7
 2.900  0.6500  131.1   2.339   47.1  0.1410   52.2  0.2030 -175.0
 2.920  0.6508  130.8   2.323   46.7  0.1418   52.0  0.2039 -175.3
 2.940  0.6516  130.5   2.306   46.4  0.1426   51.8  0.2048 -175.6
 2.960  0.6524  130.2   2.290   46.1  0.1434   51.6  0.2058 -175.8
 2.980  0.6532  129.8   2.274   45.7  0.1443   51.5  0.2067 -176.1
 3.000  0.6541  129.5   2.258   45.4  0.1451   51.3  0.2076 -176.4
 3.100  0.6569  127.9   2.189   44.1  0.1489   50.3  0.2120 -177.8
 3.200  0.6602  126.3   2.122   42.7  0.1527   49.3  0.2166 -179.2
 3.300  0.6641  124.7   2.056   41.2  0.1565   48.3  0.2212  179.5
 3.400  0.6684  123.1   1.991   39.6  0.1604   47.4  0.2260  178.2
 3.500  0.6732  121.6   1.928   37.9  0.1643   46.6  0.2309  177.0
 3.600  0.6769  120.1   1.876   36.7  0.1676   45.6  0.2360  175.5
 3.700  0.6810  118.7   1.824   35.3  0.1710   44.6  0.2412  174.0
 3.800  0.6855  117.3   1.774   33.9  0.1745   43.7  0.2465  172.6
 3.900  0.6904  115.9   1.724   32.5  0.1780   42.8  0.2521  171.3
 4.000  0.6958  114.5   1.676   30.9  0.1815   42.0  0.2577  170.0
 4.100  0.6995  113.3   1.635   29.7  0.1845   41.1  0.2638  168.6
 4.200  0.7035  112.1   1.594   28.5  0.1875   40.3  0.2701  167.3
 4.300  0.7077  110.9   1.555   27.2  0.1906   39.5  0.2765  166.1
 4.400  0.7123  109.8   1.516   25.8  0.1937   38.7  0.2831  164.9
 4.500  0.7172  108.6   1.478   24.4  0.1969   38.0  0.2897  163.8
 4.600  0.7199  107.5   1.446   23.3  0.1999   37.3  0.2948  162.9
 4.700  0.7228  106.5   1.415   22.2  0.2029   36.5  0.2999  161.9
 4.800  0.7260  105.5   1.384   21.1  0.2060   35.8  0.3051  161.1
 4.900  0.7294  104.4   1.354   19.9  0.2091   35.2  0.3104  160.2
 5.000  0.7331  103.4   1.325   18.6  0.2122   34.5  0.3157  159.4
 5.100  0.7349  102.5   1.301   17.6  0.2155   33.7  0.3193  158.6
 5.200  0.7368  101.5   1.277   16.6  0.2188   33.0  0.3229  157.9
 5.300  0.7390  100.6   1.254   15.5  0.2222   32.2  0.3265  157.2
 5.400  0.7414   99.7   1.231   14.4  0.2256   31.5  0.3302  156.5
 5.500  0.7439   98.8   1.209   13.2  0.2290   30.8  0.3340  155.8
 5.600  0.7452   98.0   1.190   12.2  0.2320   29.9  0.3380  155.1
 5.700  0.7466   97.2   1.171   11.2  0.2351   29.1  0.3420  154.4
 5.800  0.7482   96.5   1.153   10.1  0.2382   28.3  0.3460  153.7
 5.900  0.7499   95.7   1.135    9.0  0.2414   27.5  0.3501  153.0
 6.000  0.7517   94.9   1.118    7.9  0.2446   26.7  0.3543  152.3
 6.100  0.7513   94.1   1.102    7.0  0.2473   25.9  0.3570  151.8
 6.200  0.7511   93.3   1.086    6.0  0.2500   25.2  0.3598  151.4
 6.300  0.7510   92.6   1.070    5.0  0.2528   24.4  0.3626  151.0
 6.400  0.7510   91.8   1.055    4.0  0.2556   23.7  0.3654  150.5
 6.500  0.7512   91.0   1.040    2.9  0.2584   23.0  0.3682  150.1
 6.600  0.7503   90.1   1.028    2.0  0.2615   22.3  0.3683  149.7
 6.800  0.7490   88.2   1.004    0.1  0.2678   20.9  0.3685  149.0
 7.000  0.7485   86.4   0.981   -1.9  0.2743   19.5  0.3687  148.3
 7.200  0.7495   84.2   0.962   -3.9  0.2809   17.7  0.3691  146.8
 7.400  0.7516   82.1   0.944   -6.0  0.2879   16.0  0.3697  145.3
 7.600  0.7547   79.7   0.926   -8.2  0.2943   14.2  0.3720  143.3
 7.800  0.7589   77.3   0.908  -10.6  0.3005   12.3  0.3763  141.0
 8.000  0.7645   74.8   0.892  -13.0  0.3070   10.4  0.3812  138.8
 8.200  0.7678   72.2   0.869  -15.2  0.3109    8.2  0.3858  136.0
 8.400  0.7727   69.6   0.848  -17.6  0.3153    6.0  0.3913  133.2
 8.600  0.7793   67.1   0.826  -19.8  0.3179    3.8  0.3981  129.9
 8.800  0.7874   64.8   0.804  -21.9  0.3186    1.7  0.4068  126.1
 9.000  0.7967   62.6   0.782  -24.1  0.3198   -0.4  0.4172  122.4
 9.200  0.8090   60.8   0.757  -25.7  0.3183   -2.0  0.4338  118.2
 9.400  0.8221   59.0   0.733  -27.5  0.3171   -3.6  0.4525  114.3
 9.600  0.8333   57.4   0.709  -29.0  0.3159   -4.9  0.4719  111.0
 9.800  0.8424   56.0   0.686  -30.2  0.3144   -5.8  0.4915  108.1
10.000  0.8520   54.6   0.663  -31.5  0.3131   -6.7  0.5123  105.4
!
!  f       NFmin   Gammaopt  rn/50
! GHz       dB    MAG  ANG    -
 0.450      2.18  0.41 -169   0.13
 0.900      2.25  0.38 -159   0.14
 1.900      2.41  0.49 -138   0.20
 3.500      2.03  0.78 -114   0.43
!
! (c) 2016  Infineon Technologies AG, Munich
