! Infineon Technologies  Discrete & RF Semiconductors
! BFP460
! VCE =  2.5 V,  IC =  20 mA
! Common Emitter S-Parameters:                            Jan 2016
# GHz  S  MA  R  50
!  f         S11            S21            S12            S22
! GHz     MAG   ANG      MAG   ANG      MAG   ANG      MAG   ANG
 0.030  0.6091  -14.4  45.358  171.5  0.0051   85.0  0.9510   -9.0
 0.035  0.6073  -16.8  45.134  170.0  0.0059   83.6  0.9478  -10.5
 0.040  0.6065  -19.2  44.941  168.5  0.0067   82.5  0.9452  -12.0
 0.045  0.6041  -21.3  44.605  166.9  0.0076   81.1  0.9410  -13.4
 0.050  0.6026  -23.5  44.303  165.3  0.0086   80.0  0.9374  -14.9
 0.055  0.5987  -26.1  44.051  164.1  0.0093   79.1  0.9320  -16.4
 0.060  0.5960  -28.7  43.819  162.9  0.0100   78.3  0.9273  -17.9
 0.065  0.5949  -31.0  43.629  161.5  0.0107   77.2  0.9212  -19.3
 0.070  0.5948  -33.3  43.467  160.0  0.0114   76.2  0.9156  -20.8
 0.075  0.5940  -35.4  43.101  158.9  0.0121   75.4  0.9089  -22.2
 0.080  0.5940  -37.6  42.751  157.8  0.0129   74.7  0.9027  -23.6
 0.085  0.5908  -39.9  42.374  156.5  0.0136   73.8  0.8951  -25.0
 0.090  0.5885  -42.2  42.019  155.2  0.0143   72.9  0.8881  -26.4
 0.095  0.5864  -44.1  41.546  154.1  0.0149   72.3  0.8807  -27.7
 0.100  0.5849  -46.1  41.088  153.0  0.0156   71.8  0.8737  -29.0
 0.105  0.5842  -48.2  40.751  151.9  0.0163   70.8  0.8653  -30.3
 0.110  0.5842  -50.3  40.430  150.7  0.0170   69.9  0.8574  -31.6
 0.115  0.5792  -52.3  40.016  149.5  0.0175   69.2  0.8493  -32.8
 0.120  0.5749  -54.4  39.619  148.3  0.0180   68.6  0.8415  -34.0
 0.125  0.5722  -56.3  39.195  147.3  0.0186   67.9  0.8327  -35.2
 0.130  0.5701  -58.3  38.783  146.3  0.0193   67.3  0.8242  -36.4
 0.135  0.5665  -60.2  38.391  145.3  0.0198   66.7  0.8156  -37.6
 0.140  0.5636  -62.1  38.011  144.2  0.0203   66.1  0.8073  -38.8
 0.145  0.5607  -63.9  37.526  143.2  0.0208   65.4  0.7985  -39.9
 0.150  0.5583  -65.8  37.054  142.1  0.0213   64.8  0.7900  -41.0
 0.155  0.5542  -67.3  36.618  141.3  0.0217   64.2  0.7808  -41.9
 0.160  0.5506  -68.9  36.188  140.5  0.0222   63.7  0.7717  -42.8
 0.165  0.5474  -70.5  35.766  139.7  0.0226   63.2  0.7628  -43.7
 0.170  0.5446  -72.1  35.351  138.9  0.0231   62.7  0.7542  -44.7
 0.175  0.5422  -73.7  34.944  138.0  0.0235   62.2  0.7458  -45.7
 0.180  0.5403  -75.4  34.544  137.2  0.0240   61.8  0.7376  -46.7
 0.185  0.5388  -77.0  34.153  136.3  0.0244   61.3  0.7296  -47.7
 0.190  0.5377  -78.7  33.770  135.4  0.0249   60.9  0.7218  -48.7
 0.195  0.5371  -80.3  33.395  134.5  0.0253   60.5  0.7143  -49.8
 0.200  0.5370  -82.0  33.030  133.5  0.0258   60.1  0.7071  -50.9
 0.220  0.5262  -87.3  31.495  130.9  0.0271   58.6  0.6758  -53.9
 0.240  0.5200  -92.7  30.033  128.0  0.0285   57.2  0.6465  -57.2
 0.260  0.5144  -97.7  28.679  125.4  0.0298   56.1  0.6192  -60.3
 0.280  0.5079 -102.1  27.400  123.1  0.0309   55.3  0.5932  -63.0
 0.300  0.5046 -106.6  26.167  120.7  0.0320   54.5  0.5686  -65.9
 0.320  0.4985 -110.3  25.069  118.9  0.0330   54.0  0.5465  -68.1
 0.340  0.4945 -114.1  23.997  117.0  0.0340   53.4  0.5253  -70.4
 0.360  0.4907 -117.6  23.012  115.3  0.0349   53.0  0.5058  -72.6
 0.380  0.4867 -120.7  22.103  113.8  0.0358   52.7  0.4879  -74.6
 0.400  0.4842 -123.9  21.211  112.1  0.0367   52.4  0.4706  -76.8
 0.420  0.4809 -126.6  20.433  110.8  0.0375   52.2  0.4554  -78.4
 0.440  0.4787 -129.4  19.667  109.4  0.0383   52.1  0.4406  -80.2
 0.450  0.4780 -130.8  19.288  108.7  0.0387   52.0  0.4333  -81.1
 0.460  0.4767 -131.9  18.962  108.2  0.0391   52.0  0.4269  -81.9
 0.480  0.4746 -134.2  18.315  107.1  0.0399   52.0  0.4143  -83.4
 0.500  0.4733 -136.5  17.675  105.9  0.0407   52.0  0.4021  -85.1
 0.520  0.4711 -138.4  17.147  105.0  0.0415   52.1  0.3919  -86.3
 0.540  0.4694 -140.4  16.624  104.1  0.0422   52.1  0.3819  -87.6
 0.560  0.4682 -142.4  16.105  103.1  0.0430   52.2  0.3721  -89.0
 0.580  0.4676 -144.3  15.592  102.0  0.0437   52.2  0.3625  -90.4
 0.600  0.4676 -146.3  15.084  100.9  0.0445   52.3  0.3532  -91.9
 0.620  0.4662 -147.8  14.687  100.2  0.0453   52.4  0.3458  -93.0
 0.640  0.4651 -149.4  14.293   99.4  0.0460   52.5  0.3385  -94.1
 0.660  0.4644 -151.0  13.901   98.6  0.0468   52.6  0.3314  -95.3
 0.680  0.4640 -152.5  13.513   97.8  0.0475   52.7  0.3243  -96.5
 0.700  0.4640 -154.1  13.127   96.9  0.0483   52.8  0.3175  -97.8
 0.720  0.4634 -155.4  12.820   96.3  0.0491   52.9  0.3119  -98.7
 0.740  0.4631 -156.7  12.515   95.6  0.0499   53.0  0.3065  -99.7
 0.760  0.4630 -158.0  12.212   95.0  0.0507   53.1  0.3011 -100.8
 0.780  0.4631 -159.3  11.911   94.2  0.0515   53.2  0.2958 -101.8
 0.800  0.4635 -160.6  11.611   93.5  0.0523   53.3  0.2906 -102.9
 0.820  0.4631 -161.7  11.369   93.0  0.0531   53.4  0.2864 -103.7
 0.840  0.4628 -162.8  11.127   92.4  0.0539   53.6  0.2822 -104.6
 0.860  0.4626 -163.8  10.887   91.8  0.0546   53.7  0.2782 -105.5
 0.880  0.4627 -164.9  10.649   91.2  0.0554   53.8  0.2741 -106.4
 0.900  0.4629 -166.0  10.411   90.5  0.0562   53.9  0.2702 -107.4
 0.920  0.4626 -167.0  10.212   90.0  0.0570   54.0  0.2669 -108.2
 0.940  0.4624 -168.0  10.015   89.5  0.0578   54.1  0.2637 -109.0
 0.960  0.4624 -168.9   9.818   89.0  0.0586   54.1  0.2606 -109.8
 0.980  0.4625 -169.9   9.621   88.5  0.0594   54.2  0.2575 -110.6
 1.000  0.4627 -170.9   9.426   87.9  0.0602   54.3  0.2544 -111.5
 1.020  0.4627 -171.8   9.261   87.4  0.0610   54.4  0.2519 -112.2
 1.040  0.4627 -172.6   9.096   87.0  0.0618   54.4  0.2494 -113.0
 1.060  0.4629 -173.5   8.933   86.5  0.0627   54.5  0.2469 -113.7
 1.080  0.4632 -174.3   8.769   85.9  0.0635   54.5  0.2446 -114.5
 1.100  0.4636 -175.2   8.607   85.4  0.0643   54.6  0.2422 -115.3
 1.120  0.4636 -176.0   8.469   85.0  0.0651   54.6  0.2402 -116.0
 1.140  0.4636 -176.8   8.331   84.5  0.0660   54.7  0.2382 -116.6
 1.160  0.4637 -177.6   8.194   84.1  0.0668   54.7  0.2362 -117.3
 1.180  0.4640 -178.4   8.058   83.6  0.0677   54.8  0.2343 -118.0
 1.200  0.4643 -179.2   7.922   83.1  0.0685   54.8  0.2324 -118.7
 1.220  0.4646 -179.9   7.803   82.7  0.0693   54.8  0.2308 -119.3
 1.240  0.4649  179.4   7.685   82.3  0.0702   54.8  0.2293 -120.0
 1.260  0.4654  178.7   7.567   81.8  0.0710   54.9  0.2278 -120.6
 1.280  0.4658  178.0   7.450   81.4  0.0719   54.9  0.2263 -121.2
 1.300  0.4664  177.3   7.333   80.9  0.0727   54.9  0.2249 -121.9
 1.320  0.4666  176.6   7.231   80.5  0.0735   54.9  0.2235 -122.5
 1.340  0.4669  175.9   7.130   80.1  0.0744   54.9  0.2222 -123.1
 1.360  0.4672  175.3   7.029   79.7  0.0752   54.9  0.2209 -123.7
 1.380  0.4676  174.6   6.928   79.2  0.0761   54.9  0.2196 -124.3
 1.400  0.4681  173.9   6.828   78.8  0.0769   54.9  0.2183 -124.9
 1.420  0.4685  173.3   6.739   78.4  0.0777   54.9  0.2173 -125.4
 1.440  0.4689  172.7   6.651   78.0  0.0786   54.9  0.2164 -126.0
 1.460  0.4694  172.0   6.563   77.6  0.0794   54.8  0.2155 -126.5
 1.480  0.4699  171.4   6.475   77.2  0.0803   54.8  0.2146 -127.1
 1.500  0.4705  170.8   6.388   76.8  0.0811   54.8  0.2137 -127.6
 1.520  0.4708  170.2   6.310   76.4  0.0820   54.8  0.2128 -128.1
 1.540  0.4712  169.6   6.232   76.1  0.0828   54.7  0.2120 -128.7
 1.560  0.4717  168.9   6.154   75.7  0.0837   54.7  0.2112 -129.2
 1.580  0.4721  168.3   6.077   75.3  0.0845   54.6  0.2104 -129.8
 1.600  0.4727  167.7   6.000   74.9  0.0854   54.6  0.2096 -130.3
 1.620  0.4730  167.2   5.932   74.5  0.0863   54.5  0.2090 -130.8
 1.640  0.4734  166.6   5.864   74.2  0.0871   54.5  0.2084 -131.3
 1.660  0.4738  166.1   5.796   73.8  0.0880   54.4  0.2078 -131.8
 1.680  0.4742  165.5   5.728   73.4  0.0888   54.4  0.2072 -132.3
 1.700  0.4747  165.0   5.661   73.0  0.0897   54.3  0.2066 -132.8
 1.720  0.4752  164.5   5.599   72.7  0.0906   54.2  0.2061 -133.3
 1.740  0.4758  163.9   5.537   72.3  0.0914   54.2  0.2056 -133.8
 1.760  0.4764  163.4   5.476   71.9  0.0923   54.1  0.2051 -134.3
 1.780  0.4770  162.8   5.414   71.6  0.0931   54.1  0.2046 -134.8
 1.800  0.4777  162.3   5.353   71.2  0.0940   54.0  0.2042 -135.3
 1.820  0.4783  161.8   5.299   70.9  0.0949   53.9  0.2038 -135.8
 1.840  0.4789  161.2   5.245   70.5  0.0957   53.8  0.2034 -136.3
 1.860  0.4796  160.7   5.191   70.1  0.0966   53.8  0.2030 -136.7
 1.880  0.4803  160.1   5.137   69.8  0.0974   53.7  0.2027 -137.2
 1.900  0.4811  159.6   5.084   69.4  0.0983   53.6  0.2023 -137.7
 1.920  0.4816  159.1   5.034   69.0  0.0991   53.5  0.2020 -138.2
 1.940  0.4821  158.6   4.984   68.7  0.1000   53.4  0.2018 -138.6
 1.960  0.4827  158.0   4.935   68.3  0.1008   53.3  0.2015 -139.1
 1.980  0.4833  157.5   4.885   67.9  0.1017   53.2  0.2013 -139.5
 2.000  0.4839  157.0   4.836   67.5  0.1025   53.1  0.2011 -140.0
 2.020  0.4845  156.5   4.792   67.2  0.1033   53.0  0.2009 -140.5
 2.040  0.4852  156.0   4.748   66.9  0.1042   52.9  0.2008 -141.0
 2.060  0.4859  155.5   4.704   66.5  0.1050   52.8  0.2007 -141.5
 2.080  0.4866  155.1   4.661   66.2  0.1059   52.6  0.2006 -142.0
 2.100  0.4874  154.6   4.617   65.8  0.1067   52.5  0.2005 -142.4
 2.120  0.4882  154.1   4.574   65.5  0.1076   52.4  0.2004 -142.9
 2.140  0.4890  153.6   4.531   65.1  0.1084   52.3  0.2003 -143.4
 2.160  0.4899  153.1   4.488   64.8  0.1093   52.2  0.2003 -143.9
 2.180  0.4908  152.7   4.445   64.4  0.1101   52.1  0.2002 -144.4
 2.200  0.4917  152.2   4.403   64.0  0.1110   52.0  0.2002 -144.9
 2.220  0.4925  151.7   4.366   63.7  0.1118   51.9  0.2002 -145.4
 2.240  0.4933  151.3   4.330   63.4  0.1127   51.7  0.2003 -145.9
 2.260  0.4941  150.8   4.293   63.0  0.1135   51.6  0.2004 -146.4
 2.280  0.4949  150.4   4.257   62.7  0.1143   51.5  0.2005 -146.9
 2.300  0.4958  149.9   4.221   62.4  0.1151   51.4  0.2006 -147.4
 2.320  0.4967  149.5   4.185   62.0  0.1160   51.3  0.2007 -147.8
 2.340  0.4977  149.0   4.149   61.7  0.1168   51.1  0.2008 -148.3
 2.360  0.4987  148.6   4.113   61.3  0.1176   51.0  0.2010 -148.8
 2.380  0.4997  148.1   4.077   61.0  0.1185   50.9  0.2011 -149.3
 2.400  0.5007  147.7   4.042   60.6  0.1193   50.8  0.2013 -149.8
 2.420  0.5015  147.3   4.010   60.3  0.1201   50.7  0.2016 -150.3
 2.440  0.5023  146.8   3.979   60.0  0.1209   50.5  0.2019 -150.8
 2.460  0.5031  146.4   3.947   59.7  0.1218   50.4  0.2022 -151.3
 2.480  0.5040  146.0   3.916   59.3  0.1226   50.3  0.2025 -151.7
 2.500  0.5049  145.6   3.884   59.0  0.1234   50.1  0.2028 -152.2
 2.520  0.5058  145.2   3.853   58.7  0.1242   50.0  0.2032 -152.7
 2.540  0.5067  144.7   3.822   58.3  0.1250   49.9  0.2035 -153.2
 2.560  0.5077  144.3   3.791   58.0  0.1259   49.7  0.2039 -153.7
 2.580  0.5087  143.9   3.761   57.7  0.1267   49.6  0.2043 -154.1
 2.600  0.5097  143.5   3.730   57.3  0.1275   49.5  0.2047 -154.6
 2.620  0.5106  143.1   3.703   57.0  0.1283   49.3  0.2052 -155.0
 2.640  0.5115  142.7   3.676   56.7  0.1291   49.2  0.2057 -155.5
 2.660  0.5124  142.3   3.649   56.4  0.1299   49.0  0.2062 -155.9
 2.680  0.5134  141.9   3.622   56.1  0.1306   48.9  0.2067 -156.4
 2.700  0.5144  141.5   3.595   55.8  0.1314   48.7  0.2072 -156.8
 2.720  0.5154  141.1   3.568   55.4  0.1322   48.6  0.2077 -157.3
 2.740  0.5164  140.7   3.542   55.1  0.1330   48.4  0.2083 -157.7
 2.760  0.5175  140.3   3.515   54.8  0.1338   48.3  0.2088 -158.1
 2.780  0.5186  139.9   3.489   54.4  0.1346   48.1  0.2094 -158.6
 2.800  0.5197  139.5   3.463   54.1  0.1354   48.0  0.2100 -159.0
 2.820  0.5205  139.1   3.439   53.8  0.1362   47.9  0.2106 -159.4
 2.840  0.5214  138.7   3.415   53.5  0.1369   47.7  0.2112 -159.9
 2.860  0.5223  138.4   3.391   53.2  0.1377   47.6  0.2118 -160.3
 2.880  0.5232  138.0   3.368   52.9  0.1385   47.4  0.2124 -160.8
 2.900  0.5241  137.6   3.344   52.6  0.1392   47.3  0.2130 -161.2
 2.920  0.5251  137.3   3.321   52.3  0.1400   47.1  0.2136 -161.6
 2.940  0.5261  136.9   3.297   52.0  0.1408   47.0  0.2143 -162.0
 2.960  0.5270  136.5   3.274   51.7  0.1416   46.9  0.2149 -162.5
 2.980  0.5281  136.2   3.251   51.3  0.1423   46.7  0.2156 -162.9
 3.000  0.5291  135.8   3.228   51.0  0.1431   46.6  0.2163 -163.3
 3.100  0.5334  134.0   3.130   49.7  0.1467   45.7  0.2196 -165.3
 3.200  0.5383  132.2   3.033   48.3  0.1504   44.9  0.2231 -167.2
 3.300  0.5436  130.5   2.939   46.8  0.1541   44.1  0.2269 -169.0
 3.400  0.5495  128.8   2.846   45.2  0.1578   43.3  0.2309 -170.8
 3.500  0.5558  127.1   2.756   43.5  0.1616   42.6  0.2351 -172.5
 3.600  0.5610  125.5   2.681   42.3  0.1649   41.7  0.2392 -174.5
 3.700  0.5667  123.9   2.607   40.9  0.1681   40.9  0.2435 -176.4
 3.800  0.5728  122.4   2.535   39.5  0.1715   40.1  0.2481 -178.3
 3.900  0.5792  120.9   2.465   38.1  0.1748   39.3  0.2530  179.9
 4.000  0.5861  119.4   2.396   36.5  0.1782   38.6  0.2581  178.2
 4.100  0.5915  118.1   2.336   35.3  0.1811   37.8  0.2636  176.4
 4.200  0.5972  116.8   2.278   34.1  0.1841   37.1  0.2693  174.7
 4.300  0.6031  115.5   2.220   32.7  0.1871   36.4  0.2752  173.1
 4.400  0.6094  114.2   2.164   31.4  0.1901   35.7  0.2813  171.5
 4.500  0.6160  113.0   2.109   29.9  0.1931   35.0  0.2877  170.0
 4.600  0.6201  111.8   2.063   28.8  0.1960   34.3  0.2922  168.7
 4.700  0.6245  110.7   2.017   27.7  0.1989   33.7  0.2968  167.5
 4.800  0.6292  109.5   1.972   26.5  0.2018   33.0  0.3015  166.3
 4.900  0.6341  108.4   1.928   25.2  0.2048   32.4  0.3063  165.2
 5.000  0.6392  107.3   1.885   23.9  0.2078   31.8  0.3113  164.1
 5.100  0.6421  106.3   1.849   22.9  0.2109   31.1  0.3143  163.2
 5.200  0.6451  105.4   1.814   21.8  0.2141   30.3  0.3173  162.2
 5.300  0.6484  104.4   1.780   20.7  0.2173   29.6  0.3204  161.3
 5.400  0.6518  103.4   1.746   19.6  0.2205   29.0  0.3236  160.5
 5.500  0.6554  102.5   1.713   18.4  0.2238   28.3  0.3269  159.6
 5.600  0.6575  101.7   1.685   17.4  0.2267   27.5  0.3304  158.8
 5.700  0.6598  100.9   1.657   16.3  0.2296   26.7  0.3339  157.9
 5.800  0.6622  100.1   1.630   15.2  0.2326   26.0  0.3376  157.1
 5.900  0.6647   99.3   1.604   14.0  0.2356   25.2  0.3413  156.4
 6.000  0.6673   98.5   1.578   12.8  0.2387   24.5  0.3450  155.6
 6.100  0.6677   97.7   1.554   11.8  0.2412   23.7  0.3474  155.0
 6.200  0.6683   96.9   1.530   10.8  0.2438   23.0  0.3499  154.5
 6.300  0.6690   96.1   1.507    9.7  0.2464   22.3  0.3523  154.0
 6.400  0.6698   95.3   1.484    8.6  0.2491   21.6  0.3549  153.4
 6.500  0.6708   94.5   1.462    7.5  0.2518   20.9  0.3574  152.9
 6.600  0.6702   93.6   1.444    6.5  0.2547   20.2  0.3570  152.5
 6.800  0.6695   91.7   1.408    4.6  0.2607   18.9  0.3562  151.8
 7.000  0.6695   89.8   1.374    2.5  0.2668   17.6  0.3555  151.0
 7.200  0.6714   87.6   1.345    0.4  0.2732   16.0  0.3550  149.5
 7.400  0.6742   85.4   1.318   -1.8  0.2799   14.4  0.3547  148.0
 7.600  0.6783   83.0   1.291   -4.1  0.2862   12.7  0.3564  146.1
 7.800  0.6839   80.5   1.265   -6.5  0.2922   10.9  0.3602  143.8
 8.000  0.6907   78.1   1.241   -9.1  0.2985    9.1  0.3645  141.6
 8.200  0.6961   75.5   1.209  -11.5  0.3026    7.0  0.3689  138.7
 8.400  0.7029   72.9   1.179  -14.0  0.3070    4.9  0.3742  136.0
 8.600  0.7121   70.4   1.148  -16.4  0.3098    2.9  0.3809  132.5
 8.800  0.7235   68.1   1.116  -18.7  0.3109    0.8  0.3898  128.5
 9.000  0.7360   65.8   1.085  -21.1  0.3124   -1.3  0.4005  124.7
 9.200  0.7521   63.9   1.049  -23.0  0.3113   -2.9  0.4172  120.2
 9.400  0.7689   62.2   1.015  -25.0  0.3104   -4.5  0.4362  116.1
 9.600  0.7839   60.5   0.981  -26.7  0.3093   -5.8  0.4558  112.5
 9.800  0.7968   59.0   0.948  -28.1  0.3080   -6.7  0.4754  109.3
10.000  0.8103   57.5   0.916  -29.7  0.3067   -7.7  0.4964  106.4
!
!  f       NFmin   Gammaopt  rn/50
! GHz       dB    MAG  ANG    -
 0.450      1.24  0.07 -176   0.13
 0.900      1.26  0.04  175   0.15
 1.900      1.38  0.18 -150   0.12
 3.500      1.34  0.41 -125   0.15
!
! (c) 2016  Infineon Technologies AG, Munich
