! Infineon Technologies  Discrete & RF Semiconductors
! BFP460
! VCE =  3.0 V,  IC =  4.0 mA
! Common Emitter S-Parameters:                            Jan 2016
# GHz  S  MA  R  50
!  f         S11            S21            S12            S22
! GHz     MAG   ANG      MAG   ANG      MAG   ANG      MAG   ANG
 0.030  0.8958   -4.8  13.430  176.4  0.0060   87.0  0.9912   -3.5
 0.035  0.8955   -5.6  13.420  175.7  0.0069   86.5  0.9905   -4.0
 0.040  0.8954   -6.5  13.413  175.0  0.0079   86.1  0.9899   -4.5
 0.045  0.8946   -7.2  13.366  174.3  0.0088   85.6  0.9890   -4.8
 0.050  0.8939   -8.0  13.321  173.6  0.0097   85.2  0.9882   -5.2
 0.055  0.8939   -9.0  13.316  173.2  0.0108   84.6  0.9876   -5.7
 0.060  0.8941   -9.9  13.311  172.7  0.0120   84.2  0.9871   -6.3
 0.065  0.8936  -10.7  13.354  172.0  0.0129   83.6  0.9861   -6.8
 0.070  0.8932  -11.6  13.399  171.4  0.0139   83.1  0.9852   -7.4
 0.075  0.8928  -12.4  13.365  171.1  0.0148   82.7  0.9842   -7.9
 0.080  0.8925  -13.2  13.331  170.7  0.0157   82.3  0.9832   -8.4
 0.085  0.8917  -14.0  13.318  170.1  0.0167   81.9  0.9818   -8.9
 0.090  0.8911  -14.8  13.306  169.5  0.0177   81.6  0.9804   -9.5
 0.095  0.8888  -15.6  13.254  169.0  0.0186   81.0  0.9792  -10.0
 0.100  0.8866  -16.4  13.204  168.4  0.0195   80.5  0.9780  -10.5
 0.105  0.8874  -17.2  13.199  167.9  0.0205   80.2  0.9764  -11.0
 0.110  0.8884  -18.0  13.196  167.4  0.0215   79.9  0.9749  -11.5
 0.115  0.8852  -18.9  13.182  166.8  0.0225   79.3  0.9733  -12.0
 0.120  0.8823  -19.8  13.170  166.2  0.0235   78.8  0.9718  -12.6
 0.125  0.8810  -20.5  13.149  165.7  0.0244   78.4  0.9699  -13.0
 0.130  0.8799  -21.2  13.130  165.2  0.0253   78.0  0.9680  -13.5
 0.135  0.8790  -22.0  13.112  164.6  0.0262   77.5  0.9664  -14.0
 0.140  0.8783  -22.9  13.096  163.9  0.0271   77.0  0.9649  -14.5
 0.145  0.8772  -23.7  13.050  163.3  0.0280   76.6  0.9629  -15.0
 0.150  0.8762  -24.5  13.006  162.7  0.0290   76.3  0.9610  -15.6
 0.155  0.8737  -25.3  12.973  162.2  0.0299   75.8  0.9585  -16.1
 0.160  0.8714  -26.0  12.941  161.7  0.0307   75.3  0.9561  -16.5
 0.165  0.8692  -26.8  12.910  161.2  0.0316   74.8  0.9537  -17.0
 0.170  0.8672  -27.5  12.881  160.6  0.0325   74.4  0.9514  -17.5
 0.175  0.8653  -28.3  12.852  160.1  0.0333   73.9  0.9491  -18.0
 0.180  0.8636  -29.1  12.824  159.6  0.0342   73.5  0.9469  -18.5
 0.185  0.8621  -29.9  12.797  159.1  0.0351   73.1  0.9448  -18.9
 0.190  0.8607  -30.6  12.772  158.6  0.0359   72.8  0.9428  -19.4
 0.195  0.8595  -31.4  12.747  158.0  0.0368   72.4  0.9408  -19.9
 0.200  0.8584  -32.2  12.724  157.5  0.0377   72.1  0.9389  -20.4
 0.220  0.8490  -35.2  12.567  155.5  0.0409   70.3  0.9279  -22.2
 0.240  0.8420  -38.3  12.426  153.4  0.0442   68.8  0.9179  -24.1
 0.260  0.8345  -41.2  12.270  151.5  0.0473   67.3  0.9070  -25.9
 0.280  0.8261  -44.1  12.099  149.6  0.0503   65.7  0.8950  -27.6
 0.300  0.8199  -47.0  11.942  147.6  0.0533   64.4  0.8838  -29.4
 0.320  0.8097  -49.8  11.761  145.8  0.0559   62.9  0.8709  -31.0
 0.340  0.8013  -52.6  11.592  144.0  0.0586   61.6  0.8588  -32.7
 0.360  0.7926  -55.3  11.418  142.3  0.0611   60.3  0.8464  -34.2
 0.380  0.7832  -57.9  11.237  140.6  0.0635   59.0  0.8335  -35.7
 0.400  0.7755  -60.5  11.066  138.8  0.0659   57.8  0.8212  -37.2
 0.420  0.7652  -63.0  10.876  137.2  0.0680   56.6  0.8085  -38.6
 0.440  0.7564  -65.5  10.695  135.5  0.0701   55.4  0.7963  -40.1
 0.450  0.7525  -66.8  10.608  134.7  0.0712   54.9  0.7904  -40.8
 0.460  0.7476  -68.0  10.517  134.0  0.0721   54.4  0.7840  -41.4
 0.480  0.7387  -70.4  10.340  132.6  0.0740   53.3  0.7713  -42.6
 0.500  0.7311  -72.8  10.170  131.1  0.0759   52.3  0.7591  -43.9
 0.520  0.7210  -74.9   9.991  129.8  0.0774   51.3  0.7469  -45.0
 0.540  0.7120  -77.1   9.817  128.4  0.0790   50.4  0.7351  -46.1
 0.560  0.7040  -79.4   9.648  127.0  0.0806   49.5  0.7235  -47.3
 0.580  0.6971  -81.7   9.486  125.6  0.0822   48.6  0.7122  -48.5
 0.600  0.6914  -84.0   9.330  124.1  0.0838   47.8  0.7013  -49.8
 0.620  0.6829  -85.9   9.168  123.0  0.0850   47.0  0.6903  -50.7
 0.640  0.6751  -87.9   9.010  121.8  0.0863   46.2  0.6795  -51.7
 0.660  0.6682  -89.9   8.856  120.6  0.0876   45.5  0.6689  -52.7
 0.680  0.6621  -91.9   8.706  119.4  0.0889   44.7  0.6586  -53.7
 0.700  0.6568  -94.0   8.560  118.1  0.0902   44.0  0.6484  -54.8
 0.720  0.6498  -95.8   8.416  117.1  0.0912   43.4  0.6387  -55.6
 0.740  0.6433  -97.5   8.274  116.1  0.0921   42.7  0.6292  -56.4
 0.760  0.6376  -99.4   8.135  115.0  0.0931   42.1  0.6198  -57.3
 0.780  0.6324 -101.2   7.999  113.9  0.0941   41.5  0.6106  -58.2
 0.800  0.6280 -103.1   7.866  112.8  0.0951   40.9  0.6015  -59.1
 0.820  0.6223 -104.7   7.744  111.9  0.0959   40.4  0.5931  -59.8
 0.840  0.6170 -106.3   7.624  111.0  0.0967   39.9  0.5848  -60.6
 0.860  0.6123 -108.0   7.506  110.1  0.0975   39.4  0.5767  -61.3
 0.880  0.6081 -109.7   7.389  109.2  0.0984   38.9  0.5686  -62.1
 0.900  0.6044 -111.4   7.275  108.2  0.0992   38.4  0.5606  -62.9
 0.920  0.5994 -112.9   7.165  107.4  0.0999   38.0  0.5534  -63.5
 0.940  0.5948 -114.4   7.056  106.6  0.1006   37.6  0.5463  -64.2
 0.960  0.5906 -115.9   6.948  105.7  0.1013   37.2  0.5392  -64.8
 0.980  0.5868 -117.4   6.842  104.8  0.1020   36.8  0.5322  -65.5
 1.000  0.5835 -119.0   6.738  103.9  0.1027   36.4  0.5253  -66.2
 1.020  0.5796 -120.4   6.641  103.2  0.1033   36.0  0.5190  -66.8
 1.040  0.5760 -121.8   6.546  102.4  0.1038   35.7  0.5128  -67.4
 1.060  0.5728 -123.2   6.452  101.6  0.1044   35.3  0.5066  -68.0
 1.080  0.5699 -124.6   6.359  100.8  0.1050   35.0  0.5005  -68.6
 1.100  0.5674 -126.0   6.267  100.0  0.1056   34.6  0.4944  -69.3
 1.120  0.5640 -127.3   6.182   99.3  0.1061   34.3  0.4888  -69.8
 1.140  0.5609 -128.6   6.099   98.6  0.1066   34.0  0.4833  -70.4
 1.160  0.5580 -129.9   6.016   97.9  0.1071   33.8  0.4779  -70.9
 1.180  0.5555 -131.2   5.934   97.2  0.1076   33.5  0.4725  -71.5
 1.200  0.5532 -132.5   5.853   96.4  0.1081   33.2  0.4671  -72.1
 1.220  0.5508 -133.7   5.778   95.8  0.1086   33.0  0.4624  -72.6
 1.240  0.5487 -134.9   5.704   95.1  0.1090   32.7  0.4577  -73.1
 1.260  0.5468 -136.1   5.631   94.5  0.1095   32.5  0.4530  -73.6
 1.280  0.5451 -137.4   5.558   93.8  0.1099   32.2  0.4484  -74.1
 1.300  0.5437 -138.6   5.486   93.1  0.1104   32.0  0.4438  -74.6
 1.320  0.5416 -139.7   5.419   92.5  0.1108   31.8  0.4395  -75.0
 1.340  0.5397 -140.8   5.353   91.9  0.1112   31.6  0.4353  -75.5
 1.360  0.5380 -141.9   5.288   91.3  0.1117   31.4  0.4311  -76.0
 1.380  0.5366 -143.1   5.223   90.7  0.1121   31.2  0.4269  -76.4
 1.400  0.5353 -144.2   5.159   90.0  0.1125   31.0  0.4227  -76.9
 1.420  0.5336 -145.3   5.100   89.4  0.1129   30.8  0.4191  -77.3
 1.440  0.5321 -146.4   5.041   88.8  0.1133   30.6  0.4154  -77.8
 1.460  0.5308 -147.5   4.982   88.2  0.1137   30.5  0.4118  -78.2
 1.480  0.5297 -148.6   4.924   87.6  0.1141   30.3  0.4083  -78.6
 1.500  0.5288 -149.7   4.867   87.0  0.1145   30.1  0.4047  -79.1
 1.520  0.5274 -150.7   4.813   86.5  0.1148   30.0  0.4013  -79.5
 1.540  0.5262 -151.7   4.759   85.9  0.1152   29.9  0.3979  -80.0
 1.560  0.5252 -152.7   4.706   85.4  0.1155   29.7  0.3945  -80.4
 1.580  0.5243 -153.7   4.653   84.8  0.1159   29.6  0.3911  -80.8
 1.600  0.5236 -154.7   4.601   84.2  0.1162   29.5  0.3878  -81.3
 1.620  0.5225 -155.6   4.554   83.7  0.1165   29.4  0.3849  -81.7
 1.640  0.5215 -156.6   4.507   83.2  0.1169   29.2  0.3820  -82.0
 1.660  0.5207 -157.5   4.461   82.6  0.1172   29.1  0.3792  -82.4
 1.680  0.5200 -158.5   4.415   82.1  0.1176   28.9  0.3763  -82.8
 1.700  0.5195 -159.4   4.369   81.5  0.1179   28.8  0.3735  -83.2
 1.720  0.5189 -160.3   4.325   81.0  0.1183   28.7  0.3709  -83.6
 1.740  0.5185 -161.2   4.282   80.5  0.1186   28.6  0.3684  -84.0
 1.760  0.5182 -162.1   4.239   80.0  0.1190   28.5  0.3658  -84.4
 1.780  0.5180 -163.0   4.196   79.5  0.1193   28.4  0.3633  -84.8
 1.800  0.5180 -163.9   4.154   79.0  0.1197   28.3  0.3608  -85.2
 1.820  0.5174 -164.8   4.115   78.5  0.1200   28.2  0.3584  -85.6
 1.840  0.5170 -165.6   4.077   78.0  0.1203   28.1  0.3560  -85.9
 1.860  0.5167 -166.5   4.039   77.5  0.1207   28.0  0.3536  -86.3
 1.880  0.5165 -167.3   4.001   77.0  0.1210   27.9  0.3512  -86.7
 1.900  0.5164 -168.2   3.964   76.5  0.1213   27.8  0.3489  -87.1
 1.920  0.5161 -169.0   3.928   76.0  0.1216   27.7  0.3468  -87.5
 1.940  0.5158 -169.8   3.892   75.5  0.1220   27.6  0.3447  -87.8
 1.960  0.5157 -170.6   3.856   75.0  0.1223   27.6  0.3426  -88.2
 1.980  0.5156 -171.4   3.821   74.5  0.1227   27.5  0.3405  -88.6
 2.000  0.5157 -172.2   3.786   74.0  0.1230   27.4  0.3384  -89.0
 2.020  0.5155 -173.0   3.753   73.6  0.1233   27.3  0.3365  -89.4
 2.040  0.5154 -173.8   3.721   73.1  0.1236   27.3  0.3346  -89.7
 2.060  0.5154 -174.5   3.689   72.7  0.1240   27.2  0.3327  -90.1
 2.080  0.5154 -175.3   3.657   72.3  0.1243   27.1  0.3308  -90.5
 2.100  0.5156 -176.1   3.626   71.8  0.1246   27.0  0.3289  -90.9
 2.120  0.5159 -176.9   3.594   71.3  0.1249   27.0  0.3271  -91.3
 2.140  0.5162 -177.7   3.563   70.9  0.1252   26.9  0.3252  -91.7
 2.160  0.5167 -178.4   3.532   70.4  0.1256   26.8  0.3234  -92.1
 2.180  0.5173 -179.2   3.501   69.9  0.1259   26.8  0.3216  -92.5
 2.200  0.5179  180.0   3.471   69.4  0.1262   26.7  0.3198  -92.9
 2.220  0.5179  179.3   3.444   69.0  0.1265   26.6  0.3181  -93.3
 2.240  0.5181  178.6   3.416   68.6  0.1268   26.6  0.3165  -93.7
 2.260  0.5183  177.8   3.389   68.1  0.1272   26.5  0.3149  -94.1
 2.280  0.5186  177.1   3.362   67.7  0.1275   26.5  0.3133  -94.5
 2.300  0.5189  176.4   3.335   67.2  0.1278   26.4  0.3117  -94.9
 2.320  0.5194  175.7   3.309   66.8  0.1281   26.4  0.3101  -95.3
 2.340  0.5199  174.9   3.283   66.3  0.1284   26.3  0.3086  -95.7
 2.360  0.5205  174.2   3.257   65.9  0.1288   26.3  0.3070  -96.1
 2.380  0.5212  173.5   3.231   65.4  0.1291   26.2  0.3055  -96.6
 2.400  0.5220  172.8   3.205   64.9  0.1294   26.2  0.3040  -97.0
 2.420  0.5224  172.1   3.181   64.5  0.1297   26.1  0.3027  -97.4
 2.440  0.5228  171.5   3.157   64.1  0.1300   26.1  0.3013  -97.8
 2.460  0.5233  170.8   3.134   63.7  0.1304   26.0  0.3000  -98.3
 2.480  0.5239  170.2   3.110   63.3  0.1307   26.0  0.2987  -98.7
 2.500  0.5246  169.5   3.087   62.9  0.1310   25.9  0.2974  -99.1
 2.520  0.5253  168.9   3.064   62.5  0.1313   25.8  0.2962  -99.5
 2.540  0.5261  168.2   3.041   62.0  0.1316   25.8  0.2949 -100.0
 2.560  0.5269  167.6   3.018   61.6  0.1320   25.7  0.2937 -100.4
 2.580  0.5278  166.9   2.995   61.1  0.1323   25.7  0.2925 -100.9
 2.600  0.5288  166.3   2.973   60.7  0.1326   25.6  0.2913 -101.3
 2.620  0.5292  165.7   2.952   60.3  0.1329   25.6  0.2903 -101.7
 2.640  0.5297  165.1   2.932   59.9  0.1332   25.5  0.2892 -102.2
 2.660  0.5303  164.5   2.911   59.5  0.1335   25.5  0.2882 -102.6
 2.680  0.5309  163.8   2.891   59.1  0.1338   25.4  0.2872 -103.0
 2.700  0.5315  163.2   2.871   58.7  0.1341   25.4  0.2862 -103.5
 2.720  0.5323  162.6   2.851   58.3  0.1345   25.4  0.2853 -103.9
 2.740  0.5331  162.0   2.831   57.9  0.1348   25.3  0.2843 -104.3
 2.760  0.5339  161.4   2.811   57.5  0.1351   25.3  0.2834 -104.8
 2.780  0.5348  160.8   2.791   57.0  0.1354   25.2  0.2825 -105.2
 2.800  0.5358  160.2   2.772   56.6  0.1357   25.2  0.2816 -105.7
 2.820  0.5364  159.6   2.753   56.2  0.1360   25.2  0.2808 -106.1
 2.840  0.5370  159.1   2.735   55.9  0.1363   25.1  0.2799 -106.6
 2.860  0.5377  158.5   2.717   55.5  0.1367   25.1  0.2791 -107.0
 2.880  0.5385  157.9   2.699   55.1  0.1370   25.1  0.2784 -107.5
 2.900  0.5393  157.4   2.680   54.7  0.1373   25.0  0.2776 -107.9
 2.920  0.5402  156.8   2.663   54.3  0.1376   25.0  0.2768 -108.4
 2.940  0.5411  156.3   2.645   53.9  0.1379   25.0  0.2761 -108.8
 2.960  0.5420  155.7   2.627   53.5  0.1383   25.0  0.2754 -109.3
 2.980  0.5430  155.2   2.609   53.1  0.1386   24.9  0.2747 -109.7
 3.000  0.5441  154.6   2.592   52.7  0.1389   24.9  0.2740 -110.2
 3.100  0.5468  152.0   2.514   51.1  0.1405   24.7  0.2713 -112.3
 3.200  0.5506  149.5   2.438   49.3  0.1421   24.5  0.2689 -114.5
 3.300  0.5554  147.0   2.365   47.5  0.1437   24.3  0.2670 -116.7
 3.400  0.5613  144.5   2.294   45.5  0.1453   24.1  0.2654 -118.9
 3.500  0.5682  142.1   2.226   43.4  0.1469   23.9  0.2643 -121.2
 3.600  0.5726  139.9   2.166   41.9  0.1485   23.7  0.2628 -123.5
 3.700  0.5778  137.7   2.107   40.3  0.1502   23.6  0.2617 -125.8
 3.800  0.5838  135.5   2.051   38.6  0.1518   23.4  0.2610 -128.2
 3.900  0.5907  133.4   1.996   36.8  0.1535   23.3  0.2608 -130.5
 4.000  0.5983  131.4   1.943   34.9  0.1551   23.1  0.2610 -132.9
 4.100  0.6031  129.6   1.895   33.5  0.1568   23.0  0.2620 -135.3
 4.200  0.6086  127.9   1.847   32.0  0.1585   22.8  0.2635 -137.7
 4.300  0.6145  126.1   1.801   30.4  0.1602   22.7  0.2655 -140.1
 4.400  0.6211  124.5   1.757   28.7  0.1619   22.5  0.2679 -142.4
 4.500  0.6281  122.8   1.714   27.0  0.1636   22.4  0.2707 -144.7
 4.600  0.6319  121.4   1.676   25.7  0.1655   22.3  0.2738 -146.6
 4.700  0.6361  119.9   1.638   24.4  0.1674   22.3  0.2771 -148.4
 4.800  0.6406  118.5   1.602   22.9  0.1693   22.2  0.2808 -150.2
 4.900  0.6456  117.2   1.566   21.5  0.1712   22.2  0.2847 -152.0
 5.000  0.6509  115.8   1.532   19.9  0.1731   22.1  0.2889 -153.7
 5.100  0.6540  114.6   1.502   18.7  0.1756   21.9  0.2923 -155.1
 5.200  0.6574  113.4   1.472   17.5  0.1780   21.7  0.2960 -156.5
 5.300  0.6610  112.2   1.443   16.2  0.1805   21.5  0.2997 -157.9
 5.400  0.6650  111.1   1.414   14.8  0.1829   21.4  0.3037 -159.2
 5.500  0.6692  109.9   1.387   13.4  0.1854   21.2  0.3078 -160.5
 5.600  0.6720  108.9   1.363   12.2  0.1880   20.9  0.3122 -161.9
 5.700  0.6749  107.9   1.339   11.0  0.1905   20.6  0.3167 -163.3
 5.800  0.6781  106.9   1.316    9.8  0.1931   20.3  0.3215 -164.7
 5.900  0.6814  106.0   1.294    8.5  0.1957   20.0  0.3264 -166.0
 6.000  0.6850  105.0   1.272    7.2  0.1983   19.7  0.3315 -167.3
 6.100  0.6857  104.1   1.251    6.1  0.2007   19.3  0.3360 -168.4
 6.200  0.6867  103.2   1.230    5.0  0.2032   19.0  0.3407 -169.4
 6.300  0.6878  102.2   1.210    3.8  0.2056   18.7  0.3454 -170.4
 6.400  0.6890  101.3   1.191    2.6  0.2080   18.3  0.3502 -171.4
 6.500  0.6905  100.4   1.172    1.3  0.2105   18.0  0.3552 -172.4
 6.600  0.6903   99.4   1.156    0.3  0.2133   17.7  0.3577 -173.1
 6.800  0.6907   97.3   1.124   -1.8  0.2190   17.0  0.3628 -174.5
 7.000  0.6920   95.2   1.094   -4.0  0.2247   16.4  0.3681 -175.8
 7.200  0.6948   92.8   1.068   -6.2  0.2314   15.4  0.3708 -177.7
 7.400  0.6988   90.4   1.044   -8.4  0.2382   14.5  0.3740 -179.6
 7.600  0.7039   87.8   1.021  -10.8  0.2450   13.3  0.3776  178.1
 7.800  0.7104   85.0   0.999  -13.2  0.2519   12.0  0.3820  175.4
 8.000  0.7186   82.3   0.978  -15.8  0.2590   10.7  0.3872  172.7
 8.200  0.7242   79.3   0.951  -18.1  0.2648    8.9  0.3910  169.4
 8.400  0.7318   76.3   0.926  -20.6  0.2708    7.2  0.3960  166.3
 8.600  0.7410   73.6   0.900  -23.0  0.2754    5.5  0.4002  162.4
 8.800  0.7517   70.9   0.874  -25.2  0.2787    3.6  0.4046  158.0
 9.000  0.7639   68.4   0.849  -27.5  0.2822    1.8  0.4115  153.6
 9.200  0.7785   66.3   0.821  -29.4  0.2833    0.3  0.4225  148.1
 9.400  0.7941   64.2   0.794  -31.4  0.2845   -1.2  0.4372  142.9
 9.600  0.8077   62.4   0.767  -33.2  0.2854   -2.4  0.4544  138.1
 9.800  0.8191   60.7   0.740  -34.8  0.2859   -3.4  0.4736  133.7
10.000  0.8311   59.1   0.713  -36.4  0.2865   -4.4  0.4954  129.7
!
!  f       NFmin   Gammaopt  rn/50
! GHz       dB    MAG  ANG    -
 0.450      0.75  0.40   17   0.18
 0.900      0.77  0.41   35   0.18
 1.900      1.06  0.21   94   0.13
 3.500      1.30  0.35 -157   0.09
!
! (c) 2016  Infineon Technologies AG, Munich
