! Infineon Technologies  Discrete & RF Semiconductors
! BFP460
! VCE =  3.0 V,  IC =  3.0 mA
! Common Emitter S-Parameters:                            Jan 2016
# GHz  S  MA  R  50
!  f         S11            S21            S12            S22
! GHz     MAG   ANG      MAG   ANG      MAG   ANG      MAG   ANG
 0.030  0.9214   -4.1  10.362  177.0  0.0061   87.4  0.9939   -2.9
 0.035  0.9207   -4.7  10.355  176.4  0.0071   86.8  0.9933   -3.3
 0.040  0.9202   -5.4  10.350  175.7  0.0081   86.4  0.9928   -3.7
 0.045  0.9209   -6.2  10.316  175.1  0.0091   86.2  0.9922   -4.0
 0.050  0.9217   -6.9  10.284  174.4  0.0102   86.0  0.9916   -4.3
 0.055  0.9201   -7.6  10.284  174.0  0.0111   85.7  0.9910   -4.7
 0.060  0.9186   -8.4  10.285  173.7  0.0121   85.5  0.9905   -5.2
 0.065  0.9175   -9.1  10.323  173.1  0.0130   84.6  0.9900   -5.6
 0.070  0.9166   -9.8  10.362  172.5  0.0140   83.9  0.9896   -6.1
 0.075  0.9163  -10.5  10.334  172.3  0.0150   83.6  0.9887   -6.5
 0.080  0.9162  -11.2  10.307  172.0  0.0160   83.4  0.9879   -6.9
 0.085  0.9149  -11.9  10.307  171.4  0.0170   83.0  0.9869   -7.3
 0.090  0.9137  -12.6  10.308  170.9  0.0181   82.6  0.9859   -7.8
 0.095  0.9139  -13.3  10.270  170.5  0.0190   82.0  0.9850   -8.2
 0.100  0.9142  -13.9  10.232  170.0  0.0199   81.5  0.9841   -8.7
 0.105  0.9145  -14.7  10.233  169.5  0.0209   81.2  0.9831   -9.1
 0.110  0.9150  -15.4  10.235  169.1  0.0220   81.0  0.9821   -9.5
 0.115  0.9137  -16.1  10.235  168.5  0.0230   80.6  0.9810   -9.9
 0.120  0.9126  -16.8  10.236  168.0  0.0240   80.2  0.9800  -10.4
 0.125  0.9112  -17.4  10.222  167.6  0.0249   79.8  0.9787  -10.8
 0.130  0.9098  -18.0  10.209  167.2  0.0259   79.4  0.9774  -11.2
 0.135  0.9096  -18.7  10.203  166.7  0.0268   79.1  0.9762  -11.6
 0.140  0.9095  -19.5  10.198  166.1  0.0277   78.8  0.9751  -12.0
 0.145  0.9069  -20.1  10.169  165.6  0.0286   78.4  0.9737  -12.4
 0.150  0.9044  -20.8  10.141  165.0  0.0296   78.0  0.9724  -12.9
 0.155  0.9029  -21.5  10.124  164.5  0.0305   77.5  0.9706  -13.3
 0.160  0.9015  -22.1  10.107  164.1  0.0314   77.0  0.9689  -13.7
 0.165  0.9003  -22.8  10.091  163.6  0.0324   76.6  0.9672  -14.1
 0.170  0.8992  -23.5  10.075  163.2  0.0333   76.2  0.9655  -14.5
 0.175  0.8982  -24.1  10.060  162.7  0.0342   75.8  0.9639  -14.9
 0.180  0.8973  -24.8  10.046  162.3  0.0352   75.4  0.9624  -15.3
 0.185  0.8965  -25.5  10.033  161.8  0.0361   75.1  0.9608  -15.7
 0.190  0.8959  -26.2  10.020  161.3  0.0370   74.7  0.9594  -16.1
 0.195  0.8954  -26.8  10.008  160.9  0.0380   74.4  0.9580  -16.5
 0.200  0.8950  -27.5   9.996  160.4  0.0389   74.1  0.9566  -16.9
 0.220  0.8869  -30.1   9.903  158.6  0.0424   72.4  0.9486  -18.5
 0.240  0.8806  -32.8   9.820  156.7  0.0458   71.0  0.9413  -20.1
 0.260  0.8742  -35.4   9.730  155.0  0.0492   69.6  0.9332  -21.6
 0.280  0.8675  -37.9   9.632  153.2  0.0525   68.2  0.9241  -23.2
 0.300  0.8626  -40.5   9.542  151.5  0.0558   67.0  0.9156  -24.7
 0.320  0.8539  -42.9   9.430  149.8  0.0587   65.5  0.9057  -26.1
 0.340  0.8468  -45.4   9.327  148.1  0.0617   64.2  0.8963  -27.6
 0.360  0.8395  -47.9   9.219  146.4  0.0646   62.9  0.8865  -28.9
 0.380  0.8319  -50.2   9.106  144.8  0.0673   61.7  0.8761  -30.3
 0.400  0.8257  -52.6   8.999  143.2  0.0701   60.5  0.8663  -31.6
 0.420  0.8168  -54.8   8.878  141.7  0.0726   59.3  0.8560  -32.9
 0.440  0.8091  -57.1   8.764  140.1  0.0751   58.1  0.8462  -34.1
 0.450  0.8058  -58.3   8.709  139.3  0.0764   57.6  0.8414  -34.8
 0.460  0.8012  -59.4   8.649  138.6  0.0775   57.0  0.8359  -35.4
 0.480  0.7927  -61.6   8.534  137.2  0.0798   55.9  0.8252  -36.5
 0.500  0.7855  -63.8   8.424  135.8  0.0821   54.9  0.8149  -37.7
 0.520  0.7761  -65.8   8.301  134.5  0.0840   53.8  0.8043  -38.7
 0.540  0.7676  -67.9   8.182  133.2  0.0859   52.8  0.7940  -39.8
 0.560  0.7601  -70.0   8.068  131.8  0.0878   51.8  0.7840  -40.9
 0.580  0.7537  -72.1   7.958  130.4  0.0898   50.9  0.7742  -42.0
 0.600  0.7484  -74.3   7.854  128.9  0.0918   50.0  0.7648  -43.2
 0.620  0.7398  -76.1   7.738  127.8  0.0934   49.1  0.7547  -44.1
 0.640  0.7319  -78.0   7.625  126.6  0.0949   48.2  0.7448  -45.0
 0.660  0.7249  -80.0   7.515  125.3  0.0965   47.3  0.7351  -46.0
 0.680  0.7187  -81.9   7.409  124.1  0.0982   46.5  0.7257  -47.0
 0.700  0.7133  -83.9   7.307  122.8  0.0998   45.7  0.7164  -48.0
 0.720  0.7059  -85.6   7.199  121.8  0.1010   44.9  0.7073  -48.8
 0.740  0.6990  -87.4   7.093  120.7  0.1023   44.2  0.6983  -49.7
 0.760  0.6929  -89.1   6.990  119.7  0.1035   43.4  0.6895  -50.5
 0.780  0.6875  -91.0   6.889  118.5  0.1048   42.7  0.6809  -51.4
 0.800  0.6827  -92.8   6.791  117.4  0.1061   42.0  0.6724  -52.3
 0.820  0.6762  -94.4   6.697  116.5  0.1071   41.4  0.6641  -53.0
 0.840  0.6703  -96.0   6.606  115.5  0.1081   40.8  0.6559  -53.7
 0.860  0.6649  -97.7   6.516  114.5  0.1092   40.2  0.6478  -54.5
 0.880  0.6600  -99.4   6.428  113.5  0.1102   39.6  0.6398  -55.2
 0.900  0.6558 -101.1   6.342  112.5  0.1113   39.0  0.6319  -56.0
 0.920  0.6502 -102.6   6.256  111.6  0.1121   38.4  0.6246  -56.6
 0.940  0.6450 -104.0   6.170  110.7  0.1130   37.9  0.6174  -57.3
 0.960  0.6403 -105.5   6.087  109.8  0.1138   37.4  0.6103  -57.9
 0.980  0.6359 -107.1   6.005  108.9  0.1147   36.8  0.6033  -58.6
 1.000  0.6321 -108.6   5.925  107.9  0.1156   36.3  0.5963  -59.3
 1.020  0.6273 -110.0   5.847  107.1  0.1163   35.8  0.5898  -59.9
 1.040  0.6230 -111.4   5.770  106.3  0.1169   35.4  0.5834  -60.5
 1.060  0.6190 -112.9   5.694  105.5  0.1176   34.9  0.5771  -61.1
 1.080  0.6154 -114.3   5.619  104.7  0.1183   34.4  0.5708  -61.7
 1.100  0.6122 -115.8   5.546  103.8  0.1190   34.0  0.5646  -62.3
 1.120  0.6083 -117.1   5.477  103.1  0.1196   33.6  0.5588  -62.8
 1.140  0.6047 -118.4   5.408  102.3  0.1202   33.1  0.5531  -63.4
 1.160  0.6014 -119.7   5.341  101.5  0.1208   32.7  0.5474  -63.9
 1.180  0.5984 -121.1   5.274  100.7  0.1214   32.3  0.5418  -64.5
 1.200  0.5958 -122.4   5.209   99.9  0.1220   31.9  0.5362  -65.1
 1.220  0.5927 -123.6   5.147   99.2  0.1225   31.6  0.5312  -65.6
 1.240  0.5898 -124.9   5.086   98.6  0.1230   31.2  0.5262  -66.1
 1.260  0.5872 -126.1   5.025   97.9  0.1235   30.9  0.5212  -66.6
 1.280  0.5849 -127.4   4.965   97.1  0.1240   30.5  0.5163  -67.1
 1.300  0.5829 -128.7   4.906   96.4  0.1245   30.2  0.5114  -67.6
 1.320  0.5801 -129.8   4.849   95.8  0.1249   29.9  0.5068  -68.0
 1.340  0.5776 -131.0   4.794   95.1  0.1253   29.6  0.5022  -68.5
 1.360  0.5753 -132.2   4.738   94.4  0.1257   29.3  0.4977  -68.9
 1.380  0.5733 -133.3   4.684   93.7  0.1262   29.0  0.4932  -69.3
 1.400  0.5715 -134.5   4.630   93.0  0.1266   28.7  0.4887  -69.8
 1.420  0.5691 -135.6   4.580   92.4  0.1270   28.4  0.4847  -70.2
 1.440  0.5669 -136.8   4.530   91.8  0.1273   28.1  0.4807  -70.7
 1.460  0.5649 -137.9   4.481   91.1  0.1277   27.9  0.4767  -71.1
 1.480  0.5631 -139.0   4.433   90.5  0.1280   27.6  0.4728  -71.5
 1.500  0.5616 -140.2   4.385   89.8  0.1284   27.3  0.4689  -72.0
 1.520  0.5596 -141.3   4.339   89.2  0.1287   27.1  0.4651  -72.4
 1.540  0.5578 -142.3   4.293   88.6  0.1290   26.9  0.4613  -72.8
 1.560  0.5562 -143.4   4.247   88.0  0.1293   26.6  0.4576  -73.2
 1.580  0.5548 -144.5   4.202   87.4  0.1296   26.4  0.4539  -73.7
 1.600  0.5536 -145.6   4.158   86.8  0.1299   26.2  0.4502  -74.1
 1.620  0.5522 -146.6   4.117   86.2  0.1302   26.0  0.4470  -74.5
 1.640  0.5509 -147.5   4.077   85.6  0.1305   25.8  0.4439  -74.8
 1.660  0.5498 -148.5   4.037   85.0  0.1309   25.5  0.4408  -75.2
 1.680  0.5489 -149.5   3.997   84.4  0.1312   25.3  0.4377  -75.6
 1.700  0.5481 -150.5   3.958   83.8  0.1315   25.1  0.4346  -76.0
 1.720  0.5469 -151.5   3.920   83.3  0.1317   24.9  0.4316  -76.4
 1.740  0.5459 -152.4   3.883   82.8  0.1320   24.7  0.4287  -76.7
 1.760  0.5451 -153.4   3.846   82.2  0.1322   24.6  0.4258  -77.1
 1.780  0.5444 -154.3   3.809   81.7  0.1325   24.4  0.4229  -77.5
 1.800  0.5438 -155.3   3.773   81.1  0.1327   24.2  0.4200  -77.9
 1.820  0.5427 -156.2   3.740   80.6  0.1330   24.0  0.4173  -78.3
 1.840  0.5418 -157.1   3.707   80.0  0.1332   23.9  0.4147  -78.6
 1.860  0.5409 -158.0   3.674   79.5  0.1335   23.7  0.4121  -79.0
 1.880  0.5403 -158.9   3.642   79.0  0.1337   23.6  0.4095  -79.3
 1.900  0.5397 -159.8   3.610   78.4  0.1340   23.4  0.4069  -79.7
 1.920  0.5391 -160.7   3.578   77.9  0.1342   23.3  0.4045  -80.1
 1.940  0.5387 -161.6   3.546   77.4  0.1344   23.1  0.4020  -80.4
 1.960  0.5384 -162.5   3.514   76.9  0.1346   23.0  0.3996  -80.8
 1.980  0.5382 -163.4   3.483   76.3  0.1348   22.8  0.3973  -81.2
 2.000  0.5382 -164.3   3.452   75.8  0.1350   22.7  0.3949  -81.6
 2.020  0.5376 -165.1   3.423   75.3  0.1352   22.6  0.3927  -81.9
 2.040  0.5372 -166.0   3.394   74.9  0.1354   22.4  0.3905  -82.3
 2.060  0.5368 -166.8   3.366   74.4  0.1356   22.3  0.3883  -82.6
 2.080  0.5366 -167.6   3.338   73.9  0.1358   22.2  0.3862  -83.0
 2.100  0.5364 -168.4   3.310   73.4  0.1360   22.0  0.3840  -83.3
 2.120  0.5364 -169.3   3.282   72.9  0.1362   21.9  0.3819  -83.7
 2.140  0.5365 -170.1   3.255   72.4  0.1364   21.8  0.3798  -84.1
 2.160  0.5367 -170.9   3.228   71.9  0.1366   21.7  0.3777  -84.4
 2.180  0.5371 -171.8   3.201   71.3  0.1368   21.5  0.3756  -84.8
 2.200  0.5375 -172.6   3.174   70.8  0.1370   21.4  0.3735  -85.2
 2.220  0.5372 -173.4   3.150   70.4  0.1372   21.3  0.3716  -85.6
 2.240  0.5370 -174.1   3.125   69.9  0.1374   21.2  0.3697  -85.9
 2.260  0.5369 -174.9   3.101   69.4  0.1375   21.1  0.3679  -86.3
 2.280  0.5369 -175.6   3.077   69.0  0.1377   21.0  0.3660  -86.6
 2.300  0.5370 -176.4   3.054   68.5  0.1379   20.9  0.3642  -87.0
 2.320  0.5371 -177.2   3.030   68.0  0.1381   20.8  0.3624  -87.4
 2.340  0.5374 -177.9   3.007   67.5  0.1383   20.7  0.3606  -87.8
 2.360  0.5378 -178.7   2.984   67.0  0.1384   20.6  0.3588  -88.1
 2.380  0.5382 -179.4   2.962   66.5  0.1386   20.5  0.3571  -88.5
 2.400  0.5388  179.8   2.939   66.0  0.1388   20.4  0.3553  -88.9
 2.420  0.5389  179.1   2.918   65.6  0.1390   20.3  0.3537  -89.3
 2.440  0.5391  178.3   2.896   65.2  0.1391   20.2  0.3521  -89.7
 2.460  0.5394  177.6   2.875   64.7  0.1393   20.1  0.3506  -90.0
 2.480  0.5398  176.9   2.854   64.3  0.1395   20.0  0.3490  -90.4
 2.500  0.5403  176.1   2.833   63.8  0.1396   19.9  0.3475  -90.8
 2.520  0.5409  175.4   2.813   63.4  0.1398   19.9  0.3460  -91.2
 2.540  0.5415  174.7   2.792   62.9  0.1400   19.8  0.3445  -91.6
 2.560  0.5423  173.9   2.772   62.5  0.1402   19.7  0.3430  -92.0
 2.580  0.5431  173.2   2.752   62.0  0.1403   19.6  0.3415  -92.4
 2.600  0.5440  172.5   2.732   61.5  0.1405   19.5  0.3401  -92.8
 2.620  0.5442  171.8   2.713   61.1  0.1406   19.4  0.3388  -93.2
 2.640  0.5445  171.2   2.694   60.7  0.1408   19.4  0.3375  -93.6
 2.660  0.5449  170.5   2.676   60.3  0.1409   19.3  0.3363  -94.0
 2.680  0.5454  169.9   2.657   59.9  0.1410   19.2  0.3350  -94.4
 2.700  0.5459  169.2   2.639   59.4  0.1411   19.1  0.3338  -94.8
 2.720  0.5465  168.6   2.621   59.0  0.1413   19.1  0.3326  -95.2
 2.740  0.5471  167.9   2.603   58.6  0.1414   19.0  0.3314  -95.6
 2.760  0.5478  167.3   2.585   58.1  0.1415   18.9  0.3302  -96.1
 2.780  0.5486  166.6   2.568   57.7  0.1417   18.9  0.3290  -96.5
 2.800  0.5495  166.0   2.550   57.2  0.1418   18.8  0.3279  -96.9
 2.820  0.5499  165.4   2.533   56.8  0.1419   18.8  0.3268  -97.3
 2.840  0.5504  164.7   2.517   56.4  0.1421   18.7  0.3258  -97.7
 2.860  0.5510  164.1   2.500   56.0  0.1422   18.7  0.3248  -98.1
 2.880  0.5516  163.5   2.484   55.6  0.1424   18.6  0.3237  -98.5
 2.900  0.5523  162.9   2.468   55.2  0.1425   18.6  0.3227  -98.9
 2.920  0.5531  162.3   2.452   54.7  0.1426   18.6  0.3218  -99.3
 2.940  0.5539  161.6   2.436   54.3  0.1428   18.5  0.3208  -99.7
 2.960  0.5548  161.0   2.420   53.9  0.1429   18.5  0.3198 -100.2
 2.980  0.5558  160.4   2.404   53.4  0.1431   18.4  0.3189 -100.6
 3.000  0.5568  159.8   2.389   53.0  0.1432   18.4  0.3180 -101.0
 3.100  0.5589  157.0   2.317   51.3  0.1440   18.2  0.3143 -103.0
 3.200  0.5622  154.3   2.248   49.4  0.1447   18.1  0.3109 -105.0
 3.300  0.5668  151.6   2.181   47.5  0.1455   17.9  0.3079 -107.0
 3.400  0.5727  149.0   2.117   45.4  0.1462   17.8  0.3054 -109.1
 3.500  0.5797  146.4   2.056   43.2  0.1470   17.6  0.3032 -111.2
 3.600  0.5834  144.0   2.001   41.6  0.1478   17.6  0.3007 -113.3
 3.700  0.5882  141.7   1.947   39.9  0.1487   17.5  0.2986 -115.5
 3.800  0.5939  139.4   1.896   38.1  0.1495   17.5  0.2970 -117.7
 3.900  0.6005  137.1   1.846   36.3  0.1504   17.4  0.2958 -120.0
 4.000  0.6081  134.9   1.798   34.3  0.1512   17.4  0.2951 -122.2
 4.100  0.6127  133.0   1.753   32.8  0.1522   17.5  0.2952 -124.5
 4.200  0.6179  131.1   1.709   31.2  0.1533   17.5  0.2959 -126.9
 4.300  0.6238  129.3   1.667   29.6  0.1543   17.6  0.2970 -129.2
 4.400  0.6304  127.5   1.626   27.8  0.1554   17.6  0.2986 -131.5
 4.500  0.6375  125.7   1.587   26.0  0.1564   17.7  0.3007 -133.8
 4.600  0.6411  124.1   1.551   24.6  0.1578   17.8  0.3033 -135.8
 4.700  0.6452  122.6   1.516   23.2  0.1592   18.0  0.3063 -137.7
 4.800  0.6497  121.1   1.481   21.7  0.1607   18.1  0.3097 -139.6
 4.900  0.6547  119.6   1.448   20.1  0.1621   18.3  0.3133 -141.4
 5.000  0.6601  118.1   1.416   18.5  0.1635   18.4  0.3173 -143.2
 5.100  0.6632  116.8   1.387   17.3  0.1656   18.4  0.3208 -144.8
 5.200  0.6667  115.6   1.359   16.0  0.1677   18.5  0.3245 -146.3
 5.300  0.6704  114.3   1.332   14.7  0.1698   18.5  0.3285 -147.8
 5.400  0.6745  113.1   1.306   13.3  0.1719   18.6  0.3326 -149.3
 5.500  0.6789  111.9   1.280   11.9  0.1740   18.6  0.3370 -150.7
 5.600  0.6817  110.9   1.257   10.7  0.1764   18.5  0.3414 -152.3
 5.700  0.6848  109.8   1.235    9.5  0.1788   18.4  0.3460 -153.9
 5.800  0.6881  108.8   1.213    8.2  0.1812   18.2  0.3509 -155.4
 5.900  0.6916  107.8   1.192    6.9  0.1836   18.1  0.3560 -156.9
 6.000  0.6953  106.8   1.172    5.5  0.1860   18.0  0.3614 -158.3
 6.100  0.6960  105.8   1.152    4.4  0.1884   17.8  0.3662 -159.6
 6.200  0.6969  104.8   1.133    3.3  0.1908   17.7  0.3711 -160.8
 6.300  0.6981  103.8   1.114    2.1  0.1933   17.5  0.3763 -162.1
 6.400  0.6994  102.8   1.096    0.9  0.1957   17.4  0.3815 -163.2
 6.500  0.7010  101.8   1.078   -0.4  0.1981   17.2  0.3870 -164.4
 6.600  0.7010  100.7   1.062   -1.4  0.2010   17.0  0.3900 -165.2
 6.800  0.7018   98.6   1.032   -3.5  0.2067   16.6  0.3961 -166.9
 7.000  0.7035   96.5   1.003   -5.8  0.2124   16.3  0.4026 -168.5
 7.200  0.7063   94.0   0.979   -7.9  0.2194   15.5  0.4058 -170.6
 7.400  0.7104   91.5   0.957  -10.1  0.2265   14.8  0.4096 -172.8
 7.600  0.7155   88.9   0.935  -12.4  0.2336   13.9  0.4136 -175.3
 7.800  0.7222   86.0   0.913  -14.8  0.2410   12.7  0.4181 -178.3
 8.000  0.7306   83.2   0.893  -17.3  0.2485   11.6  0.4238  178.8
 8.200  0.7360   80.2   0.869  -19.6  0.2549    9.9  0.4272  175.4
 8.400  0.7435   77.2   0.846  -22.0  0.2616    8.3  0.4321  172.1
 8.600  0.7524   74.3   0.822  -24.3  0.2669    6.6  0.4359  168.2
 8.800  0.7624   71.6   0.798  -26.5  0.2709    4.8  0.4395  163.8
 9.000  0.7742   68.9   0.775  -28.8  0.2752    3.0  0.4457  159.4
 9.200  0.7882   66.7   0.749  -30.6  0.2769    1.5  0.4550  153.9
 9.400  0.8033   64.5   0.724  -32.6  0.2788    0.0  0.4684  148.6
 9.600  0.8164   62.6   0.699  -34.3  0.2803   -1.2  0.4845  143.7
 9.800  0.8271   60.9   0.673  -35.7  0.2813   -2.3  0.5029  139.1
10.000  0.8385   59.3   0.648  -37.3  0.2824   -3.3  0.5243  134.8
!
!  f       NFmin   Gammaopt  rn/50
! GHz       dB    MAG  ANG    -
 0.450      0.71  0.48   19   0.20
 0.900      0.75  0.46   37   0.21
 1.900      1.09  0.27   93   0.15
 3.500      1.43  0.36 -162   0.10
!
! (c) 2016  Infineon Technologies AG, Munich
