! Infineon Technologies  Discrete & RF Semiconductors
! BFP460
! VCE =  4.0 V,  IC =  70 mA
! Common Emitter S-Parameters:                            Jan 2016
# GHz  S  MA  R  50
!  f         S11            S21            S12            S22
! GHz     MAG   ANG      MAG   ANG      MAG   ANG      MAG   ANG
 0.030  0.2818  -35.1  64.715  167.9  0.0041   84.3  0.8673  -10.9
 0.035  0.2847  -40.3  64.146  165.8  0.0047   82.8  0.8630  -13.1
 0.040  0.2898  -45.3  63.663  163.7  0.0053   81.6  0.8599  -15.3
 0.045  0.2925  -50.1  62.859  161.7  0.0058   79.9  0.8524  -17.3
 0.050  0.2973  -54.8  62.136  159.6  0.0063   78.4  0.8459  -19.4
 0.055  0.3037  -59.4  61.436  157.8  0.0068   77.0  0.8370  -21.4
 0.060  0.3120  -63.7  60.796  156.0  0.0074   75.9  0.8291  -23.5
 0.065  0.3168  -68.1  60.048  154.1  0.0080   74.6  0.8187  -25.5
 0.070  0.3234  -72.3  59.367  152.2  0.0086   73.5  0.8093  -27.5
 0.075  0.3295  -75.6  58.491  150.7  0.0090   72.6  0.7977  -29.3
 0.080  0.3367  -78.8  57.657  149.1  0.0095   71.8  0.7869  -31.2
 0.085  0.3424  -82.4  56.678  147.4  0.0099   70.8  0.7742  -32.9
 0.090  0.3493  -85.8  55.749  145.7  0.0104   69.8  0.7623  -34.7
 0.095  0.3526  -88.4  54.733  144.3  0.0108   69.1  0.7501  -36.3
 0.100  0.3566  -90.9  53.750  142.9  0.0112   68.5  0.7385  -37.9
 0.105  0.3613  -93.6  52.894  141.5  0.0115   67.7  0.7260  -39.4
 0.110  0.3667  -96.2  52.071  140.0  0.0119   66.9  0.7139  -40.9
 0.115  0.3708  -99.0  51.121  138.7  0.0122   66.2  0.7016  -42.3
 0.120  0.3757 -101.8  50.200  137.3  0.0126   65.6  0.6898  -43.8
 0.125  0.3793 -103.9  49.304  136.2  0.0129   65.1  0.6777  -45.1
 0.130  0.3835 -106.0  48.428  135.0  0.0132   64.7  0.6659  -46.4
 0.135  0.3878 -108.2  47.585  133.8  0.0135   64.3  0.6541  -47.6
 0.140  0.3926 -110.3  46.763  132.6  0.0138   64.0  0.6427  -48.9
 0.145  0.3955 -112.3  45.856  131.5  0.0141   63.6  0.6314  -50.1
 0.150  0.3988 -114.2  44.966  130.4  0.0145   63.2  0.6204  -51.3
 0.155  0.4001 -115.8  44.204  129.7  0.0147   63.0  0.6100  -52.1
 0.160  0.4016 -117.3  43.449  128.9  0.0150   62.7  0.5998  -53.0
 0.165  0.4035 -118.9  42.703  128.1  0.0152   62.5  0.5897  -53.8
 0.170  0.4056 -120.4  41.964  127.3  0.0155   62.3  0.5798  -54.8
 0.175  0.4081 -121.9  41.235  126.4  0.0157   62.1  0.5700  -55.7
 0.180  0.4108 -123.4  40.515  125.6  0.0160   61.9  0.5603  -56.7
 0.185  0.4138 -124.8  39.806  124.6  0.0162   61.7  0.5508  -57.7
 0.190  0.4170 -126.3  39.106  123.7  0.0165   61.6  0.5415  -58.7
 0.195  0.4205 -127.7  38.418  122.7  0.0167   61.4  0.5324  -59.8
 0.200  0.4243 -129.1  37.741  121.7  0.0170   61.2  0.5235  -60.9
 0.220  0.4291 -133.3  35.433  119.4  0.0179   60.9  0.4929  -63.5
 0.240  0.4362 -137.4  33.190  116.8  0.0188   60.7  0.4634  -66.4
 0.260  0.4420 -141.0  31.214  114.4  0.0197   60.6  0.4374  -69.0
 0.280  0.4461 -144.1  29.469  112.5  0.0205   60.7  0.4143  -71.2
 0.300  0.4514 -147.1  27.761  110.4  0.0213   60.7  0.3920  -73.7
 0.320  0.4536 -149.5  26.383  109.0  0.0221   61.0  0.3742  -75.4
 0.340  0.4567 -151.9  25.024  107.4  0.0230   61.4  0.3567  -77.2
 0.360  0.4591 -154.1  23.807  105.9  0.0238   61.6  0.3411  -78.9
 0.380  0.4607 -156.0  22.725  104.7  0.0247   61.8  0.3274  -80.4
 0.400  0.4628 -157.9  21.655  103.3  0.0255   62.0  0.3139  -82.1
 0.420  0.4644 -159.5  20.772  102.3  0.0263   62.3  0.3028  -83.3
 0.440  0.4663 -161.1  19.896  101.3  0.0271   62.6  0.2919  -84.7
 0.450  0.4674 -161.9  19.461  100.7  0.0275   62.8  0.2865  -85.4
 0.460  0.4679 -162.6  19.100  100.3  0.0279   62.9  0.2820  -85.9
 0.480  0.4692 -164.0  18.383   99.4  0.0288   63.2  0.2730  -87.1
 0.500  0.4707 -165.4  17.670   98.4  0.0297   63.5  0.2642  -88.3
 0.520  0.4715 -166.6  17.108   97.7  0.0305   63.7  0.2574  -89.2
 0.540  0.4724 -167.7  16.549   97.0  0.0314   64.0  0.2507  -90.2
 0.560  0.4736 -168.8  15.993   96.2  0.0322   64.2  0.2440  -91.3
 0.580  0.4749 -170.0  15.440   95.3  0.0331   64.4  0.2375  -92.3
 0.600  0.4764 -171.1  14.891   94.4  0.0339   64.6  0.2310  -93.5
 0.620  0.4769 -172.0  14.481   93.8  0.0348   64.8  0.2262  -94.3
 0.640  0.4775 -173.0  14.072   93.2  0.0357   64.9  0.2214  -95.1
 0.660  0.4782 -173.9  13.665   92.6  0.0365   65.0  0.2167  -96.0
 0.680  0.4790 -174.9  13.259   91.9  0.0374   65.2  0.2121  -96.9
 0.700  0.4800 -175.8  12.856   91.2  0.0383   65.3  0.2075  -97.9
 0.720  0.4805 -176.6  12.544   90.7  0.0392   65.4  0.2041  -98.6
 0.740  0.4811 -177.4  12.233   90.2  0.0401   65.5  0.2007  -99.4
 0.760  0.4818 -178.1  11.924   89.6  0.0410   65.6  0.1973 -100.2
 0.780  0.4825 -178.9  11.615   89.0  0.0419   65.6  0.1940 -101.0
 0.800  0.4834 -179.7  11.308   88.4  0.0428   65.7  0.1907 -101.8
 0.820  0.4839  179.6  11.065   87.9  0.0437   65.8  0.1881 -102.4
 0.840  0.4845  178.9  10.822   87.5  0.0446   65.8  0.1856 -103.1
 0.860  0.4851  178.3  10.581   87.0  0.0454   65.9  0.1831 -103.8
 0.880  0.4858  177.6  10.340   86.4  0.0463   65.9  0.1806 -104.5
 0.900  0.4866  176.9  10.100   85.9  0.0472   66.0  0.1782 -105.2
 0.920  0.4870  176.3   9.903   85.5  0.0481   66.0  0.1763 -105.8
 0.940  0.4874  175.6   9.707   85.0  0.0490   66.0  0.1744 -106.4
 0.960  0.4879  175.0   9.511   84.6  0.0499   66.0  0.1726 -107.0
 0.980  0.4884  174.3   9.316   84.1  0.0508   66.0  0.1707 -107.7
 1.000  0.4890  173.7   9.121   83.6  0.0517   66.0  0.1689 -108.3
 1.020  0.4893  173.1   8.958   83.2  0.0526   66.0  0.1675 -108.9
 1.040  0.4897  172.5   8.796   82.8  0.0535   66.0  0.1661 -109.5
 1.060  0.4902  171.9   8.635   82.4  0.0544   65.9  0.1648 -110.1
 1.080  0.4907  171.3   8.474   82.0  0.0553   65.9  0.1634 -110.7
 1.100  0.4912  170.7   8.313   81.5  0.0562   65.9  0.1621 -111.3
 1.120  0.4917  170.2   8.177   81.1  0.0571   65.8  0.1610 -111.8
 1.140  0.4922  169.6   8.041   80.7  0.0580   65.8  0.1599 -112.4
 1.160  0.4927  169.1   7.906   80.3  0.0589   65.7  0.1589 -112.9
 1.180  0.4934  168.5   7.771   79.8  0.0598   65.7  0.1578 -113.4
 1.200  0.4940  168.0   7.636   79.4  0.0607   65.6  0.1568 -114.0
 1.220  0.4943  167.5   7.520   79.0  0.0616   65.5  0.1561 -114.5
 1.240  0.4947  167.0   7.404   78.7  0.0625   65.5  0.1553 -114.9
 1.260  0.4951  166.4   7.288   78.3  0.0635   65.4  0.1546 -115.4
 1.280  0.4956  165.9   7.173   77.9  0.0644   65.4  0.1539 -115.9
 1.300  0.4961  165.4   7.058   77.5  0.0653   65.3  0.1532 -116.4
 1.320  0.4965  164.9   6.959   77.1  0.0662   65.2  0.1525 -116.9
 1.340  0.4968  164.5   6.861   76.8  0.0671   65.1  0.1519 -117.3
 1.360  0.4973  164.0   6.762   76.4  0.0680   65.1  0.1512 -117.8
 1.380  0.4977  163.6   6.665   76.0  0.0689   65.0  0.1506 -118.3
 1.400  0.4982  163.1   6.567   75.6  0.0698   64.9  0.1500 -118.8
 1.420  0.4989  162.6   6.481   75.2  0.0707   64.8  0.1496 -119.2
 1.440  0.4996  162.1   6.395   74.9  0.0716   64.7  0.1493 -119.7
 1.460  0.5003  161.6   6.310   74.5  0.0725   64.5  0.1489 -120.1
 1.480  0.5011  161.1   6.225   74.1  0.0734   64.4  0.1485 -120.6
 1.500  0.5019  160.6   6.140   73.7  0.0743   64.3  0.1482 -121.0
 1.520  0.5023  160.1   6.064   73.4  0.0752   64.2  0.1479 -121.5
 1.540  0.5028  159.7   5.988   73.0  0.0761   64.1  0.1476 -121.9
 1.560  0.5033  159.2   5.913   72.7  0.0770   64.0  0.1473 -122.4
 1.580  0.5038  158.8   5.837   72.4  0.0779   63.9  0.1470 -122.8
 1.600  0.5044  158.3   5.762   72.0  0.0788   63.8  0.1467 -123.3
 1.620  0.5048  157.9   5.696   71.7  0.0797   63.7  0.1465 -123.7
 1.640  0.5052  157.5   5.630   71.3  0.0806   63.6  0.1463 -124.1
 1.660  0.5056  157.0   5.564   70.9  0.0814   63.4  0.1461 -124.5
 1.680  0.5061  156.6   5.498   70.6  0.0823   63.3  0.1460 -124.9
 1.700  0.5066  156.2   5.433   70.2  0.0832   63.2  0.1458 -125.3
 1.720  0.5071  155.8   5.373   69.9  0.0841   63.1  0.1457 -125.7
 1.740  0.5076  155.3   5.313   69.5  0.0850   62.9  0.1456 -126.2
 1.760  0.5081  154.9   5.254   69.2  0.0859   62.8  0.1455 -126.6
 1.780  0.5087  154.4   5.194   68.9  0.0868   62.6  0.1454 -127.1
 1.800  0.5093  154.0   5.135   68.5  0.0877   62.5  0.1453 -127.5
 1.820  0.5099  153.6   5.082   68.2  0.0886   62.4  0.1452 -127.9
 1.840  0.5105  153.1   5.030   67.8  0.0895   62.2  0.1452 -128.3
 1.860  0.5111  152.7   4.977   67.5  0.0903   62.1  0.1452 -128.8
 1.880  0.5118  152.2   4.925   67.2  0.0912   61.9  0.1451 -129.2
 1.900  0.5125  151.8   4.873   66.8  0.0921   61.8  0.1451 -129.6
 1.920  0.5132  151.4   4.825   66.5  0.0930   61.7  0.1452 -130.0
 1.940  0.5139  151.0   4.777   66.1  0.0939   61.5  0.1452 -130.5
 1.960  0.5147  150.5   4.730   65.7  0.0947   61.4  0.1453 -130.9
 1.980  0.5155  150.1   4.682   65.4  0.0956   61.2  0.1454 -131.4
 2.000  0.5163  149.7   4.635   65.0  0.0965   61.1  0.1455 -131.8
 2.020  0.5169  149.3   4.592   64.7  0.0974   60.9  0.1456 -132.3
 2.040  0.5176  148.9   4.550   64.4  0.0983   60.8  0.1457 -132.7
 2.060  0.5183  148.5   4.508   64.1  0.0991   60.6  0.1459 -133.2
 2.080  0.5190  148.1   4.466   63.8  0.1000   60.4  0.1460 -133.7
 2.100  0.5197  147.7   4.424   63.4  0.1009   60.3  0.1462 -134.1
 2.120  0.5204  147.3   4.382   63.1  0.1018   60.1  0.1463 -134.6
 2.140  0.5212  146.9   4.340   62.8  0.1027   60.0  0.1465 -135.0
 2.160  0.5220  146.5   4.299   62.4  0.1035   59.8  0.1467 -135.5
 2.180  0.5228  146.1   4.257   62.1  0.1044   59.6  0.1469 -135.9
 2.200  0.5237  145.7   4.216   61.7  0.1053   59.5  0.1471 -136.4
 2.220  0.5244  145.3   4.181   61.4  0.1062   59.3  0.1473 -136.9
 2.240  0.5251  144.9   4.145   61.1  0.1070   59.2  0.1476 -137.4
 2.260  0.5258  144.5   4.110   60.8  0.1079   59.0  0.1479 -137.9
 2.280  0.5265  144.2   4.075   60.4  0.1087   58.8  0.1481 -138.3
 2.300  0.5273  143.8   4.040   60.1  0.1096   58.7  0.1484 -138.8
 2.320  0.5280  143.4   4.006   59.8  0.1104   58.5  0.1487 -139.3
 2.340  0.5288  143.0   3.971   59.5  0.1113   58.4  0.1490 -139.8
 2.360  0.5297  142.7   3.937   59.1  0.1122   58.2  0.1493 -140.3
 2.380  0.5305  142.3   3.902   58.8  0.1130   58.0  0.1497 -140.7
 2.400  0.5314  141.9   3.868   58.4  0.1139   57.9  0.1500 -141.2
 2.420  0.5322  141.5   3.838   58.1  0.1147   57.7  0.1504 -141.7
 2.440  0.5331  141.2   3.807   57.8  0.1156   57.5  0.1509 -142.2
 2.460  0.5339  140.8   3.777   57.5  0.1164   57.4  0.1513 -142.7
 2.480  0.5348  140.4   3.747   57.2  0.1172   57.2  0.1518 -143.2
 2.500  0.5357  140.0   3.717   56.9  0.1181   57.0  0.1523 -143.7
 2.520  0.5367  139.7   3.687   56.6  0.1189   56.9  0.1528 -144.2
 2.540  0.5376  139.3   3.658   56.3  0.1198   56.7  0.1533 -144.7
 2.560  0.5386  138.9   3.628   56.0  0.1206   56.5  0.1538 -145.2
 2.580  0.5396  138.6   3.598   55.6  0.1215   56.4  0.1544 -145.7
 2.600  0.5406  138.2   3.569   55.3  0.1223   56.2  0.1549 -146.2
 2.620  0.5414  137.9   3.543   55.0  0.1231   56.0  0.1555 -146.7
 2.640  0.5421  137.5   3.517   54.7  0.1239   55.8  0.1561 -147.2
 2.660  0.5429  137.2   3.491   54.4  0.1247   55.6  0.1568 -147.7
 2.680  0.5438  136.8   3.465   54.1  0.1255   55.5  0.1574 -148.1
 2.700  0.5446  136.5   3.440   53.8  0.1263   55.3  0.1581 -148.6
 2.720  0.5455  136.1   3.414   53.5  0.1271   55.1  0.1587 -149.1
 2.740  0.5463  135.8   3.389   53.2  0.1280   54.9  0.1594 -149.5
 2.760  0.5472  135.5   3.363   52.9  0.1288   54.7  0.1601 -150.0
 2.780  0.5482  135.1   3.338   52.5  0.1296   54.6  0.1608 -150.4
 2.800  0.5491  134.8   3.313   52.2  0.1304   54.4  0.1615 -150.9
 2.820  0.5500  134.5   3.290   51.9  0.1312   54.2  0.1622 -151.4
 2.840  0.5509  134.1   3.267   51.6  0.1320   54.0  0.1629 -151.8
 2.860  0.5518  133.8   3.245   51.3  0.1328   53.9  0.1636 -152.3
 2.880  0.5527  133.5   3.222   51.0  0.1336   53.7  0.1644 -152.7
 2.900  0.5536  133.1   3.199   50.7  0.1344   53.5  0.1651 -153.2
 2.920  0.5546  132.8   3.177   50.4  0.1352   53.4  0.1659 -153.6
 2.940  0.5556  132.5   3.155   50.1  0.1361   53.2  0.1666 -154.1
 2.960  0.5566  132.2   3.132   49.8  0.1369   53.0  0.1674 -154.5
 2.980  0.5576  131.8   3.110   49.4  0.1377   52.9  0.1682 -155.0
 3.000  0.5586  131.5   3.088   49.1  0.1385   52.7  0.1690 -155.4
 3.100  0.5626  129.9   2.994   47.8  0.1422   51.7  0.1728 -157.5
 3.200  0.5671  128.3   2.902   46.5  0.1459   50.7  0.1769 -159.6
 3.300  0.5719  126.7   2.811   45.0  0.1497   49.8  0.1812 -161.6
 3.400  0.5773  125.1   2.723   43.5  0.1535   48.9  0.1856 -163.4
 3.500  0.5830  123.6   2.636   41.8  0.1574   48.1  0.1903 -165.2
 3.600  0.5879  122.2   2.564   40.6  0.1608   47.1  0.1947 -167.4
 3.700  0.5932  120.8   2.494   39.3  0.1642   46.2  0.1995 -169.5
 3.800  0.5988  119.4   2.425   37.9  0.1676   45.4  0.2045 -171.5
 3.900  0.6048  118.0   2.358   36.4  0.1711   44.5  0.2097 -173.4
 4.000  0.6111  116.7   2.292   34.9  0.1746   43.7  0.2151 -175.2
 4.100  0.6162  115.5   2.235   33.7  0.1776   42.8  0.2209 -177.1
 4.200  0.6216  114.3   2.180   32.5  0.1807   42.0  0.2270 -179.0
 4.300  0.6273  113.2   2.125   31.2  0.1838   41.2  0.2333  179.3
 4.400  0.6332  112.0   2.072   29.8  0.1869   40.4  0.2398  177.7
 4.500  0.6394  110.9   2.020   28.4  0.1901   39.7  0.2465  176.1
 4.600  0.6433  109.8   1.976   27.3  0.1931   39.0  0.2516  174.8
 4.700  0.6473  108.7   1.932   26.1  0.1961   38.2  0.2568  173.5
 4.800  0.6517  107.6   1.890   24.9  0.1992   37.5  0.2621  172.3
 4.900  0.6562  106.6   1.848   23.6  0.2023   36.9  0.2676  171.1
 5.000  0.6610  105.5   1.807   22.3  0.2054   36.2  0.2731  170.0
 5.100  0.6637  104.6   1.773   21.3  0.2086   35.4  0.2767  169.1
 5.200  0.6665  103.7   1.739   20.3  0.2119   34.6  0.2804  168.1
 5.300  0.6695  102.8   1.706   19.2  0.2152   33.8  0.2842  167.2
 5.400  0.6727  101.9   1.674   18.1  0.2186   33.1  0.2880  166.4
 5.500  0.6760  101.0   1.642   16.9  0.2220   32.4  0.2919  165.5
 5.600  0.6781  100.2   1.615   15.9  0.2250   31.6  0.2960  164.6
 5.700  0.6803   99.5   1.589   14.8  0.2281   30.7  0.3002  163.7
 5.800  0.6827   98.7   1.563   13.7  0.2312   29.9  0.3044  162.9
 5.900  0.6851   97.9   1.538   12.5  0.2343   29.2  0.3087  162.1
 6.000  0.6877   97.2   1.513   11.3  0.2375   28.4  0.3131  161.3
 6.100  0.6881   96.4   1.490   10.3  0.2401   27.6  0.3162  160.8
 6.200  0.6885   95.6   1.467    9.3  0.2428   26.8  0.3194  160.2
 6.300  0.6892   94.8   1.445    8.3  0.2455   26.1  0.3226  159.7
 6.400  0.6899   94.0   1.423    7.2  0.2483   25.3  0.3258  159.2
 6.500  0.6908   93.2   1.402    6.1  0.2511   24.6  0.3291  158.7
 6.600  0.6902   92.3   1.384    5.1  0.2541   23.9  0.3294  158.3
 6.800  0.6895   90.4   1.349    3.1  0.2602   22.5  0.3300  157.6
 7.000  0.6896   88.6   1.316    1.0  0.2665   21.1  0.3307  156.9
 7.200  0.6912   86.5   1.288   -1.1  0.2731   19.4  0.3310  155.5
 7.400  0.6938   84.4   1.261   -3.3  0.2799   17.8  0.3316  154.0
 7.600  0.6977   82.0   1.235   -5.6  0.2864   16.0  0.3337  152.1
 7.800  0.7030   79.5   1.209   -8.0  0.2925   14.1  0.3378  149.8
 8.000  0.7096   77.1   1.186  -10.6  0.2990   12.3  0.3424  147.5
 8.200  0.7146   74.5   1.155  -12.9  0.3033   10.1  0.3470  144.6
 8.400  0.7210   71.9   1.126  -15.4  0.3080    8.0  0.3524  141.8
 8.600  0.7296   69.4   1.096  -17.8  0.3110    5.9  0.3589  138.2
 8.800  0.7401   67.1   1.065  -20.0  0.3123    3.8  0.3673  134.0
 9.000  0.7517   64.9   1.035  -22.4  0.3140    1.7  0.3777  130.0
 9.200  0.7672   63.1   1.001  -24.2  0.3131    0.1  0.3941  125.2
 9.400  0.7834   61.3   0.969  -26.2  0.3125   -1.5  0.4129  120.8
 9.600  0.7977   59.8   0.937  -27.9  0.3118   -2.8  0.4327  117.0
 9.800  0.8100   58.3   0.905  -29.3  0.3107   -3.8  0.4530  113.7
10.000  0.8227   56.9   0.874  -30.9  0.3098   -4.8  0.4746  110.6
!
!  f       NFmin   Gammaopt  rn/50
! GHz       dB    MAG  ANG    -
 0.450      2.18  0.41 -169   0.13
 0.900      2.25  0.38 -159   0.14
 1.900      2.41  0.49 -138   0.20
 3.500      2.03  0.78 -114   0.43
!
! (c) 2016  Infineon Technologies AG, Munich
