! Infineon Technologies  Discrete & RF Semiconductors
! BFP460
! VCE =  2.0 V,  IC =  45 mA
! Common Emitter S-Parameters:                            Jan 2016
# GHz  S  MA  R  50
!  f         S11            S21            S12            S22
! GHz     MAG   ANG      MAG   ANG      MAG   ANG      MAG   ANG
 0.030  0.3667  -28.0  64.219  168.7  0.0045   84.7  0.8953  -12.1
 0.035  0.3660  -32.4  63.680  166.6  0.0052   83.1  0.8902  -14.3
 0.040  0.3675  -36.8  63.226  164.5  0.0059   81.8  0.8865  -16.5
 0.045  0.3674  -40.8  62.495  162.4  0.0065   79.7  0.8793  -18.7
 0.050  0.3691  -44.8  61.852  160.2  0.0072   78.0  0.8734  -20.9
 0.055  0.3730  -48.8  61.193  158.5  0.0079   76.6  0.8643  -23.0
 0.060  0.3786  -52.7  60.591  156.7  0.0086   75.5  0.8564  -25.2
 0.065  0.3793  -56.8  59.902  154.9  0.0090   74.2  0.8460  -27.2
 0.070  0.3819  -60.9  59.275  153.0  0.0095   73.1  0.8366  -29.2
 0.075  0.3849  -64.0  58.439  151.5  0.0101   72.2  0.8253  -31.1
 0.080  0.3891  -67.1  57.643  150.0  0.0107   71.4  0.8150  -33.0
 0.085  0.3915  -70.7  56.717  148.4  0.0111   70.4  0.8030  -34.8
 0.090  0.3954  -74.3  55.836  146.8  0.0115   69.5  0.7918  -36.6
 0.095  0.3969  -76.9  54.865  145.4  0.0120   68.8  0.7800  -38.3
 0.100  0.3992  -79.5  53.930  143.9  0.0126   68.2  0.7690  -40.1
 0.105  0.4026  -82.2  53.117  142.6  0.0130   67.6  0.7567  -41.7
 0.110  0.4068  -84.8  52.334  141.2  0.0135   67.0  0.7451  -43.4
 0.115  0.4090  -87.5  51.420  139.9  0.0139   66.4  0.7331  -44.9
 0.120  0.4120  -90.1  50.534  138.5  0.0143   65.9  0.7217  -46.5
 0.125  0.4122  -92.5  49.670  137.4  0.0146   65.0  0.7098  -47.9
 0.130  0.4132  -94.9  48.826  136.2  0.0150   64.2  0.6983  -49.4
 0.135  0.4154  -97.1  48.007  135.0  0.0154   63.9  0.6869  -50.7
 0.140  0.4182  -99.3  47.210  133.8  0.0158   63.6  0.6759  -52.1
 0.145  0.4198 -101.5  46.328  132.7  0.0161   63.0  0.6648  -53.4
 0.150  0.4219 -103.6  45.464  131.6  0.0165   62.5  0.6540  -54.7
 0.155  0.4217 -105.3  44.715  130.9  0.0168   62.2  0.6435  -55.7
 0.160  0.4219 -106.9  43.973  130.1  0.0171   61.9  0.6332  -56.6
 0.165  0.4225 -108.6  43.240  129.3  0.0173   61.6  0.6230  -57.7
 0.170  0.4233 -110.2  42.515  128.5  0.0176   61.3  0.6131  -58.7
 0.175  0.4246 -111.8  41.800  127.6  0.0179   61.0  0.6034  -59.8
 0.180  0.4261 -113.5  41.094  126.7  0.0182   60.7  0.5939  -60.9
 0.185  0.4281 -115.1  40.397  125.8  0.0185   60.5  0.5846  -62.1
 0.190  0.4303 -116.7  39.712  124.9  0.0187   60.2  0.5756  -63.3
 0.195  0.4329 -118.2  39.038  123.9  0.0190   59.9  0.5669  -64.5
 0.200  0.4358 -119.8  38.375  122.9  0.0193   59.7  0.5584  -65.8
 0.220  0.4377 -124.6  36.077  120.5  0.0203   59.3  0.5273  -69.0
 0.240  0.4426 -129.4  33.848  117.9  0.0213   59.0  0.4980  -72.6
 0.260  0.4466 -133.4  31.878  115.5  0.0223   58.8  0.4721  -75.8
 0.280  0.4486 -136.9  30.130  113.6  0.0232   58.7  0.4490  -78.5
 0.300  0.4523 -140.3  28.421  111.4  0.0241   58.6  0.4270  -81.6
 0.320  0.4538 -143.0  27.027  110.0  0.0249   58.8  0.4089  -83.8
 0.340  0.4563 -145.8  25.652  108.4  0.0258   58.9  0.3914  -86.2
 0.360  0.4582 -148.2  24.420  106.9  0.0266   59.1  0.3758  -88.5
 0.380  0.4591 -150.4  23.323  105.6  0.0275   59.4  0.3620  -90.5
 0.400  0.4607 -152.6  22.240  104.2  0.0283   59.6  0.3487  -92.7
 0.420  0.4616 -154.4  21.340  103.2  0.0292   59.8  0.3375  -94.4
 0.440  0.4630 -156.3  20.448  102.1  0.0301   60.0  0.3267  -96.2
 0.450  0.4639 -157.2  20.005  101.5  0.0305   60.1  0.3214  -97.2
 0.460  0.4641 -158.0  19.636  101.1  0.0309   60.2  0.3169  -98.0
 0.480  0.4648 -159.5  18.903  100.2  0.0318   60.5  0.3080  -99.6
 0.500  0.4658 -161.1  18.174   99.2  0.0327   60.7  0.2994 -101.3
 0.520  0.4661 -162.4  17.599   98.5  0.0336   61.0  0.2926 -102.6
 0.540  0.4667 -163.7  17.027   97.7  0.0345   61.2  0.2859 -103.9
 0.560  0.4675 -165.0  16.458   96.9  0.0353   61.5  0.2794 -105.4
 0.580  0.4685 -166.2  15.892   96.0  0.0362   61.7  0.2731 -106.8
 0.600  0.4698 -167.5  15.331   95.1  0.0371   61.9  0.2670 -108.4
 0.620  0.4703 -168.5  14.910   94.5  0.0380   62.1  0.2623 -109.5
 0.640  0.4709 -169.5  14.491   93.9  0.0389   62.2  0.2577 -110.7
 0.660  0.4717 -170.6  14.073   93.3  0.0398   62.4  0.2532 -111.9
 0.680  0.4726 -171.6  13.657   92.6  0.0407   62.6  0.2488 -113.1
 0.700  0.4737 -172.6  13.243   91.9  0.0416   62.7  0.2445 -114.4
 0.720  0.4740 -173.5  12.923   91.4  0.0425   62.8  0.2412 -115.4
 0.740  0.4743 -174.4  12.604   90.8  0.0434   62.9  0.2379 -116.4
 0.760  0.4748 -175.2  12.286   90.2  0.0444   63.0  0.2348 -117.4
 0.780  0.4754 -176.1  11.970   89.6  0.0453   63.1  0.2317 -118.5
 0.800  0.4761 -177.0  11.655   89.0  0.0462   63.2  0.2287 -119.6
 0.820  0.4765 -177.8  11.405   88.5  0.0471   63.3  0.2263 -120.5
 0.840  0.4769 -178.5  11.156   88.1  0.0480   63.3  0.2240 -121.3
 0.860  0.4775 -179.3  10.907   87.6  0.0490   63.4  0.2217 -122.2
 0.880  0.4781  180.0  10.660   87.0  0.0499   63.4  0.2195 -123.2
 0.900  0.4788  179.2  10.413   86.5  0.0508   63.5  0.2173 -124.1
 0.920  0.4790  178.5  10.210   86.1  0.0517   63.5  0.2155 -124.9
 0.940  0.4794  177.8  10.008   85.6  0.0527   63.6  0.2138 -125.7
 0.960  0.4797  177.2   9.806   85.2  0.0536   63.6  0.2121 -126.5
 0.980  0.4802  176.5   9.605   84.7  0.0546   63.7  0.2105 -127.3
 1.000  0.4807  175.8   9.405   84.2  0.0555   63.7  0.2089 -128.1
 1.020  0.4810  175.2   9.238   83.8  0.0564   63.7  0.2077 -128.8
 1.040  0.4813  174.6   9.071   83.4  0.0574   63.7  0.2064 -129.5
 1.060  0.4817  173.9   8.904   82.9  0.0583   63.6  0.2053 -130.2
 1.080  0.4821  173.3   8.738   82.5  0.0593   63.6  0.2041 -130.9
 1.100  0.4826  172.7   8.573   82.0  0.0602   63.6  0.2030 -131.6
 1.120  0.4831  172.1   8.433   81.6  0.0611   63.6  0.2021 -132.2
 1.140  0.4837  171.5   8.294   81.2  0.0621   63.5  0.2011 -132.9
 1.160  0.4843  171.0   8.155   80.8  0.0630   63.5  0.2002 -133.5
 1.180  0.4849  170.4   8.016   80.4  0.0640   63.4  0.1993 -134.1
 1.200  0.4856  169.8   7.878   80.0  0.0649   63.4  0.1985 -134.8
 1.220  0.4860  169.3   7.758   79.6  0.0658   63.3  0.1978 -135.4
 1.240  0.4864  168.7   7.639   79.2  0.0668   63.3  0.1972 -135.9
 1.260  0.4868  168.2   7.520   78.8  0.0677   63.2  0.1966 -136.5
 1.280  0.4873  167.6   7.401   78.4  0.0687   63.2  0.1960 -137.0
 1.300  0.4878  167.1   7.283   78.0  0.0696   63.1  0.1954 -137.6
 1.320  0.4881  166.6   7.180   77.7  0.0705   63.0  0.1948 -138.2
 1.340  0.4885  166.1   7.078   77.3  0.0715   62.9  0.1943 -138.7
 1.360  0.4889  165.6   6.976   77.0  0.0724   62.9  0.1938 -139.3
 1.380  0.4893  165.1   6.874   76.6  0.0734   62.8  0.1933 -139.8
 1.400  0.4898  164.6   6.772   76.2  0.0743   62.7  0.1928 -140.4
 1.420  0.4904  164.1   6.683   75.8  0.0753   62.6  0.1925 -140.9
 1.440  0.4911  163.6   6.595   75.5  0.0762   62.5  0.1922 -141.3
 1.460  0.4918  163.0   6.507   75.1  0.0772   62.4  0.1919 -141.8
 1.480  0.4926  162.5   6.419   74.7  0.0781   62.3  0.1917 -142.2
 1.500  0.4934  162.0   6.332   74.3  0.0791   62.2  0.1914 -142.7
 1.520  0.4938  161.5   6.254   74.0  0.0800   62.1  0.1912 -143.2
 1.540  0.4942  161.0   6.176   73.6  0.0810   62.0  0.1910 -143.7
 1.560  0.4947  160.5   6.098   73.3  0.0819   61.9  0.1908 -144.1
 1.580  0.4952  160.0   6.020   73.0  0.0829   61.8  0.1906 -144.6
 1.600  0.4958  159.5   5.943   72.6  0.0838   61.7  0.1904 -145.1
 1.620  0.4962  159.1   5.875   72.3  0.0847   61.6  0.1903 -145.5
 1.640  0.4967  158.7   5.807   71.9  0.0856   61.5  0.1901 -145.9
 1.660  0.4972  158.2   5.739   71.5  0.0866   61.3  0.1900 -146.4
 1.680  0.4977  157.8   5.671   71.2  0.0875   61.2  0.1899 -146.8
 1.700  0.4983  157.4   5.604   70.8  0.0884   61.1  0.1898 -147.2
 1.720  0.4988  156.9   5.542   70.5  0.0893   61.0  0.1898 -147.6
 1.740  0.4993  156.5   5.480   70.1  0.0903   60.8  0.1898 -148.0
 1.760  0.4999  156.0   5.419   69.8  0.0912   60.7  0.1898 -148.5
 1.780  0.5005  155.6   5.357   69.5  0.0922   60.5  0.1899 -148.9
 1.800  0.5011  155.1   5.296   69.1  0.0931   60.4  0.1899 -149.3
 1.820  0.5018  154.7   5.242   68.8  0.0940   60.3  0.1899 -149.7
 1.840  0.5025  154.2   5.188   68.4  0.0950   60.1  0.1900 -150.1
 1.860  0.5032  153.8   5.135   68.1  0.0959   60.0  0.1900 -150.5
 1.880  0.5040  153.3   5.081   67.8  0.0969   59.8  0.1900 -150.9
 1.900  0.5048  152.9   5.028   67.4  0.0978   59.7  0.1901 -151.3
 1.920  0.5053  152.5   4.978   67.1  0.0987   59.6  0.1902 -151.7
 1.940  0.5058  152.0   4.929   66.7  0.0996   59.4  0.1904 -152.1
 1.960  0.5063  151.6   4.879   66.4  0.1006   59.3  0.1905 -152.5
 1.980  0.5068  151.1   4.830   66.1  0.1015   59.1  0.1906 -152.9
 2.000  0.5074  150.7   4.781   65.7  0.1024   59.0  0.1908 -153.3
 2.020  0.5081  150.3   4.737   65.4  0.1033   58.8  0.1910 -153.7
 2.040  0.5088  149.9   4.693   65.1  0.1042   58.7  0.1913 -154.1
 2.060  0.5096  149.5   4.650   64.7  0.1051   58.5  0.1915 -154.5
 2.080  0.5103  149.0   4.606   64.4  0.1060   58.3  0.1918 -155.0
 2.100  0.5111  148.6   4.563   64.1  0.1069   58.2  0.1921 -155.4
 2.120  0.5119  148.2   4.520   63.7  0.1079   58.0  0.1924 -155.8
 2.140  0.5128  147.8   4.477   63.4  0.1088   57.9  0.1927 -156.2
 2.160  0.5137  147.4   4.434   63.0  0.1097   57.7  0.1930 -156.6
 2.180  0.5146  147.0   4.391   62.7  0.1106   57.5  0.1933 -157.0
 2.200  0.5155  146.6   4.349   62.3  0.1115   57.4  0.1936 -157.4
 2.220  0.5162  146.2   4.313   62.0  0.1124   57.2  0.1940 -157.8
 2.240  0.5169  145.8   4.276   61.7  0.1133   57.0  0.1944 -158.2
 2.260  0.5176  145.4   4.240   61.4  0.1142   56.9  0.1948 -158.6
 2.280  0.5184  145.0   4.204   61.1  0.1150   56.7  0.1952 -159.1
 2.300  0.5191  144.6   4.168   60.8  0.1159   56.5  0.1956 -159.5
 2.320  0.5200  144.2   4.132   60.4  0.1168   56.3  0.1961 -159.9
 2.340  0.5208  143.9   4.096   60.1  0.1177   56.2  0.1965 -160.3
 2.360  0.5216  143.5   4.061   59.8  0.1186   56.0  0.1970 -160.7
 2.380  0.5225  143.1   4.025   59.4  0.1195   55.9  0.1974 -161.1
 2.400  0.5234  142.7   3.990   59.1  0.1204   55.7  0.1979 -161.5
 2.420  0.5242  142.3   3.958   58.8  0.1213   55.5  0.1985 -161.9
 2.440  0.5251  141.9   3.927   58.5  0.1221   55.3  0.1991 -162.3
 2.460  0.5259  141.5   3.895   58.2  0.1230   55.2  0.1997 -162.7
 2.480  0.5268  141.2   3.864   57.9  0.1239   55.0  0.2003 -163.1
 2.500  0.5278  140.8   3.833   57.6  0.1247   54.8  0.2009 -163.5
 2.520  0.5287  140.4   3.802   57.2  0.1256   54.7  0.2016 -163.9
 2.540  0.5297  140.0   3.771   56.9  0.1265   54.5  0.2022 -164.3
 2.560  0.5307  139.6   3.740   56.6  0.1274   54.3  0.2029 -164.6
 2.580  0.5317  139.3   3.710   56.2  0.1282   54.2  0.2035 -165.0
 2.600  0.5327  138.9   3.679   55.9  0.1291   54.0  0.2042 -165.4
 2.620  0.5335  138.5   3.652   55.6  0.1299   53.8  0.2049 -165.8
 2.640  0.5343  138.2   3.625   55.3  0.1307   53.6  0.2057 -166.2
 2.660  0.5351  137.8   3.598   55.0  0.1316   53.4  0.2064 -166.6
 2.680  0.5359  137.5   3.572   54.7  0.1324   53.3  0.2072 -167.0
 2.700  0.5367  137.1   3.545   54.4  0.1332   53.1  0.2080 -167.3
 2.720  0.5376  136.8   3.519   54.1  0.1341   52.9  0.2088 -167.7
 2.740  0.5385  136.4   3.492   53.8  0.1349   52.7  0.2096 -168.1
 2.760  0.5394  136.1   3.466   53.5  0.1357   52.5  0.2104 -168.5
 2.780  0.5404  135.7   3.440   53.1  0.1366   52.4  0.2112 -168.8
 2.800  0.5413  135.4   3.414   52.8  0.1374   52.2  0.2120 -169.2
 2.820  0.5422  135.1   3.390   52.5  0.1382   52.0  0.2128 -169.6
 2.840  0.5431  134.7   3.367   52.2  0.1390   51.8  0.2136 -169.9
 2.860  0.5440  134.4   3.343   51.9  0.1398   51.6  0.2144 -170.3
 2.880  0.5449  134.1   3.320   51.7  0.1407   51.5  0.2152 -170.6
 2.900  0.5459  133.7   3.296   51.4  0.1415   51.3  0.2160 -171.0
 2.920  0.5468  133.4   3.273   51.1  0.1423   51.1  0.2168 -171.3
 2.940  0.5478  133.1   3.250   50.7  0.1431   50.9  0.2177 -171.7
 2.960  0.5488  132.8   3.227   50.4  0.1439   50.7  0.2185 -172.0
 2.980  0.5499  132.4   3.204   50.1  0.1448   50.6  0.2193 -172.4
 3.000  0.5509  132.1   3.181   49.8  0.1456   50.4  0.2202 -172.7
 3.100  0.5549  130.4   3.084   48.5  0.1494   49.4  0.2244 -174.3
 3.200  0.5594  128.8   2.989   47.2  0.1532   48.4  0.2288 -175.9
 3.300  0.5644  127.2   2.895   45.8  0.1571   47.5  0.2333 -177.4
 3.400  0.5698  125.6   2.804   44.2  0.1610   46.6  0.2380 -178.9
 3.500  0.5756  124.0   2.714   42.6  0.1650   45.8  0.2429  179.7
 3.600  0.5808  122.5   2.640   41.4  0.1683   44.8  0.2478  177.9
 3.700  0.5863  121.1   2.566   40.1  0.1717   43.8  0.2528  176.3
 3.800  0.5922  119.7   2.495   38.7  0.1752   42.9  0.2581  174.6
 3.900  0.5985  118.3   2.425   37.2  0.1787   42.0  0.2636  173.1
 4.000  0.6051  117.0   2.356   35.7  0.1822   41.2  0.2693  171.6
 4.100  0.6103  115.8   2.297   34.5  0.1852   40.3  0.2753  170.0
 4.200  0.6157  114.6   2.240   33.3  0.1883   39.5  0.2814  168.5
 4.300  0.6215  113.4   2.183   32.1  0.1914   38.7  0.2878  167.1
 4.400  0.6275  112.2   2.128   30.7  0.1946   37.9  0.2943  165.7
 4.500  0.6337  111.1   2.074   29.3  0.1978   37.2  0.3010  164.4
 4.600  0.6376  110.0   2.029   28.2  0.2007   36.4  0.3057  163.3
 4.700  0.6417  108.9   1.984   27.1  0.2037   35.7  0.3105  162.2
 4.800  0.6461  107.8   1.940   26.0  0.2067   35.0  0.3155  161.2
 4.900  0.6507  106.7   1.897   24.8  0.2097   34.3  0.3205  160.2
 5.000  0.6555  105.6   1.855   23.5  0.2128   33.6  0.3256  159.2
 5.100  0.6582  104.7   1.820   22.5  0.2160   32.8  0.3286  158.3
 5.200  0.6610  103.7   1.786   21.5  0.2192   32.0  0.3316  157.5
 5.300  0.6640  102.8   1.752   20.4  0.2225   31.3  0.3347  156.6
 5.400  0.6672  101.9   1.719   19.3  0.2258   30.5  0.3379  155.8
 5.500  0.6706  101.0   1.687   18.1  0.2292   29.8  0.3412  155.0
 5.600  0.6725  100.2   1.659   17.1  0.2322   29.0  0.3446  154.2
 5.700  0.6746   99.4   1.632   16.0  0.2352   28.1  0.3481  153.4
 5.800  0.6768   98.6   1.605   15.0  0.2382   27.3  0.3517  152.7
 5.900  0.6792   97.9   1.579   13.9  0.2413   26.6  0.3553  151.9
 6.000  0.6816   97.1   1.553   12.7  0.2445   25.8  0.3590  151.2
 6.100  0.6819   96.3   1.530   11.7  0.2471   25.0  0.3612  150.7
 6.200  0.6823   95.5   1.507   10.7  0.2496   24.2  0.3634  150.2
 6.300  0.6829   94.8   1.484    9.7  0.2523   23.5  0.3656  149.7
 6.400  0.6836   94.0   1.462    8.6  0.2550   22.7  0.3679  149.3
 6.500  0.6844   93.2   1.441    7.5  0.2577   22.0  0.3702  148.8
 6.600  0.6837   92.3   1.423    6.5  0.2607   21.3  0.3696  148.4
 6.800  0.6828   90.4   1.388    4.6  0.2668   19.9  0.3683  147.6
 7.000  0.6826   88.6   1.354    2.5  0.2730   18.5  0.3672  146.8
 7.200  0.6842   86.4   1.326    0.4  0.2795   16.8  0.3666  145.3
 7.400  0.6868   84.3   1.300   -1.7  0.2863   15.2  0.3662  143.8
 7.600  0.6904   81.9   1.274   -4.0  0.2926   13.4  0.3678  142.0
 7.800  0.6955   79.5   1.248   -6.4  0.2986   11.5  0.3716  139.7
 8.000  0.7019   77.0   1.224   -9.0  0.3048    9.6  0.3760  137.5
 8.200  0.7072   74.4   1.192  -11.3  0.3087    7.4  0.3806  134.7
 8.400  0.7139   71.9   1.163  -13.8  0.3131    5.3  0.3860  132.0
 8.600  0.7227   69.4   1.132  -16.2  0.3156    3.1  0.3930  128.7
 8.800  0.7332   67.2   1.100  -18.5  0.3165    1.0  0.4023  124.9
 9.000  0.7449   65.0   1.070  -20.9  0.3177   -1.1  0.4134  121.2
 9.200  0.7607   63.1   1.035  -22.7  0.3163   -2.7  0.4305  116.9
 9.400  0.7772   61.4   1.001  -24.7  0.3151   -4.3  0.4499  112.9
 9.600  0.7918   59.8   0.968  -26.4  0.3138   -5.6  0.4695  109.5
 9.800  0.8043   58.3   0.935  -27.8  0.3122   -6.5  0.4889  106.5
10.000  0.8173   56.9   0.903  -29.3  0.3107   -7.5  0.5096  103.8
!
!  f       NFmin   Gammaopt  rn/50
! GHz       dB    MAG  ANG    -
 0.450      1.77  0.29 -170   0.13
 0.900      1.79  0.27 -162   0.14
 1.900      1.89  0.36 -141   0.15
 3.500      1.72  0.59 -117   0.24
!
! (c) 2016  Infineon Technologies AG, Munich
