! Infineon Technologies  Discrete & RF Semiconductors
! BFP460
! VCE =  2.0 V,  IC =  70 mA
! Common Emitter S-Parameters:                            Jan 2016
# GHz  S  MA  R  50
!  f         S11            S21            S12            S22
! GHz     MAG   ANG      MAG   ANG      MAG   ANG      MAG   ANG
 0.030  0.2427  -49.6  63.323  167.1  0.0044   82.6  0.7960  -13.1
 0.035  0.2494  -56.0  62.649  164.8  0.0050   81.2  0.7901  -15.7
 0.040  0.2590  -62.0  62.081  162.4  0.0056   80.1  0.7858  -18.3
 0.045  0.2687  -67.4  61.196  160.0  0.0061   78.2  0.7770  -20.7
 0.050  0.2805  -72.3  60.422  157.5  0.0067   76.6  0.7696  -23.2
 0.055  0.2905  -77.0  59.583  155.5  0.0073   75.3  0.7594  -25.6
 0.060  0.3023  -81.3  58.817  153.5  0.0079   74.2  0.7505  -28.0
 0.065  0.3123  -86.0  57.896  151.5  0.0083   72.3  0.7386  -30.2
 0.070  0.3242  -90.3  57.049  149.4  0.0088   70.5  0.7278  -32.4
 0.075  0.3348  -93.2  56.052  147.7  0.0092   69.8  0.7153  -34.4
 0.080  0.3462  -95.9  55.104  146.0  0.0097   69.1  0.7038  -36.5
 0.085  0.3561  -99.3  54.001  144.2  0.0102   68.2  0.6906  -38.5
 0.090  0.3672 -102.6  52.951  142.4  0.0107   67.4  0.6783  -40.5
 0.095  0.3730 -105.0  51.851  140.9  0.0110   66.9  0.6659  -42.2
 0.100  0.3795 -107.4  50.786  139.4  0.0113   66.4  0.6542  -44.0
 0.105  0.3865 -109.8  49.828  138.0  0.0117   65.6  0.6415  -45.7
 0.110  0.3942 -112.2  48.901  136.5  0.0121   64.8  0.6293  -47.4
 0.115  0.4009 -114.6  47.870  135.1  0.0124   64.6  0.6170  -49.0
 0.120  0.4083 -117.0  46.867  133.7  0.0127   64.4  0.6052  -50.6
 0.125  0.4128 -119.0  45.918  132.5  0.0131   63.7  0.5932  -52.0
 0.130  0.4177 -120.9  44.989  131.3  0.0135   63.0  0.5816  -53.5
 0.135  0.4233 -122.7  44.108  130.2  0.0137   62.7  0.5703  -54.8
 0.140  0.4294 -124.5  43.245  129.0  0.0140   62.4  0.5594  -56.2
 0.145  0.4339 -126.3  42.322  127.9  0.0143   62.0  0.5487  -57.5
 0.150  0.4388 -128.1  41.414  126.8  0.0146   61.6  0.5382  -58.8
 0.155  0.4411 -129.4  40.658  126.1  0.0148   61.5  0.5286  -59.7
 0.160  0.4437 -130.7  39.909  125.3  0.0151   61.3  0.5192  -60.6
 0.165  0.4465 -132.0  39.167  124.6  0.0153   61.2  0.5099  -61.6
 0.170  0.4495 -133.2  38.432  123.8  0.0156   61.0  0.5007  -62.6
 0.175  0.4527 -134.5  37.704  123.0  0.0158   60.9  0.4917  -63.6
 0.180  0.4562 -135.7  36.985  122.1  0.0160   60.8  0.4829  -64.7
 0.185  0.4598 -136.9  36.275  121.2  0.0163   60.6  0.4742  -65.8
 0.190  0.4636 -138.1  35.574  120.3  0.0165   60.5  0.4657  -67.0
 0.195  0.4677 -139.3  34.882  119.3  0.0168   60.4  0.4575  -68.2
 0.200  0.4719 -140.4  34.201  118.3  0.0170   60.3  0.4494  -69.4
 0.220  0.4783 -144.0  31.993  116.1  0.0179   60.3  0.4223  -72.3
 0.240  0.4865 -147.4  29.838  113.6  0.0188   60.2  0.3965  -75.6
 0.260  0.4933 -150.4  27.962  111.4  0.0197   60.3  0.3741  -78.6
 0.280  0.4979 -152.9  26.334  109.6  0.0206   60.5  0.3546  -81.1
 0.300  0.5035 -155.4  24.735  107.6  0.0214   60.7  0.3359  -83.9
 0.320  0.5065 -157.4  23.471  106.3  0.0222   61.1  0.3210  -85.9
 0.340  0.5102 -159.3  22.222  104.8  0.0231   61.4  0.3066  -88.1
 0.360  0.5128 -161.1  21.108  103.4  0.0239   61.8  0.2939  -90.2
 0.380  0.5144 -162.8  20.125  102.2  0.0248   62.0  0.2828  -92.0
 0.400  0.5165 -164.5  19.152  100.9  0.0257   62.3  0.2720  -94.0
 0.420  0.5183 -165.8  18.357  100.0  0.0265   62.7  0.2631  -95.5
 0.440  0.5203 -167.1  17.566   99.0  0.0274   63.0  0.2545  -97.1
 0.450  0.5214 -167.8  17.173   98.5  0.0278   63.2  0.2502  -98.0
 0.460  0.5220 -168.4  16.849   98.1  0.0282   63.4  0.2467  -98.7
 0.480  0.5234 -169.5  16.205   97.2  0.0291   63.7  0.2397 -100.2
 0.500  0.5249 -170.6  15.564   96.3  0.0300   64.0  0.2329 -101.7
 0.520  0.5257 -171.6  15.064   95.7  0.0309   64.2  0.2276 -102.8
 0.540  0.5266 -172.6  14.566   95.0  0.0318   64.5  0.2225 -104.0
 0.560  0.5277 -173.6  14.070   94.2  0.0327   64.7  0.2174 -105.3
 0.580  0.5290 -174.5  13.577   93.4  0.0336   64.9  0.2124 -106.6
 0.600  0.5304 -175.5  13.086   92.6  0.0345   65.1  0.2076 -108.0
 0.620  0.5310 -176.3  12.722   92.1  0.0354   65.3  0.2040 -109.0
 0.640  0.5317 -177.1  12.360   91.5  0.0363   65.4  0.2005 -110.1
 0.660  0.5325 -177.9  11.999   90.9  0.0372   65.5  0.1971 -111.2
 0.680  0.5334 -178.7  11.639   90.2  0.0381   65.7  0.1938 -112.3
 0.700  0.5344 -179.5  11.281   89.5  0.0390   65.8  0.1905 -113.5
 0.720  0.5349  179.8  11.006   89.0  0.0399   65.9  0.1880 -114.4
 0.740  0.5354  179.1  10.732   88.5  0.0409   66.0  0.1856 -115.2
 0.760  0.5360  178.4  10.459   88.0  0.0418   66.1  0.1832 -116.1
 0.780  0.5367  177.7  10.187   87.4  0.0428   66.1  0.1809 -117.1
 0.800  0.5375  177.0   9.916   86.8  0.0437   66.2  0.1786 -118.0
 0.820  0.5380  176.4   9.701   86.4  0.0446   66.2  0.1769 -118.8
 0.840  0.5386  175.8   9.487   85.9  0.0455   66.3  0.1752 -119.6
 0.860  0.5392  175.1   9.274   85.4  0.0465   66.3  0.1736 -120.4
 0.880  0.5399  174.5   9.061   84.9  0.0474   66.4  0.1720 -121.2
 0.900  0.5406  173.9   8.849   84.4  0.0483   66.4  0.1704 -122.1
 0.920  0.5408  173.3   8.676   84.0  0.0492   66.4  0.1691 -122.8
 0.940  0.5410  172.7   8.503   83.5  0.0502   66.4  0.1679 -123.5
 0.960  0.5413  172.2   8.330   83.1  0.0511   66.4  0.1667 -124.2
 0.980  0.5417  171.6   8.158   82.6  0.0521   66.4  0.1655 -124.9
 1.000  0.5421  171.0   7.987   82.1  0.0530   66.4  0.1643 -125.6
 1.020  0.5426  170.5   7.844   81.7  0.0539   66.4  0.1635 -126.2
 1.040  0.5430  170.0   7.702   81.3  0.0549   66.3  0.1627 -126.8
 1.060  0.5436  169.4   7.560   80.9  0.0558   66.3  0.1619 -127.4
 1.080  0.5442  168.9   7.418   80.5  0.0568   66.2  0.1611 -128.1
 1.100  0.5448  168.4   7.277   80.0  0.0577   66.2  0.1604 -128.7
 1.120  0.5452  167.9   7.157   79.6  0.0586   66.1  0.1597 -129.3
 1.140  0.5456  167.4   7.038   79.2  0.0596   66.1  0.1591 -129.8
 1.160  0.5460  166.8   6.919   78.8  0.0605   66.0  0.1585 -130.4
 1.180  0.5466  166.3   6.800   78.4  0.0615   66.0  0.1579 -131.0
 1.200  0.5471  165.8   6.682   78.0  0.0624   65.9  0.1573 -131.6
 1.220  0.5475  165.3   6.580   77.6  0.0633   65.8  0.1570 -132.1
 1.240  0.5480  164.8   6.479   77.2  0.0642   65.7  0.1566 -132.6
 1.260  0.5485  164.4   6.378   76.8  0.0652   65.6  0.1563 -133.0
 1.280  0.5491  163.9   6.277   76.4  0.0661   65.5  0.1560 -133.5
 1.300  0.5497  163.4   6.177   76.0  0.0670   65.4  0.1557 -134.0
 1.320  0.5499  162.9   6.090   75.6  0.0679   65.3  0.1554 -134.5
 1.340  0.5502  162.5   6.003   75.3  0.0689   65.2  0.1551 -135.0
 1.360  0.5506  162.0   5.916   74.9  0.0698   65.2  0.1548 -135.5
 1.380  0.5509  161.6   5.830   74.5  0.0708   65.1  0.1545 -136.0
 1.400  0.5513  161.1   5.744   74.1  0.0717   65.0  0.1542 -136.5
 1.420  0.5519  160.7   5.669   73.7  0.0726   64.9  0.1541 -136.9
 1.440  0.5524  160.2   5.594   73.4  0.0736   64.8  0.1540 -137.3
 1.460  0.5531  159.8   5.519   73.0  0.0745   64.6  0.1539 -137.7
 1.480  0.5537  159.3   5.444   72.6  0.0755   64.5  0.1539 -138.1
 1.500  0.5544  158.9   5.370   72.2  0.0764   64.4  0.1538 -138.5
 1.520  0.5548  158.5   5.303   71.9  0.0773   64.3  0.1538 -138.9
 1.540  0.5553  158.0   5.237   71.5  0.0782   64.2  0.1537 -139.4
 1.560  0.5557  157.6   5.171   71.2  0.0792   64.0  0.1537 -139.8
 1.580  0.5563  157.1   5.105   70.9  0.0801   63.9  0.1537 -140.3
 1.600  0.5568  156.7   5.039   70.5  0.0810   63.8  0.1537 -140.7
 1.620  0.5573  156.3   4.981   70.2  0.0819   63.7  0.1537 -141.1
 1.640  0.5579  155.9   4.923   69.8  0.0828   63.5  0.1537 -141.4
 1.660  0.5585  155.4   4.866   69.4  0.0838   63.4  0.1537 -141.8
 1.680  0.5591  155.0   4.808   69.1  0.0847   63.2  0.1538 -142.1
 1.700  0.5598  154.6   4.751   68.7  0.0856   63.1  0.1538 -142.5
 1.720  0.5601  154.2   4.698   68.4  0.0865   63.0  0.1539 -142.9
 1.740  0.5605  153.8   4.646   68.0  0.0874   62.8  0.1541 -143.3
 1.760  0.5609  153.3   4.594   67.7  0.0884   62.7  0.1543 -143.6
 1.780  0.5613  152.9   4.542   67.4  0.0893   62.5  0.1544 -144.0
 1.800  0.5618  152.5   4.490   67.0  0.0902   62.4  0.1546 -144.4
 1.820  0.5624  152.1   4.444   66.7  0.0911   62.3  0.1547 -144.8
 1.840  0.5630  151.7   4.398   66.3  0.0920   62.1  0.1549 -145.2
 1.860  0.5636  151.2   4.353   65.9  0.0930   62.0  0.1550 -145.6
 1.880  0.5643  150.8   4.307   65.6  0.0939   61.8  0.1551 -146.0
 1.900  0.5650  150.4   4.262   65.2  0.0948   61.7  0.1553 -146.4
 1.920  0.5656  150.0   4.220   64.9  0.0957   61.5  0.1555 -146.8
 1.940  0.5663  149.6   4.178   64.5  0.0966   61.4  0.1558 -147.1
 1.960  0.5669  149.1   4.136   64.1  0.0975   61.2  0.1560 -147.5
 1.980  0.5677  148.7   4.094   63.8  0.0984   61.1  0.1562 -147.8
 2.000  0.5684  148.3   4.052   63.4  0.0993   60.9  0.1565 -148.2
 2.020  0.5690  147.9   4.015   63.1  0.1002   60.7  0.1568 -148.6
 2.040  0.5696  147.5   3.977   62.8  0.1011   60.5  0.1572 -149.0
 2.060  0.5702  147.2   3.940   62.5  0.1020   60.4  0.1575 -149.4
 2.080  0.5709  146.8   3.903   62.2  0.1029   60.2  0.1578 -149.8
 2.100  0.5716  146.4   3.866   61.8  0.1038   60.0  0.1582 -150.2
 2.120  0.5723  146.0   3.830   61.5  0.1047   59.8  0.1586 -150.6
 2.140  0.5730  145.6   3.793   61.2  0.1057   59.7  0.1589 -151.0
 2.160  0.5738  145.3   3.757   60.8  0.1066   59.5  0.1593 -151.4
 2.180  0.5746  144.9   3.720   60.5  0.1075   59.4  0.1597 -151.8
 2.200  0.5754  144.5   3.684   60.1  0.1084   59.2  0.1601 -152.2
 2.220  0.5760  144.1   3.653   59.8  0.1093   59.0  0.1605 -152.6
 2.240  0.5766  143.7   3.622   59.5  0.1101   58.8  0.1610 -153.0
 2.260  0.5772  143.4   3.592   59.1  0.1110   58.7  0.1614 -153.4
 2.280  0.5779  143.0   3.561   58.8  0.1119   58.5  0.1618 -153.8
 2.300  0.5786  142.6   3.531   58.5  0.1127   58.3  0.1623 -154.2
 2.320  0.5793  142.2   3.501   58.1  0.1136   58.1  0.1628 -154.6
 2.340  0.5800  141.8   3.471   57.8  0.1145   58.0  0.1632 -155.0
 2.360  0.5808  141.5   3.441   57.4  0.1154   57.8  0.1637 -155.4
 2.380  0.5816  141.1   3.411   57.1  0.1162   57.7  0.1642 -155.8
 2.400  0.5824  140.7   3.381   56.7  0.1171   57.5  0.1647 -156.2
 2.420  0.5831  140.3   3.354   56.4  0.1180   57.3  0.1653 -156.6
 2.440  0.5839  140.0   3.327   56.1  0.1188   57.1  0.1660 -157.0
 2.460  0.5846  139.6   3.301   55.8  0.1197   56.9  0.1666 -157.5
 2.480  0.5854  139.2   3.274   55.5  0.1205   56.7  0.1673 -157.9
 2.500  0.5863  138.9   3.248   55.2  0.1214   56.6  0.1679 -158.3
 2.520  0.5871  138.5   3.221   54.8  0.1222   56.4  0.1686 -158.7
 2.540  0.5880  138.2   3.195   54.5  0.1231   56.2  0.1693 -159.1
 2.560  0.5889  137.8   3.169   54.2  0.1240   56.0  0.1700 -159.5
 2.580  0.5898  137.5   3.143   53.8  0.1248   55.9  0.1707 -159.9
 2.600  0.5907  137.1   3.117   53.5  0.1257   55.7  0.1714 -160.3
 2.620  0.5914  136.8   3.094   53.2  0.1265   55.5  0.1722 -160.7
 2.640  0.5921  136.4   3.071   52.9  0.1273   55.3  0.1729 -161.1
 2.660  0.5929  136.1   3.049   52.6  0.1282   55.1  0.1737 -161.5
 2.680  0.5936  135.7   3.026   52.3  0.1290   55.0  0.1745 -161.9
 2.700  0.5944  135.4   3.004   52.0  0.1298   54.8  0.1753 -162.2
 2.720  0.5952  135.0   2.981   51.6  0.1307   54.6  0.1761 -162.6
 2.740  0.5961  134.7   2.959   51.3  0.1315   54.4  0.1769 -163.0
 2.760  0.5969  134.4   2.937   51.0  0.1323   54.2  0.1777 -163.4
 2.780  0.5978  134.0   2.915   50.6  0.1332   54.1  0.1786 -163.7
 2.800  0.5987  133.7   2.893   50.3  0.1340   53.9  0.1794 -164.1
 2.820  0.5994  133.4   2.873   50.0  0.1348   53.7  0.1802 -164.5
 2.840  0.6001  133.0   2.853   49.7  0.1356   53.5  0.1811 -164.8
 2.860  0.6009  132.7   2.833   49.4  0.1364   53.3  0.1819 -165.2
 2.880  0.6017  132.4   2.813   49.2  0.1372   53.2  0.1828 -165.6
 2.900  0.6025  132.0   2.794   48.9  0.1380   53.0  0.1837 -165.9
 2.920  0.6033  131.7   2.774   48.6  0.1388   52.8  0.1845 -166.3
 2.940  0.6041  131.4   2.754   48.2  0.1397   52.6  0.1854 -166.7
 2.960  0.6049  131.1   2.735   47.9  0.1405   52.4  0.1863 -167.0
 2.980  0.6058  130.7   2.715   47.6  0.1413   52.3  0.1872 -167.4
 3.000  0.6067  130.4   2.696   47.3  0.1421   52.1  0.1881 -167.7
 3.100  0.6102  128.8   2.614   46.0  0.1459   51.1  0.1925 -169.4
 3.200  0.6141  127.2   2.533   44.6  0.1497   50.1  0.1970 -171.0
 3.300  0.6185  125.7   2.454   43.1  0.1535   49.1  0.2016 -172.6
 3.400  0.6234  124.1   2.376   41.5  0.1574   48.2  0.2065 -174.1
 3.500  0.6287  122.6   2.301   39.8  0.1613   47.4  0.2114 -175.5
 3.600  0.6332  121.2   2.238   38.6  0.1647   46.4  0.2163 -177.3
 3.700  0.6381  119.8   2.176   37.2  0.1681   45.5  0.2214 -179.0
 3.800  0.6434  118.4   2.116   35.8  0.1715   44.6  0.2268  179.3
 3.900  0.6490  117.0   2.057   34.4  0.1750   43.7  0.2322  177.8
 4.000  0.6550  115.7   1.999   32.8  0.1785   42.9  0.2379  176.3
 4.100  0.6593  114.5   1.950   31.6  0.1815   42.0  0.2440  174.7
 4.200  0.6639  113.3   1.901   30.4  0.1846   41.2  0.2503  173.2
 4.300  0.6689  112.1   1.853   29.1  0.1877   40.4  0.2568  171.7
 4.400  0.6740  110.9   1.807   27.7  0.1908   39.6  0.2634  170.3
 4.500  0.6795  109.8   1.761   26.3  0.1940   38.9  0.2702  169.0
 4.600  0.6829  108.7   1.723   25.2  0.1970   38.2  0.2754  167.9
 4.700  0.6865  107.6   1.685   24.1  0.2001   37.4  0.2806  166.8
 4.800  0.6903  106.6   1.648   22.9  0.2032   36.7  0.2860  165.8
 4.900  0.6944  105.5   1.612   21.7  0.2063   36.1  0.2914  164.8
 5.000  0.6987  104.5   1.576   20.4  0.2094   35.4  0.2969  163.9
 5.100  0.7009  103.6   1.547   19.4  0.2127   34.6  0.3005  163.1
 5.200  0.7032  102.6   1.518   18.4  0.2160   33.8  0.3041  162.2
 5.300  0.7058  101.7   1.489   17.3  0.2193   33.1  0.3078  161.4
 5.400  0.7085  100.8   1.461   16.2  0.2227   32.3  0.3116  160.7
 5.500  0.7114   99.9   1.434   15.0  0.2261   31.6  0.3154  159.9
 5.600  0.7132   99.1   1.411   14.0  0.2291   30.7  0.3194  159.1
 5.700  0.7150   98.3   1.388   12.9  0.2322   29.9  0.3236  158.4
 5.800  0.7171   97.5   1.365   11.8  0.2353   29.1  0.3277  157.6
 5.900  0.7192   96.8   1.343   10.7  0.2385   28.3  0.3319  156.9
 6.000  0.7215   96.0   1.322    9.5  0.2417   27.5  0.3362  156.2
 6.100  0.7214   95.2   1.302    8.5  0.2444   26.7  0.3392  155.7
 6.200  0.7215   94.4   1.282    7.5  0.2471   26.0  0.3421  155.2
 6.300  0.7217   93.7   1.263    6.5  0.2498   25.2  0.3451  154.7
 6.400  0.7220   92.9   1.244    5.4  0.2526   24.5  0.3482  154.3
 6.500  0.7225   92.1   1.226    4.3  0.2554   23.8  0.3512  153.8
 6.600  0.7217   91.2   1.211    3.4  0.2585   23.0  0.3514  153.4
 6.800  0.7206   89.3   1.181    1.4  0.2647   21.6  0.3517  152.7
 7.000  0.7203   87.5   1.153   -0.6  0.2711   20.2  0.3521  152.0
 7.200  0.7219   85.4   1.129   -2.7  0.2778   18.5  0.3524  150.5
 7.400  0.7244   83.3   1.107   -4.9  0.2847   16.9  0.3530  149.0
 7.600  0.7280   80.9   1.085   -7.2  0.2911   15.1  0.3553  147.1
 7.800  0.7328   78.4   1.063   -9.6  0.2973   13.1  0.3596  144.8
 8.000  0.7391   75.9   1.042  -12.1  0.3038   11.2  0.3644  142.6
 8.200  0.7431   73.3   1.015  -14.4  0.3079    9.0  0.3691  139.7
 8.400  0.7486   70.8   0.989  -16.8  0.3125    6.8  0.3747  136.9
 8.600  0.7561   68.3   0.963  -19.1  0.3153    4.7  0.3815  133.5
 8.800  0.7655   66.0   0.936  -21.3  0.3163    2.6  0.3902  129.5
 9.000  0.7762   63.7   0.910  -23.6  0.3178    0.5  0.4008  125.7
 9.200  0.7901   61.9   0.881  -25.3  0.3166   -1.1  0.4173  121.2
 9.400  0.8049   60.1   0.852  -27.2  0.3156   -2.7  0.4362  117.1
 9.600  0.8176   58.5   0.824  -28.8  0.3145   -4.0  0.4558  113.5
 9.800  0.8282   57.1   0.796  -30.2  0.3132   -4.9  0.4758  110.4
10.000  0.8392   55.7   0.769  -31.6  0.3120   -5.9  0.4970  107.6
!
!  f       NFmin   Gammaopt  rn/50
! GHz       dB    MAG  ANG    -
 0.450      2.18  0.41 -169   0.13
 0.900      2.25  0.38 -159   0.14
 1.900      2.41  0.49 -138   0.20
 3.500      2.03  0.78 -114   0.43
!
! (c) 2016  Infineon Technologies AG, Munich
