! Infineon Technologies  Discrete & RF Semiconductors
! BFP460
! VCE =  3.0 V,  IC =  45 mA
! Common Emitter S-Parameters:                            Jan 2016
# GHz  S  MA  R  50
!  f         S11            S21            S12            S22
! GHz     MAG   ANG      MAG   ANG      MAG   ANG      MAG   ANG
 0.030  0.3877  -25.1  63.843  168.5  0.0044   83.6  0.9101  -11.4
 0.035  0.3861  -29.1  63.316  166.5  0.0050   82.1  0.9053  -13.5
 0.040  0.3864  -33.2  62.867  164.5  0.0057   81.0  0.9018  -15.6
 0.045  0.3854  -36.8  62.115  162.6  0.0063   79.6  0.8946  -17.5
 0.050  0.3859  -40.4  61.432  160.7  0.0069   78.5  0.8884  -19.5
 0.055  0.3875  -44.2  60.808  159.1  0.0075   77.4  0.8798  -21.4
 0.060  0.3908  -47.9  60.234  157.4  0.0082   76.4  0.8723  -23.4
 0.065  0.3912  -51.9  59.612  155.7  0.0087   75.0  0.8624  -25.3
 0.070  0.3936  -55.9  59.046  153.9  0.0092   73.8  0.8534  -27.2
 0.075  0.3978  -58.9  58.263  152.4  0.0098   73.3  0.8428  -29.0
 0.080  0.4031  -61.9  57.519  150.9  0.0105   72.8  0.8331  -30.9
 0.085  0.4042  -65.2  56.659  149.4  0.0109   71.7  0.8214  -32.6
 0.090  0.4067  -68.5  55.841  147.8  0.0113   70.6  0.8105  -34.3
 0.095  0.4056  -71.0  54.907  146.5  0.0118   69.9  0.7991  -35.9
 0.100  0.4053  -73.5  54.004  145.1  0.0124   69.3  0.7884  -37.5
 0.105  0.4077  -76.3  53.239  143.7  0.0128   68.5  0.7763  -39.0
 0.110  0.4111  -79.0  52.506  142.3  0.0133   67.7  0.7648  -40.6
 0.115  0.4120  -81.8  51.642  141.0  0.0136   67.0  0.7533  -42.1
 0.120  0.4138  -84.6  50.804  139.7  0.0140   66.3  0.7423  -43.6
 0.125  0.4142  -86.8  49.978  138.6  0.0144   65.7  0.7304  -44.9
 0.130  0.4152  -89.0  49.173  137.4  0.0149   65.2  0.7190  -46.3
 0.135  0.4159  -91.4  48.397  136.3  0.0152   64.7  0.7078  -47.6
 0.140  0.4174  -93.7  47.640  135.1  0.0156   64.3  0.6969  -48.9
 0.145  0.4181  -95.8  46.785  134.0  0.0159   63.7  0.6859  -50.1
 0.150  0.4194  -97.8  45.947  132.9  0.0162   63.2  0.6752  -51.4
 0.155  0.4187  -99.5  45.215  132.1  0.0165   62.9  0.6646  -52.3
 0.160  0.4185 -101.2  44.492  131.4  0.0168   62.5  0.6542  -53.2
 0.165  0.4185 -102.9  43.777  130.6  0.0171   62.2  0.6440  -54.2
 0.170  0.4190 -104.6  43.071  129.7  0.0174   61.9  0.6340  -55.2
 0.175  0.4198 -106.4  42.375  128.9  0.0177   61.6  0.6242  -56.2
 0.180  0.4210 -108.0  41.688  128.0  0.0180   61.3  0.6146  -57.3
 0.185  0.4226 -109.7  41.012  127.0  0.0183   61.0  0.6052  -58.4
 0.190  0.4246 -111.4  40.347  126.1  0.0186   60.7  0.5960  -59.5
 0.195  0.4269 -113.1  39.693  125.1  0.0189   60.5  0.5871  -60.7
 0.200  0.4295 -114.7  39.051  124.1  0.0192   60.2  0.5784  -61.9
 0.220  0.4297 -119.7  36.771  121.7  0.0202   59.7  0.5465  -64.9
 0.240  0.4330 -124.6  34.564  119.0  0.0211   59.3  0.5161  -68.2
 0.260  0.4360 -128.8  32.604  116.6  0.0221   59.0  0.4892  -71.2
 0.280  0.4375 -132.5  30.852  114.7  0.0230   58.9  0.4649  -73.8
 0.300  0.4407 -136.1  29.140  112.5  0.0239   58.7  0.4416  -76.7
 0.320  0.4415 -139.0  27.728  111.0  0.0247   58.8  0.4224  -78.8
 0.340  0.4434 -142.0  26.338  109.3  0.0256   58.9  0.4038  -81.0
 0.360  0.4448 -144.6  25.091  107.8  0.0264   59.1  0.3873  -83.1
 0.380  0.4453 -146.9  23.978  106.5  0.0273   59.2  0.3725  -85.0
 0.400  0.4466 -149.3  22.879  105.1  0.0281   59.4  0.3582  -87.0
 0.420  0.4473 -151.2  21.962  104.0  0.0289   59.6  0.3461  -88.6
 0.440  0.4485 -153.1  21.054  102.9  0.0298   59.8  0.3343  -90.3
 0.450  0.4493 -154.1  20.603  102.3  0.0302   59.9  0.3285  -91.2
 0.460  0.4494 -154.9  20.227  101.9  0.0306   60.0  0.3236  -91.9
 0.480  0.4500 -156.6  19.479  100.9  0.0315   60.3  0.3139  -93.4
 0.500  0.4509 -158.3  18.736   99.9  0.0323   60.6  0.3045  -94.9
 0.520  0.4512 -159.7  18.147   99.2  0.0332   60.8  0.2970  -96.1
 0.540  0.4517 -161.1  17.560   98.4  0.0340   61.0  0.2897  -97.3
 0.560  0.4525 -162.5  16.977   97.6  0.0349   61.2  0.2825  -98.6
 0.580  0.4536 -163.8  16.397   96.7  0.0357   61.4  0.2754 -100.0
 0.600  0.4549 -165.2  15.822   95.8  0.0366   61.6  0.2685 -101.4
 0.620  0.4551 -166.3  15.390   95.2  0.0375   61.8  0.2633 -102.4
 0.640  0.4555 -167.4  14.959   94.6  0.0384   62.0  0.2581 -103.5
 0.660  0.4560 -168.4  14.530   93.9  0.0392   62.2  0.2530 -104.6
 0.680  0.4567 -169.5  14.104   93.2  0.0401   62.3  0.2481 -105.8
 0.700  0.4575 -170.6  13.679   92.5  0.0410   62.5  0.2432 -107.0
 0.720  0.4579 -171.5  13.349   92.0  0.0419   62.6  0.2394 -107.9
 0.740  0.4585 -172.4  13.021   91.4  0.0428   62.7  0.2357 -108.9
 0.760  0.4591 -173.3  12.693   90.8  0.0436   62.8  0.2320 -109.8
 0.780  0.4599 -174.2  12.367   90.2  0.0445   62.9  0.2284 -110.9
 0.800  0.4608 -175.1  12.043   89.6  0.0454   63.0  0.2249 -111.9
 0.820  0.4611 -175.9  11.785   89.1  0.0463   63.1  0.2221 -112.7
 0.840  0.4614 -176.7  11.528   88.6  0.0472   63.1  0.2194 -113.6
 0.860  0.4619 -177.5  11.272   88.1  0.0482   63.2  0.2168 -114.4
 0.880  0.4625 -178.3  11.016   87.6  0.0491   63.2  0.2142 -115.3
 0.900  0.4631 -179.1  10.762   87.0  0.0500   63.3  0.2116 -116.2
 0.920  0.4633 -179.8  10.553   86.6  0.0509   63.3  0.2095 -116.9
 0.940  0.4635  179.4  10.345   86.1  0.0518   63.4  0.2074 -117.7
 0.960  0.4639  178.7  10.138   85.7  0.0527   63.4  0.2054 -118.5
 0.980  0.4643  177.9   9.931   85.2  0.0536   63.5  0.2034 -119.3
 1.000  0.4648  177.2   9.725   84.7  0.0545   63.5  0.2015 -120.1
 1.020  0.4651  176.6   9.552   84.3  0.0554   63.5  0.2000 -120.8
 1.040  0.4655  175.9   9.379   83.9  0.0563   63.5  0.1985 -121.4
 1.060  0.4660  175.3   9.207   83.4  0.0573   63.5  0.1970 -122.1
 1.080  0.4665  174.6   9.036   83.0  0.0582   63.5  0.1956 -122.8
 1.100  0.4671  174.0   8.865   82.5  0.0591   63.5  0.1942 -123.5
 1.120  0.4675  173.4   8.720   82.1  0.0600   63.5  0.1930 -124.1
 1.140  0.4679  172.8   8.576   81.7  0.0609   63.4  0.1918 -124.8
 1.160  0.4684  172.2   8.432   81.3  0.0619   63.4  0.1906 -125.4
 1.180  0.4690  171.6   8.288   80.9  0.0628   63.3  0.1895 -126.0
 1.200  0.4696  171.0   8.145   80.5  0.0637   63.3  0.1884 -126.7
 1.220  0.4700  170.4   8.022   80.1  0.0646   63.2  0.1876 -127.3
 1.240  0.4705  169.8   7.899   79.7  0.0655   63.2  0.1868 -127.8
 1.260  0.4710  169.3   7.776   79.3  0.0665   63.1  0.1860 -128.4
 1.280  0.4715  168.7   7.654   78.9  0.0674   63.1  0.1852 -128.9
 1.300  0.4721  168.1   7.532   78.5  0.0683   63.0  0.1845 -129.5
 1.320  0.4723  167.6   7.427   78.1  0.0692   62.9  0.1838 -130.1
 1.340  0.4726  167.1   7.321   77.8  0.0701   62.8  0.1830 -130.6
 1.360  0.4730  166.6   7.217   77.4  0.0711   62.8  0.1823 -131.2
 1.380  0.4733  166.1   7.112   77.0  0.0720   62.7  0.1817 -131.7
 1.400  0.4737  165.6   7.008   76.6  0.0729   62.6  0.1810 -132.3
 1.420  0.4743  165.1   6.916   76.2  0.0738   62.5  0.1806 -132.8
 1.440  0.4750  164.5   6.824   75.9  0.0747   62.4  0.1801 -133.3
 1.460  0.4757  164.0   6.733   75.5  0.0757   62.4  0.1797 -133.7
 1.480  0.4764  163.4   6.642   75.1  0.0766   62.3  0.1793 -134.2
 1.500  0.4772  162.9   6.551   74.7  0.0775   62.2  0.1789 -134.7
 1.520  0.4777  162.4   6.470   74.4  0.0784   62.1  0.1785 -135.2
 1.540  0.4782  161.9   6.389   74.0  0.0793   62.0  0.1782 -135.7
 1.560  0.4787  161.4   6.308   73.7  0.0803   61.9  0.1778 -136.2
 1.580  0.4793  160.9   6.227   73.4  0.0812   61.8  0.1775 -136.7
 1.600  0.4799  160.4   6.147   73.0  0.0821   61.7  0.1772 -137.2
 1.620  0.4803  160.0   6.077   72.7  0.0830   61.6  0.1770 -137.6
 1.640  0.4807  159.5   6.006   72.3  0.0839   61.5  0.1767 -138.0
 1.660  0.4812  159.1   5.936   71.9  0.0848   61.3  0.1765 -138.5
 1.680  0.4817  158.6   5.867   71.6  0.0857   61.2  0.1763 -138.9
 1.700  0.4822  158.2   5.797   71.2  0.0866   61.1  0.1761 -139.3
 1.720  0.4827  157.7   5.733   70.9  0.0875   61.0  0.1760 -139.7
 1.740  0.4832  157.2   5.670   70.5  0.0884   60.9  0.1759 -140.2
 1.760  0.4837  156.8   5.607   70.2  0.0894   60.7  0.1758 -140.6
 1.780  0.4843  156.3   5.544   69.9  0.0903   60.6  0.1757 -141.1
 1.800  0.4849  155.8   5.481   69.5  0.0912   60.5  0.1756 -141.5
 1.820  0.4856  155.4   5.425   69.2  0.0921   60.4  0.1755 -141.9
 1.840  0.4863  154.9   5.369   68.8  0.0930   60.2  0.1755 -142.4
 1.860  0.4870  154.5   5.313   68.5  0.0940   60.1  0.1754 -142.8
 1.880  0.4877  154.0   5.257   68.2  0.0949   59.9  0.1754 -143.3
 1.900  0.4885  153.6   5.202   67.8  0.0958   59.8  0.1754 -143.7
 1.920  0.4890  153.2   5.150   67.5  0.0967   59.7  0.1754 -144.1
 1.940  0.4896  152.7   5.099   67.1  0.0976   59.5  0.1755 -144.5
 1.960  0.4902  152.3   5.048   66.8  0.0984   59.4  0.1756 -145.0
 1.980  0.4908  151.8   4.997   66.5  0.0993   59.2  0.1756 -145.4
 2.000  0.4914  151.4   4.946   66.1  0.1002   59.1  0.1757 -145.8
 2.020  0.4921  151.0   4.901   65.8  0.1011   58.9  0.1759 -146.2
 2.040  0.4928  150.6   4.855   65.5  0.1020   58.8  0.1760 -146.7
 2.060  0.4935  150.2   4.810   65.2  0.1029   58.6  0.1762 -147.1
 2.080  0.4943  149.7   4.765   64.9  0.1038   58.4  0.1764 -147.6
 2.100  0.4951  149.3   4.720   64.5  0.1047   58.3  0.1766 -148.0
 2.120  0.4959  148.9   4.675   64.2  0.1056   58.1  0.1768 -148.5
 2.140  0.4967  148.5   4.631   63.9  0.1065   58.0  0.1770 -148.9
 2.160  0.4976  148.1   4.586   63.5  0.1074   57.8  0.1772 -149.3
 2.180  0.4985  147.7   4.542   63.2  0.1083   57.6  0.1775 -149.8
 2.200  0.4994  147.3   4.498   62.8  0.1092   57.5  0.1777 -150.2
 2.220  0.5001  146.9   4.460   62.5  0.1101   57.3  0.1780 -150.6
 2.240  0.5009  146.5   4.423   62.2  0.1109   57.2  0.1783 -151.1
 2.260  0.5017  146.1   4.386   61.9  0.1118   57.0  0.1786 -151.5
 2.280  0.5025  145.7   4.349   61.5  0.1127   56.9  0.1789 -152.0
 2.300  0.5034  145.3   4.312   61.2  0.1135   56.7  0.1793 -152.4
 2.320  0.5043  144.9   4.275   60.9  0.1144   56.6  0.1796 -152.9
 2.340  0.5052  144.5   4.238   60.6  0.1153   56.4  0.1800 -153.3
 2.360  0.5061  144.1   4.202   60.2  0.1162   56.3  0.1803 -153.7
 2.380  0.5070  143.7   4.165   59.9  0.1170   56.1  0.1807 -154.2
 2.400  0.5080  143.3   4.129   59.5  0.1179   56.0  0.1811 -154.6
 2.420  0.5089  142.9   4.096   59.2  0.1187   55.8  0.1816 -155.1
 2.440  0.5098  142.5   4.064   58.9  0.1196   55.6  0.1821 -155.5
 2.460  0.5107  142.1   4.032   58.6  0.1204   55.5  0.1826 -155.9
 2.480  0.5116  141.8   3.999   58.3  0.1213   55.3  0.1832 -156.4
 2.500  0.5126  141.4   3.967   58.0  0.1221   55.1  0.1837 -156.8
 2.520  0.5135  141.0   3.935   57.7  0.1230   55.0  0.1843 -157.3
 2.540  0.5146  140.6   3.903   57.4  0.1238   54.8  0.1848 -157.7
 2.560  0.5156  140.2   3.871   57.1  0.1247   54.6  0.1854 -158.1
 2.580  0.5166  139.9   3.840   56.7  0.1255   54.5  0.1860 -158.6
 2.600  0.5177  139.5   3.808   56.4  0.1264   54.3  0.1866 -159.0
 2.620  0.5185  139.1   3.780   56.1  0.1272   54.1  0.1873 -159.4
 2.640  0.5193  138.8   3.753   55.8  0.1280   53.9  0.1880 -159.8
 2.660  0.5202  138.4   3.725   55.5  0.1289   53.7  0.1887 -160.2
 2.680  0.5211  138.0   3.698   55.2  0.1297   53.6  0.1894 -160.6
 2.700  0.5219  137.7   3.670   54.9  0.1305   53.4  0.1901 -161.0
 2.720  0.5229  137.3   3.643   54.6  0.1314   53.2  0.1908 -161.4
 2.740  0.5238  137.0   3.616   54.3  0.1322   53.0  0.1915 -161.8
 2.760  0.5247  136.6   3.589   54.0  0.1330   52.8  0.1923 -162.2
 2.780  0.5257  136.3   3.562   53.6  0.1339   52.7  0.1930 -162.6
 2.800  0.5267  135.9   3.535   53.3  0.1347   52.5  0.1938 -163.0
 2.820  0.5276  135.6   3.510   53.0  0.1355   52.3  0.1945 -163.4
 2.840  0.5285  135.2   3.486   52.7  0.1363   52.1  0.1953 -163.8
 2.860  0.5294  134.9   3.461   52.4  0.1371   52.0  0.1961 -164.2
 2.880  0.5303  134.6   3.437   52.2  0.1379   51.8  0.1968 -164.6
 2.900  0.5313  134.2   3.413   51.9  0.1387   51.6  0.1976 -165.0
 2.920  0.5322  133.9   3.389   51.6  0.1395   51.5  0.1984 -165.4
 2.940  0.5332  133.6   3.365   51.2  0.1404   51.3  0.1992 -165.8
 2.960  0.5342  133.3   3.341   50.9  0.1412   51.1  0.2000 -166.1
 2.980  0.5353  132.9   3.317   50.6  0.1420   51.0  0.2009 -166.5
 3.000  0.5363  132.6   3.293   50.3  0.1428   50.8  0.2017 -166.9
 3.100  0.5405  130.9   3.193   49.0  0.1465   49.8  0.2057 -168.7
 3.200  0.5451  129.3   3.094   47.7  0.1503   48.8  0.2099 -170.5
 3.300  0.5502  127.6   2.997   46.2  0.1541   47.9  0.2143 -172.2
 3.400  0.5557  126.1   2.902   44.7  0.1580   47.0  0.2189 -173.8
 3.500  0.5616  124.5   2.810   43.0  0.1619   46.2  0.2236 -175.4
 3.600  0.5669  123.0   2.734   41.8  0.1652   45.2  0.2283 -177.3
 3.700  0.5727  121.6   2.658   40.5  0.1686   44.3  0.2332 -179.1
 3.800  0.5787  120.1   2.585   39.2  0.1720   43.5  0.2383  179.2
 3.900  0.5851  118.8   2.513   37.7  0.1755   42.6  0.2437  177.5
 4.000  0.5919  117.4   2.442   36.2  0.1790   41.8  0.2492  175.9
 4.100  0.5973  116.2   2.381   35.0  0.1820   40.9  0.2551  174.2
 4.200  0.6029  114.9   2.322   33.8  0.1851   40.1  0.2612  172.6
 4.300  0.6088  113.7   2.263   32.6  0.1882   39.3  0.2676  171.0
 4.400  0.6150  112.6   2.206   31.2  0.1913   38.5  0.2741  169.5
 4.500  0.6214  111.4   2.150   29.8  0.1945   37.8  0.2808  168.1
 4.600  0.6255  110.3   2.103   28.7  0.1975   37.1  0.2856  166.9
 4.700  0.6297  109.2   2.056   27.6  0.2004   36.3  0.2904  165.7
 4.800  0.6343  108.2   2.011   26.4  0.2035   35.6  0.2954  164.6
 4.900  0.6390  107.1   1.966   25.2  0.2065   35.0  0.3005  163.5
 5.000  0.6439  106.1   1.922   23.9  0.2096   34.3  0.3057  162.5
 5.100  0.6468  105.1   1.886   22.9  0.2128   33.5  0.3088  161.6
 5.200  0.6498  104.2   1.850   21.9  0.2160   32.7  0.3120  160.7
 5.300  0.6530  103.3   1.816   20.8  0.2193   32.0  0.3153  159.9
 5.400  0.6564  102.3   1.781   19.7  0.2226   31.2  0.3186  159.0
 5.500  0.6600  101.4   1.748   18.5  0.2260   30.5  0.3220  158.2
 5.600  0.6620  100.6   1.719   17.5  0.2289   29.7  0.3256  157.4
 5.700  0.6640   99.9   1.691   16.4  0.2319   28.8  0.3293  156.6
 5.800  0.6662   99.1   1.663   15.3  0.2350   28.0  0.3330  155.8
 5.900  0.6686   98.3   1.636   14.2  0.2381   27.3  0.3368  155.0
 6.000  0.6710   97.6   1.609   13.0  0.2412   26.5  0.3407  154.3
 6.100  0.6715   96.8   1.584   12.0  0.2438   25.7  0.3431  153.8
 6.200  0.6721   96.0   1.560   11.0  0.2463   24.9  0.3455  153.3
 6.300  0.6728   95.3   1.536   10.0  0.2490   24.2  0.3480  152.8
 6.400  0.6737   94.5   1.513    8.9  0.2517   23.4  0.3505  152.3
 6.500  0.6747   93.7   1.490    7.8  0.2544   22.7  0.3530  151.8
 6.600  0.6740   92.8   1.471    6.8  0.2574   22.0  0.3526  151.4
 6.800  0.6733   90.9   1.435    4.9  0.2634   20.6  0.3518  150.7
 7.000  0.6732   89.0   1.401    2.8  0.2696   19.3  0.3510  149.9
 7.200  0.6748   86.8   1.372    0.7  0.2761   17.6  0.3505  148.5
 7.400  0.6774   84.7   1.344   -1.5  0.2828   16.0  0.3502  147.0
 7.600  0.6813   82.3   1.317   -3.8  0.2891   14.2  0.3519  145.2
 7.800  0.6867   79.8   1.290   -6.2  0.2951   12.3  0.3557  142.9
 8.000  0.6935   77.4   1.265   -8.8  0.3015   10.4  0.3601  140.7
 8.200  0.6988   74.8   1.232  -11.1  0.3055    8.2  0.3647  137.9
 8.400  0.7054   72.3   1.201  -13.6  0.3099    6.1  0.3702  135.1
 8.600  0.7145   69.8   1.170  -16.0  0.3126    4.0  0.3770  131.7
 8.800  0.7258   67.6   1.136  -18.3  0.3137    1.9  0.3862  127.7
 9.000  0.7381   65.4   1.105  -20.7  0.3151   -0.2  0.3971  123.9
 9.200  0.7543   63.6   1.069  -22.5  0.3139   -1.8  0.4142  119.5
 9.400  0.7712   61.8   1.034  -24.4  0.3129   -3.4  0.4336  115.4
 9.600  0.7860   60.2   1.000  -26.1  0.3118   -4.7  0.4535  111.8
 9.800  0.7987   58.7   0.966  -27.6  0.3105   -5.6  0.4733  108.7
10.000  0.8119   57.3   0.933  -29.2  0.3092   -6.6  0.4944  105.8
!
!  f       NFmin   Gammaopt  rn/50
! GHz       dB    MAG  ANG    -
 0.450      1.77  0.29 -170   0.13
 0.900      1.79  0.27 -162   0.14
 1.900      1.89  0.36 -141   0.15
 3.500      1.72  0.59 -117   0.24
!
! (c) 2016  Infineon Technologies AG, Munich
