! Infineon Technologies  Discrete & RF Semiconductors
! BFP460
! VCE =  2.5 V,  IC =  5.0 mA
! Common Emitter S-Parameters:                            Jan 2016
# GHz  S  MA  R  50
!  f         S11            S21            S12            S22
! GHz     MAG   ANG      MAG   ANG      MAG   ANG      MAG   ANG
 0.030  0.8718   -5.8  16.317  176.3  0.0061   86.3  0.9874   -3.9
 0.035  0.8705   -6.7  16.303  175.5  0.0071   85.8  0.9865   -4.5
 0.040  0.8694   -7.6  16.293  174.7  0.0081   85.5  0.9857   -5.1
 0.045  0.8684   -8.5  16.242  173.8  0.0091   84.8  0.9849   -5.7
 0.050  0.8677   -9.4  16.195  172.8  0.0101   84.3  0.9842   -6.3
 0.055  0.8666  -10.5  16.182  172.3  0.0110   83.7  0.9830   -6.9
 0.060  0.8658  -11.6  16.170  171.8  0.0120   83.2  0.9820   -7.5
 0.065  0.8646  -12.5  16.210  171.0  0.0129   82.7  0.9808   -8.1
 0.070  0.8636  -13.4  16.252  170.3  0.0139   82.2  0.9798   -8.8
 0.075  0.8639  -14.4  16.212  169.9  0.0149   82.0  0.9784   -9.4
 0.080  0.8645  -15.4  16.173  169.4  0.0159   81.8  0.9772  -10.0
 0.085  0.8632  -16.3  16.147  168.7  0.0169   81.2  0.9753  -10.6
 0.090  0.8621  -17.3  16.123  168.0  0.0179   80.7  0.9735  -11.3
 0.095  0.8607  -18.2  16.051  167.4  0.0188   80.1  0.9717  -11.9
 0.100  0.8596  -19.1  15.981  166.8  0.0198   79.6  0.9701  -12.5
 0.105  0.8586  -20.0  15.971  166.3  0.0207   79.1  0.9680  -13.1
 0.110  0.8578  -20.9  15.963  165.7  0.0217   78.6  0.9660  -13.7
 0.115  0.8565  -22.0  15.934  165.0  0.0226   78.2  0.9640  -14.3
 0.120  0.8556  -23.1  15.907  164.3  0.0235   77.9  0.9621  -15.0
 0.125  0.8527  -23.9  15.865  163.8  0.0244   77.2  0.9596  -15.5
 0.130  0.8500  -24.7  15.825  163.2  0.0254   76.6  0.9571  -16.1
 0.135  0.8489  -25.6  15.800  162.5  0.0263   76.2  0.9547  -16.7
 0.140  0.8480  -26.5  15.777  161.8  0.0273   75.8  0.9525  -17.3
 0.145  0.8456  -27.4  15.708  161.2  0.0281   75.2  0.9500  -17.9
 0.150  0.8434  -28.4  15.642  160.5  0.0290   74.6  0.9476  -18.5
 0.155  0.8405  -29.3  15.589  159.9  0.0298   74.0  0.9443  -19.1
 0.160  0.8379  -30.1  15.538  159.4  0.0307   73.5  0.9411  -19.6
 0.165  0.8354  -31.0  15.488  158.8  0.0315   73.0  0.9379  -20.2
 0.170  0.8331  -31.9  15.440  158.2  0.0324   72.5  0.9349  -20.7
 0.175  0.8310  -32.7  15.394  157.6  0.0332   72.1  0.9319  -21.3
 0.180  0.8292  -33.6  15.349  157.1  0.0341   71.6  0.9291  -21.9
 0.185  0.8275  -34.5  15.305  156.5  0.0349   71.2  0.9263  -22.5
 0.190  0.8260  -35.4  15.264  155.9  0.0358   70.8  0.9237  -23.0
 0.195  0.8247  -36.3  15.224  155.3  0.0366   70.5  0.9211  -23.6
 0.200  0.8236  -37.2  15.185  154.7  0.0375   70.1  0.9186  -24.2
 0.220  0.8126  -40.5  14.942  152.5  0.0406   68.2  0.9045  -26.3
 0.240  0.8044  -44.0  14.721  150.3  0.0436   66.6  0.8917  -28.4
 0.260  0.7955  -47.3  14.485  148.1  0.0465   65.0  0.8778  -30.5
 0.280  0.7857  -50.5  14.230  146.0  0.0493   63.4  0.8629  -32.4
 0.300  0.7784  -53.8  13.995  143.9  0.0520   62.0  0.8490  -34.5
 0.320  0.7668  -56.8  13.728  142.0  0.0544   60.5  0.8337  -36.2
 0.340  0.7573  -59.8  13.477  140.1  0.0569   59.1  0.8192  -38.0
 0.360  0.7475  -62.8  13.224  138.2  0.0591   57.9  0.8044  -39.7
 0.380  0.7370  -65.6  12.966  136.5  0.0612   56.6  0.7892  -41.4
 0.400  0.7284  -68.5  12.722  134.6  0.0633   55.5  0.7748  -43.1
 0.420  0.7180  -71.2  12.464  133.0  0.0651   54.3  0.7603  -44.6
 0.440  0.7093  -73.9  12.215  131.4  0.0670   53.2  0.7463  -46.1
 0.450  0.7055  -75.3  12.095  130.5  0.0679   52.7  0.7395  -46.9
 0.460  0.7004  -76.5  11.972  129.8  0.0687   52.2  0.7323  -47.6
 0.480  0.6912  -79.0  11.730  128.3  0.0703   51.2  0.7184  -49.0
 0.500  0.6833  -81.6  11.497  126.8  0.0720   50.3  0.7048  -50.4
 0.520  0.6735  -83.8  11.266  125.5  0.0733   49.4  0.6917  -51.5
 0.540  0.6647  -86.1  11.041  124.2  0.0746   48.5  0.6789  -52.7
 0.560  0.6570  -88.5  10.821  122.8  0.0759   47.7  0.6664  -54.0
 0.580  0.6504  -90.9  10.609  121.4  0.0772   46.9  0.6542  -55.3
 0.600  0.6450  -93.3  10.403  119.9  0.0786   46.1  0.6424  -56.6
 0.620  0.6370  -95.3  10.201  118.8  0.0796   45.4  0.6310  -57.6
 0.640  0.6298  -97.3  10.002  117.7  0.0807   44.8  0.6199  -58.6
 0.660  0.6233  -99.3   9.808  116.6  0.0817   44.1  0.6089  -59.7
 0.680  0.6177 -101.4   9.617  115.4  0.0828   43.5  0.5981  -60.8
 0.700  0.6129 -103.5   9.431  114.1  0.0839   42.9  0.5876  -61.9
 0.720  0.6065 -105.3   9.257  113.2  0.0847   42.4  0.5779  -62.7
 0.740  0.6007 -107.1   9.087  112.2  0.0856   41.8  0.5684  -63.6
 0.760  0.5954 -108.9   8.918  111.2  0.0864   41.3  0.5590  -64.5
 0.780  0.5908 -110.8   8.753  110.1  0.0872   40.8  0.5498  -65.4
 0.800  0.5869 -112.7   8.591  109.0  0.0881   40.3  0.5407  -66.4
 0.820  0.5821 -114.3   8.446  108.2  0.0888   39.9  0.5325  -67.2
 0.840  0.5777 -116.0   8.302  107.3  0.0895   39.5  0.5244  -67.9
 0.860  0.5739 -117.6   8.160  106.5  0.0902   39.1  0.5163  -68.7
 0.880  0.5705 -119.3   8.021  105.5  0.0909   38.8  0.5084  -69.5
 0.900  0.5676 -121.0   7.883  104.6  0.0916   38.4  0.5006  -70.4
 0.920  0.5635 -122.4   7.756  103.9  0.0922   38.1  0.4937  -71.1
 0.940  0.5597 -123.9   7.630  103.1  0.0928   37.7  0.4868  -71.7
 0.960  0.5563 -125.4   7.506  102.3  0.0935   37.4  0.4800  -72.4
 0.980  0.5533 -126.9   7.383  101.5  0.0941   37.1  0.4733  -73.2
 1.000  0.5507 -128.4   7.262  100.6  0.0947   36.8  0.4667  -73.9
 1.020  0.5475 -129.7   7.151   99.9  0.0952   36.6  0.4608  -74.5
 1.040  0.5446 -131.1   7.041   99.2  0.0958   36.3  0.4550  -75.1
 1.060  0.5420 -132.4   6.933   98.4  0.0963   36.1  0.4492  -75.8
 1.080  0.5398 -133.8   6.825   97.7  0.0969   35.8  0.4435  -76.4
 1.100  0.5378 -135.2   6.719   96.9  0.0974   35.6  0.4379  -77.1
 1.120  0.5352 -136.4   6.623   96.3  0.0979   35.4  0.4328  -77.7
 1.140  0.5328 -137.7   6.528   95.6  0.0984   35.2  0.4277  -78.2
 1.160  0.5307 -139.0   6.434   95.0  0.0989   35.1  0.4226  -78.8
 1.180  0.5289 -140.2   6.341   94.3  0.0994   34.9  0.4176  -79.4
 1.200  0.5273 -141.5   6.249   93.6  0.0999   34.7  0.4126  -80.0
 1.220  0.5256 -142.6   6.166   93.0  0.1004   34.5  0.4083  -80.5
 1.240  0.5241 -143.8   6.083   92.4  0.1009   34.4  0.4040  -81.1
 1.260  0.5228 -145.0   6.001   91.8  0.1013   34.2  0.3997  -81.6
 1.280  0.5217 -146.1   5.920   91.2  0.1018   34.1  0.3955  -82.2
 1.300  0.5208 -147.3   5.839   90.5  0.1023   33.9  0.3913  -82.8
 1.320  0.5193 -148.3   5.765   89.9  0.1027   33.8  0.3874  -83.3
 1.340  0.5180 -149.4   5.692   89.4  0.1032   33.7  0.3835  -83.8
 1.360  0.5168 -150.5   5.619   88.8  0.1036   33.5  0.3796  -84.3
 1.380  0.5159 -151.5   5.547   88.2  0.1041   33.4  0.3757  -84.8
 1.400  0.5151 -152.6   5.475   87.6  0.1045   33.3  0.3719  -85.3
 1.420  0.5139 -153.6   5.410   87.1  0.1050   33.2  0.3687  -85.8
 1.440  0.5128 -154.6   5.345   86.5  0.1054   33.1  0.3655  -86.2
 1.460  0.5119 -155.6   5.281   86.0  0.1059   33.0  0.3623  -86.7
 1.480  0.5112 -156.7   5.217   85.4  0.1063   32.9  0.3591  -87.2
 1.500  0.5106 -157.7   5.154   84.8  0.1068   32.8  0.3560  -87.7
 1.520  0.5097 -158.7   5.095   84.3  0.1072   32.7  0.3530  -88.1
 1.540  0.5089 -159.6   5.037   83.8  0.1076   32.6  0.3500  -88.6
 1.560  0.5082 -160.6   4.979   83.3  0.1080   32.6  0.3470  -89.1
 1.580  0.5077 -161.5   4.921   82.7  0.1084   32.5  0.3440  -89.5
 1.600  0.5073 -162.5   4.864   82.2  0.1088   32.4  0.3411  -90.0
 1.620  0.5068 -163.3   4.812   81.7  0.1092   32.3  0.3385  -90.4
 1.640  0.5064 -164.2   4.760   81.2  0.1097   32.2  0.3360  -90.9
 1.660  0.5061 -165.0   4.709   80.7  0.1101   32.2  0.3335  -91.3
 1.680  0.5059 -165.9   4.658   80.1  0.1106   32.1  0.3310  -91.7
 1.700  0.5058 -166.7   4.608   79.6  0.1110   32.0  0.3285  -92.2
 1.720  0.5054 -167.5   4.561   79.1  0.1114   31.9  0.3263  -92.6
 1.740  0.5052 -168.4   4.514   78.7  0.1119   31.9  0.3240  -93.0
 1.760  0.5051 -169.2   4.468   78.2  0.1123   31.8  0.3218  -93.4
 1.780  0.5050 -170.1   4.422   77.7  0.1128   31.8  0.3197  -93.9
 1.800  0.5051 -170.9   4.376   77.2  0.1132   31.7  0.3175  -94.3
 1.820  0.5048 -171.7   4.334   76.8  0.1136   31.7  0.3154  -94.7
 1.840  0.5045 -172.5   4.292   76.3  0.1141   31.6  0.3133  -95.2
 1.860  0.5044 -173.3   4.251   75.8  0.1145   31.6  0.3112  -95.6
 1.880  0.5043 -174.1   4.210   75.4  0.1150   31.5  0.3091  -96.0
 1.900  0.5044 -174.9   4.169   74.9  0.1154   31.5  0.3071  -96.5
 1.920  0.5044 -175.7   4.130   74.4  0.1158   31.4  0.3053  -96.9
 1.940  0.5045 -176.5   4.092   74.0  0.1162   31.4  0.3035  -97.3
 1.960  0.5047 -177.2   4.054   73.5  0.1167   31.3  0.3017  -97.7
 1.980  0.5049 -178.0   4.016   73.0  0.1171   31.3  0.2999  -98.2
 2.000  0.5053 -178.8   3.978   72.5  0.1175   31.2  0.2981  -98.6
 2.020  0.5054 -179.5   3.943   72.1  0.1179   31.2  0.2965  -99.0
 2.040  0.5056  179.8   3.909   71.7  0.1184   31.1  0.2948  -99.4
 2.060  0.5059  179.0   3.874   71.3  0.1188   31.1  0.2932  -99.8
 2.080  0.5063  178.3   3.840   70.8  0.1192   31.0  0.2916 -100.3
 2.100  0.5067  177.6   3.806   70.4  0.1196   31.0  0.2900 -100.7
 2.120  0.5073  176.9   3.772   70.0  0.1201   31.0  0.2885 -101.1
 2.140  0.5079  176.1   3.739   69.5  0.1205   30.9  0.2869 -101.6
 2.160  0.5086  175.4   3.706   69.0  0.1209   30.9  0.2854 -102.0
 2.180  0.5094  174.7   3.673   68.6  0.1214   30.8  0.2839 -102.4
 2.200  0.5102  174.0   3.640   68.1  0.1218   30.8  0.2824 -102.9
 2.220  0.5104  173.3   3.611   67.7  0.1222   30.8  0.2810 -103.3
 2.240  0.5107  172.7   3.582   67.3  0.1227   30.7  0.2796 -103.8
 2.260  0.5110  172.0   3.553   66.9  0.1231   30.7  0.2783 -104.2
 2.280  0.5114  171.3   3.524   66.5  0.1236   30.6  0.2769 -104.7
 2.300  0.5119  170.6   3.496   66.1  0.1240   30.6  0.2756 -105.1
 2.320  0.5125  170.0   3.467   65.7  0.1244   30.6  0.2743 -105.6
 2.340  0.5131  169.3   3.439   65.2  0.1249   30.5  0.2730 -106.1
 2.360  0.5138  168.6   3.411   64.8  0.1253   30.5  0.2718 -106.5
 2.380  0.5146  168.0   3.384   64.4  0.1258   30.4  0.2705 -107.0
 2.400  0.5154  167.3   3.356   63.9  0.1262   30.4  0.2693 -107.5
 2.420  0.5159  166.7   3.331   63.5  0.1266   30.3  0.2682 -108.0
 2.440  0.5165  166.1   3.305   63.1  0.1271   30.3  0.2672 -108.4
 2.460  0.5172  165.5   3.280   62.7  0.1275   30.2  0.2661 -108.9
 2.480  0.5179  164.8   3.255   62.3  0.1280   30.2  0.2651 -109.4
 2.500  0.5187  164.2   3.230   61.9  0.1284   30.1  0.2641 -109.9
 2.520  0.5195  163.6   3.206   61.5  0.1288   30.1  0.2631 -110.3
 2.540  0.5204  163.0   3.181   61.1  0.1293   30.0  0.2622 -110.8
 2.560  0.5213  162.4   3.157   60.7  0.1297   30.0  0.2612 -111.3
 2.580  0.5223  161.8   3.133   60.2  0.1302   29.9  0.2603 -111.8
 2.600  0.5234  161.2   3.109   59.8  0.1306   29.9  0.2594 -112.3
 2.620  0.5239  160.6   3.087   59.4  0.1310   29.9  0.2586 -112.8
 2.640  0.5244  160.1   3.065   59.1  0.1314   29.8  0.2579 -113.2
 2.660  0.5250  159.5   3.043   58.7  0.1319   29.8  0.2572 -113.7
 2.680  0.5256  158.9   3.021   58.3  0.1323   29.7  0.2565 -114.2
 2.700  0.5263  158.4   3.000   57.9  0.1327   29.7  0.2558 -114.7
 2.720  0.5271  157.8   2.978   57.5  0.1331   29.7  0.2551 -115.1
 2.740  0.5278  157.3   2.957   57.1  0.1335   29.6  0.2545 -115.6
 2.760  0.5287  156.7   2.936   56.7  0.1340   29.6  0.2538 -116.1
 2.780  0.5296  156.2   2.915   56.3  0.1344   29.5  0.2532 -116.6
 2.800  0.5305  155.6   2.894   55.9  0.1348   29.5  0.2526 -117.1
 2.820  0.5313  155.1   2.875   55.6  0.1352   29.5  0.2520 -117.6
 2.840  0.5322  154.5   2.855   55.2  0.1357   29.4  0.2515 -118.1
 2.860  0.5331  154.0   2.836   54.8  0.1361   29.4  0.2510 -118.5
 2.880  0.5340  153.5   2.817   54.5  0.1366   29.3  0.2505 -119.0
 2.900  0.5350  153.0   2.798   54.1  0.1370   29.3  0.2500 -119.5
 2.920  0.5360  152.5   2.779   53.7  0.1375   29.3  0.2495 -120.0
 2.940  0.5371  151.9   2.760   53.4  0.1379   29.2  0.2490 -120.5
 2.960  0.5382  151.4   2.742   53.0  0.1384   29.2  0.2486 -121.0
 2.980  0.5394  150.9   2.723   52.6  0.1388   29.1  0.2482 -121.5
 3.000  0.5406  150.4   2.705   52.2  0.1393   29.1  0.2478 -122.0
 3.100  0.5436  148.0   2.623   50.6  0.1415   28.8  0.2463 -124.3
 3.200  0.5477  145.6   2.544   49.0  0.1436   28.5  0.2451 -126.6
 3.300  0.5526  143.2   2.467   47.2  0.1458   28.2  0.2444 -128.9
 3.400  0.5585  140.9   2.392   45.3  0.1479   28.0  0.2440 -131.3
 3.500  0.5653  138.6   2.320   43.3  0.1501   27.7  0.2441 -133.6
 3.600  0.5700  136.5   2.257   41.8  0.1522   27.4  0.2438 -136.0
 3.700  0.5754  134.5   2.195   40.3  0.1544   27.1  0.2440 -138.4
 3.800  0.5816  132.5   2.135   38.7  0.1565   26.8  0.2446 -140.8
 3.900  0.5885  130.5   2.077   36.9  0.1587   26.6  0.2456 -143.2
 4.000  0.5960  128.6   2.021   35.1  0.1608   26.3  0.2470 -145.6
 4.100  0.6009  126.9   1.971   33.7  0.1628   26.0  0.2491 -148.0
 4.200  0.6063  125.3   1.922   32.3  0.1649   25.7  0.2517 -150.4
 4.300  0.6122  123.6   1.874   30.8  0.1669   25.4  0.2547 -152.7
 4.400  0.6186  122.1   1.828   29.2  0.1690   25.2  0.2581 -154.9
 4.500  0.6255  120.5   1.783   27.5  0.1710   24.9  0.2619 -157.1
 4.600  0.6294  119.1   1.743   26.2  0.1732   24.7  0.2654 -158.8
 4.700  0.6337  117.8   1.705   24.9  0.1754   24.4  0.2691 -160.5
 4.800  0.6383  116.4   1.667   23.5  0.1776   24.2  0.2731 -162.2
 4.900  0.6432  115.1   1.630   22.1  0.1798   24.0  0.2773 -163.8
 5.000  0.6485  113.8   1.594   20.6  0.1820   23.8  0.2817 -165.3
 5.100  0.6516  112.7   1.563   19.5  0.1846   23.5  0.2851 -166.6
 5.200  0.6549  111.5   1.532   18.3  0.1873   23.1  0.2886 -167.8
 5.300  0.6584  110.4   1.502   17.0  0.1899   22.8  0.2922 -169.1
 5.400  0.6622  109.3   1.473   15.7  0.1925   22.5  0.2960 -170.2
 5.500  0.6663  108.2   1.444   14.4  0.1952   22.2  0.2999 -171.4
 5.600  0.6688  107.2   1.419   13.3  0.1978   21.8  0.3042 -172.6
 5.700  0.6716  106.3   1.395   12.1  0.2005   21.3  0.3085 -173.9
 5.800  0.6745  105.4   1.372   10.9  0.2031   20.9  0.3131 -175.0
 5.900  0.6775  104.4   1.349    9.6  0.2058   20.5  0.3177 -176.2
 6.000  0.6808  103.5   1.327    8.3  0.2085   20.1  0.3225 -177.3
 6.100  0.6814  102.6   1.306    7.2  0.2109   19.6  0.3266 -178.2
 6.200  0.6821  101.7   1.285    6.1  0.2134   19.2  0.3308 -179.1
 6.300  0.6830  100.7   1.264    5.0  0.2158   18.7  0.3351 -179.9
 6.400  0.6841   99.8   1.244    3.8  0.2183   18.3  0.3395  179.2
 6.500  0.6854   98.9   1.225    2.6  0.2208   17.9  0.3439  178.4
 6.600  0.6853   97.9   1.208    1.6  0.2236   17.5  0.3458  177.8
 6.800  0.6856   96.0   1.176   -0.6  0.2293   16.7  0.3496  176.8
 7.000  0.6867   94.0   1.145   -2.8  0.2351   15.9  0.3535  175.7
 7.200  0.6892   91.6   1.119   -4.9  0.2417   14.7  0.3555  174.0
 7.400  0.6929   89.2   1.095   -7.2  0.2483   13.6  0.3578  172.3
 7.600  0.6978   86.6   1.072   -9.5  0.2549   12.3  0.3610  170.2
 7.800  0.7041   83.9   1.049  -11.9  0.2615   10.8  0.3652  167.6
 8.000  0.7119   81.3   1.028  -14.5  0.2683    9.4  0.3702  165.1
 8.200  0.7177   78.4   1.000  -16.9  0.2736    7.6  0.3742  161.9
 8.400  0.7253   75.5   0.974  -19.4  0.2791    5.8  0.3792  158.8
 8.600  0.7347   72.8   0.948  -21.8  0.2832    4.0  0.3841  155.0
 8.800  0.7456   70.3   0.921  -24.1  0.2858    2.1  0.3897  150.6
 9.000  0.7579   67.8   0.895  -26.5  0.2888    0.2  0.3976  146.3
 9.200  0.7728   65.7   0.865  -28.4  0.2893   -1.3  0.4103  141.0
 9.400  0.7888   63.6   0.837  -30.4  0.2899   -2.8  0.4263  136.0
 9.600  0.8027   61.8   0.809  -32.1  0.2903   -4.0  0.4444  131.5
 9.800  0.8144   60.2   0.780  -33.7  0.2902   -4.9  0.4641  127.5
10.000  0.8267   58.7   0.752  -35.3  0.2903   -5.9  0.4859  123.8
!
!  f       NFmin   Gammaopt  rn/50
! GHz       dB    MAG  ANG    -
 0.450      0.78  0.33   16   0.17
 0.900      0.80  0.34   31   0.17
 1.900      1.06  0.17   97   0.13
 3.500      1.24  0.33 -153   0.10
!
! (c) 2016  Infineon Technologies AG, Munich
