! Infineon Technologies  Discrete & RF Semiconductors
! BFP460
! VCE =  2.5 V,  IC =  25 mA
! Common Emitter S-Parameters:                            Jan 2016
# GHz  S  MA  R  50
!  f         S11            S21            S12            S22
! GHz     MAG   ANG      MAG   ANG      MAG   ANG      MAG   ANG
 0.030  0.5480  -17.2  51.132  170.6  0.0049   83.9  0.9407   -9.9
 0.035  0.5462  -19.7  50.823  169.0  0.0057   82.5  0.9370  -11.6
 0.040  0.5455  -22.3  50.556  167.3  0.0065   81.5  0.9342  -13.3
 0.045  0.5416  -24.9  50.118  165.6  0.0072   79.9  0.9288  -14.9
 0.050  0.5389  -27.6  49.725  163.9  0.0079   78.6  0.9241  -16.6
 0.055  0.5381  -30.6  49.382  162.5  0.0087   78.3  0.9182  -18.2
 0.060  0.5388  -33.6  49.068  161.1  0.0096   78.0  0.9130  -19.8
 0.065  0.5377  -36.2  48.767  159.6  0.0101   76.8  0.9054  -21.4
 0.070  0.5378  -38.9  48.499  158.1  0.0106   75.8  0.8986  -23.0
 0.075  0.5368  -41.1  48.023  156.9  0.0114   74.7  0.8907  -24.5
 0.080  0.5366  -43.4  47.568  155.7  0.0122   73.8  0.8834  -26.1
 0.085  0.5344  -46.1  47.062  154.3  0.0128   72.9  0.8746  -27.6
 0.090  0.5334  -48.8  46.584  152.9  0.0134   72.1  0.8664  -29.1
 0.095  0.5311  -50.9  45.984  151.7  0.0140   71.3  0.8576  -30.5
 0.100  0.5296  -53.0  45.405  150.4  0.0147   70.6  0.8494  -32.0
 0.105  0.5289  -55.4  44.944  149.2  0.0153   69.8  0.8398  -33.4
 0.110  0.5291  -57.8  44.502  148.0  0.0160   69.0  0.8307  -34.8
 0.115  0.5251  -60.1  43.964  146.8  0.0164   68.3  0.8213  -36.1
 0.120  0.5220  -62.5  43.447  145.5  0.0169   67.6  0.8123  -37.5
 0.125  0.5198  -64.4  42.906  144.5  0.0174   66.9  0.8025  -38.7
 0.130  0.5183  -66.4  42.379  143.4  0.0180   66.3  0.7930  -39.9
 0.135  0.5157  -68.5  41.871  142.3  0.0184   65.6  0.7835  -41.1
 0.140  0.5138  -70.6  41.378  141.2  0.0189   64.9  0.7743  -42.4
 0.145  0.5117  -72.5  40.780  140.1  0.0193   64.3  0.7646  -43.6
 0.150  0.5101  -74.5  40.197  139.0  0.0198   63.7  0.7553  -44.8
 0.155  0.5068  -76.2  39.667  138.2  0.0202   63.2  0.7454  -45.7
 0.160  0.5039  -77.8  39.144  137.4  0.0206   62.7  0.7358  -46.6
 0.165  0.5014  -79.5  38.629  136.6  0.0210   62.3  0.7263  -47.6
 0.170  0.4994  -81.3  38.122  135.8  0.0213   61.8  0.7170  -48.6
 0.175  0.4978  -83.0  37.623  134.9  0.0217   61.4  0.7080  -49.6
 0.180  0.4967  -84.7  37.133  134.1  0.0221   61.0  0.6992  -50.6
 0.185  0.4960  -86.5  36.652  133.2  0.0225   60.6  0.6906  -51.7
 0.190  0.4958  -88.2  36.180  132.2  0.0229   60.2  0.6822  -52.8
 0.195  0.4961  -90.0  35.718  131.3  0.0233   59.9  0.6741  -53.9
 0.200  0.4968  -91.7  35.266  130.3  0.0237   59.5  0.6663  -55.0
 0.220  0.4890  -97.0  33.476  127.7  0.0249   58.3  0.6341  -58.1
 0.240  0.4855 -102.4  31.761  124.9  0.0261   57.2  0.6041  -61.6
 0.260  0.4826 -107.2  30.196  122.3  0.0272   56.4  0.5766  -64.7
 0.280  0.4790 -111.5  28.745  120.2  0.0283   55.7  0.5508  -67.4
 0.300  0.4781 -115.9  27.339  117.8  0.0293   55.1  0.5264  -70.3
 0.320  0.4741 -119.5  26.126  116.1  0.0302   54.8  0.5050  -72.5
 0.340  0.4720 -123.1  24.938  114.3  0.0311   54.5  0.4845  -74.8
 0.360  0.4700 -126.4  23.855  112.6  0.0320   54.3  0.4658  -77.0
 0.380  0.4677 -129.3  22.867  111.1  0.0328   54.2  0.4487  -79.0
 0.400  0.4667 -132.3  21.897  109.5  0.0336   54.1  0.4323  -81.2
 0.420  0.4650 -134.9  21.067  108.3  0.0344   54.1  0.4181  -82.8
 0.440  0.4642 -137.4  20.247  107.1  0.0353   54.1  0.4043  -84.6
 0.450  0.4642 -138.7  19.841  106.4  0.0357   54.1  0.3975  -85.5
 0.460  0.4634 -139.7  19.495  105.9  0.0361   54.1  0.3916  -86.3
 0.480  0.4623 -141.8  18.806  104.8  0.0369   54.2  0.3801  -87.8
 0.500  0.4618 -143.9  18.125  103.7  0.0377   54.3  0.3689  -89.5
 0.520  0.4605 -145.7  17.572  102.9  0.0385   54.5  0.3596  -90.7
 0.540  0.4596 -147.5  17.024  102.0  0.0393   54.6  0.3505  -92.0
 0.560  0.4591 -149.3  16.479  101.1  0.0401   54.7  0.3417  -93.4
 0.580  0.4591 -151.1  15.940  100.1  0.0409   54.9  0.3330  -94.9
 0.600  0.4596 -152.9  15.405   99.0  0.0417   55.0  0.3245  -96.4
 0.620  0.4591 -154.3  14.993   98.3  0.0425   55.2  0.3179  -97.5
 0.640  0.4588 -155.7  14.584   97.6  0.0433   55.3  0.3114  -98.6
 0.660  0.4588 -157.1  14.177   96.9  0.0441   55.4  0.3050  -99.8
 0.680  0.4591 -158.5  13.772   96.1  0.0449   55.6  0.2988 -101.0
 0.700  0.4597 -159.9  13.370   95.3  0.0457   55.7  0.2927 -102.3
 0.720  0.4594 -161.1  13.053   94.7  0.0465   55.8  0.2878 -103.3
 0.740  0.4593 -162.2  12.738   94.1  0.0473   56.0  0.2830 -104.3
 0.760  0.4594 -163.4  12.424   93.5  0.0482   56.1  0.2783 -105.3
 0.780  0.4597 -164.5  12.112   92.8  0.0490   56.3  0.2737 -106.4
 0.800  0.4602 -165.7  11.802   92.1  0.0498   56.4  0.2692 -107.5
 0.820  0.4600 -166.7  11.553   91.6  0.0506   56.5  0.2656 -108.4
 0.840  0.4600 -167.7  11.305   91.1  0.0515   56.6  0.2620 -109.2
 0.860  0.4601 -168.7  11.058   90.5  0.0523   56.7  0.2584 -110.1
 0.880  0.4603 -169.7  10.812   89.9  0.0532   56.8  0.2550 -111.1
 0.900  0.4607 -170.7  10.567   89.3  0.0540   56.9  0.2516 -112.0
 0.920  0.4606 -171.6  10.364   88.8  0.0548   57.0  0.2488 -112.8
 0.940  0.4606 -172.5  10.162   88.3  0.0557   57.1  0.2460 -113.6
 0.960  0.4607 -173.4   9.961   87.8  0.0565   57.1  0.2433 -114.4
 0.980  0.4609 -174.3   9.760   87.3  0.0574   57.2  0.2406 -115.2
 1.000  0.4612 -175.2   9.561   86.7  0.0582   57.3  0.2380 -116.1
 1.020  0.4614 -176.0   9.393   86.3  0.0591   57.4  0.2359 -116.8
 1.040  0.4617 -176.8   9.225   85.8  0.0599   57.4  0.2338 -117.5
 1.060  0.4621 -177.5   9.057   85.3  0.0608   57.5  0.2318 -118.3
 1.080  0.4626 -178.3   8.891   84.8  0.0616   57.5  0.2298 -119.0
 1.100  0.4632 -179.1   8.725   84.3  0.0625   57.6  0.2279 -119.8
 1.120  0.4634 -179.8   8.584   83.9  0.0634   57.6  0.2262 -120.5
 1.140  0.4636  179.5   8.443   83.5  0.0643   57.6  0.2245 -121.1
 1.160  0.4639  178.7   8.303   83.0  0.0651   57.7  0.2229 -121.8
 1.180  0.4643  178.0   8.163   82.6  0.0660   57.7  0.2213 -122.5
 1.200  0.4648  177.3   8.024   82.1  0.0669   57.7  0.2197 -123.2
 1.220  0.4651  176.6   7.904   81.7  0.0678   57.7  0.2184 -123.8
 1.240  0.4655  176.0   7.784   81.3  0.0687   57.7  0.2172 -124.4
 1.260  0.4660  175.3   7.664   80.9  0.0695   57.7  0.2160 -125.0
 1.280  0.4665  174.7   7.545   80.4  0.0704   57.7  0.2148 -125.7
 1.300  0.4671  174.0   7.426   80.0  0.0713   57.7  0.2137 -126.3
 1.320  0.4674  173.4   7.322   79.6  0.0722   57.7  0.2126 -126.9
 1.340  0.4677  172.8   7.219   79.2  0.0731   57.6  0.2115 -127.5
 1.360  0.4680  172.1   7.116   78.8  0.0739   57.6  0.2105 -128.1
 1.380  0.4684  171.5   7.013   78.4  0.0748   57.5  0.2094 -128.7
 1.400  0.4689  170.9   6.911   78.0  0.0757   57.5  0.2084 -129.3
 1.420  0.4693  170.3   6.821   77.6  0.0766   57.5  0.2076 -129.8
 1.440  0.4698  169.7   6.731   77.3  0.0775   57.4  0.2069 -130.3
 1.460  0.4704  169.1   6.642   76.9  0.0783   57.4  0.2062 -130.8
 1.480  0.4710  168.5   6.553   76.5  0.0792   57.3  0.2055 -131.4
 1.500  0.4716  167.9   6.464   76.1  0.0801   57.3  0.2048 -131.9
 1.520  0.4721  167.3   6.384   75.7  0.0810   57.2  0.2041 -132.4
 1.540  0.4726  166.7   6.305   75.4  0.0819   57.2  0.2035 -133.0
 1.560  0.4731  166.2   6.226   75.0  0.0827   57.1  0.2029 -133.5
 1.580  0.4737  165.6   6.147   74.6  0.0836   57.1  0.2023 -134.1
 1.600  0.4744  165.0   6.069   74.2  0.0845   57.0  0.2017 -134.6
 1.620  0.4747  164.5   6.000   73.9  0.0854   56.9  0.2012 -135.1
 1.640  0.4750  164.0   5.931   73.5  0.0863   56.9  0.2008 -135.6
 1.660  0.4754  163.5   5.862   73.1  0.0871   56.8  0.2003 -136.0
 1.680  0.4758  163.0   5.793   72.8  0.0880   56.8  0.1999 -136.5
 1.700  0.4762  162.5   5.725   72.4  0.0889   56.7  0.1995 -137.0
 1.720  0.4768  162.0   5.662   72.1  0.0898   56.6  0.1992 -137.5
 1.740  0.4775  161.5   5.599   71.7  0.0907   56.5  0.1989 -138.0
 1.760  0.4782  160.9   5.537   71.3  0.0916   56.4  0.1986 -138.4
 1.780  0.4789  160.4   5.474   71.0  0.0925   56.3  0.1983 -138.9
 1.800  0.4797  159.9   5.412   70.6  0.0934   56.2  0.1980 -139.4
 1.820  0.4802  159.4   5.357   70.3  0.0943   56.1  0.1977 -139.9
 1.840  0.4808  158.9   5.303   69.9  0.0952   56.0  0.1975 -140.3
 1.860  0.4815  158.4   5.248   69.5  0.0960   55.9  0.1972 -140.8
 1.880  0.4821  157.9   5.194   69.2  0.0969   55.8  0.1970 -141.2
 1.900  0.4828  157.4   5.140   68.8  0.0978   55.7  0.1968 -141.7
 1.920  0.4834  156.9   5.089   68.5  0.0987   55.6  0.1967 -142.2
 1.940  0.4840  156.4   5.039   68.1  0.0995   55.5  0.1966 -142.6
 1.960  0.4846  156.0   4.989   67.7  0.1004   55.4  0.1965 -143.1
 1.980  0.4853  155.5   4.939   67.4  0.1012   55.3  0.1964 -143.5
 2.000  0.4860  155.0   4.889   67.0  0.1021   55.2  0.1963 -144.0
 2.020  0.4866  154.5   4.844   66.7  0.1030   55.1  0.1963 -144.5
 2.040  0.4873  154.1   4.799   66.4  0.1039   54.9  0.1963 -144.9
 2.060  0.4879  153.6   4.755   66.0  0.1047   54.8  0.1963 -145.4
 2.080  0.4887  153.1   4.710   65.7  0.1056   54.7  0.1963 -145.8
 2.100  0.4894  152.7   4.666   65.4  0.1065   54.5  0.1963 -146.3
 2.120  0.4902  152.2   4.622   65.0  0.1074   54.4  0.1964 -146.8
 2.140  0.4910  151.8   4.578   64.7  0.1083   54.3  0.1964 -147.2
 2.160  0.4918  151.3   4.534   64.3  0.1091   54.1  0.1965 -147.7
 2.180  0.4927  150.9   4.490   64.0  0.1100   54.0  0.1966 -148.1
 2.200  0.4936  150.4   4.447   63.6  0.1109   53.9  0.1967 -148.6
 2.220  0.4944  150.0   4.410   63.3  0.1117   53.8  0.1968 -149.1
 2.240  0.4952  149.5   4.373   63.0  0.1126   53.6  0.1970 -149.5
 2.260  0.4960  149.1   4.336   62.7  0.1134   53.5  0.1972 -150.0
 2.280  0.4969  148.7   4.300   62.3  0.1143   53.4  0.1974 -150.5
 2.300  0.4977  148.2   4.263   62.0  0.1151   53.2  0.1976 -151.0
 2.320  0.4987  147.8   4.227   61.7  0.1160   53.1  0.1978 -151.4
 2.340  0.4996  147.4   4.191   61.4  0.1168   53.0  0.1980 -151.9
 2.360  0.5006  146.9   4.155   61.0  0.1177   52.8  0.1983 -152.4
 2.380  0.5016  146.5   4.119   60.7  0.1185   52.7  0.1985 -152.8
 2.400  0.5026  146.1   4.083   60.3  0.1194   52.6  0.1988 -153.3
 2.420  0.5034  145.7   4.051   60.0  0.1202   52.4  0.1992 -153.8
 2.440  0.5043  145.3   4.019   59.7  0.1211   52.3  0.1996 -154.2
 2.460  0.5052  144.9   3.987   59.4  0.1219   52.1  0.2000 -154.7
 2.480  0.5061  144.4   3.955   59.0  0.1227   52.0  0.2004 -155.2
 2.500  0.5071  144.0   3.923   58.7  0.1235   51.8  0.2008 -155.6
 2.520  0.5080  143.6   3.892   58.4  0.1244   51.7  0.2013 -156.1
 2.540  0.5090  143.2   3.860   58.0  0.1252   51.5  0.2017 -156.5
 2.560  0.5101  142.8   3.829   57.7  0.1260   51.4  0.2022 -157.0
 2.580  0.5111  142.4   3.798   57.4  0.1269   51.2  0.2027 -157.4
 2.600  0.5122  142.0   3.767   57.0  0.1277   51.1  0.2032 -157.9
 2.620  0.5129  141.6   3.740   56.7  0.1285   50.9  0.2038 -158.3
 2.640  0.5137  141.2   3.712   56.4  0.1293   50.8  0.2044 -158.8
 2.660  0.5145  140.8   3.685   56.1  0.1301   50.6  0.2050 -159.2
 2.680  0.5153  140.5   3.658   55.8  0.1309   50.4  0.2056 -159.7
 2.700  0.5161  140.1   3.631   55.5  0.1317   50.3  0.2062 -160.1
 2.720  0.5170  139.7   3.604   55.2  0.1325   50.1  0.2068 -160.5
 2.740  0.5178  139.3   3.577   54.9  0.1334   50.0  0.2075 -160.9
 2.760  0.5187  138.9   3.550   54.6  0.1342   49.8  0.2081 -161.4
 2.780  0.5197  138.6   3.524   54.2  0.1350   49.7  0.2088 -161.8
 2.800  0.5206  138.2   3.497   53.9  0.1358   49.5  0.2095 -162.2
 2.820  0.5215  137.8   3.473   53.6  0.1366   49.3  0.2102 -162.6
 2.840  0.5225  137.5   3.449   53.3  0.1374   49.2  0.2108 -163.0
 2.860  0.5235  137.1   3.425   53.0  0.1382   49.0  0.2115 -163.4
 2.880  0.5245  136.7   3.401   52.7  0.1390   48.9  0.2122 -163.8
 2.900  0.5255  136.4   3.377   52.4  0.1398   48.7  0.2129 -164.2
 2.920  0.5265  136.0   3.354   52.1  0.1406   48.6  0.2136 -164.6
 2.940  0.5276  135.7   3.330   51.8  0.1414   48.4  0.2143 -165.0
 2.960  0.5287  135.3   3.307   51.5  0.1422   48.3  0.2150 -165.3
 2.980  0.5298  135.0   3.283   51.1  0.1430   48.1  0.2158 -165.7
 3.000  0.5309  134.6   3.260   50.8  0.1438   48.0  0.2165 -166.1
 3.100  0.5351  132.8   3.161   49.5  0.1475   47.1  0.2201 -168.0
 3.200  0.5399  131.1   3.063   48.1  0.1512   46.2  0.2239 -169.8
 3.300  0.5451  129.4   2.968   46.6  0.1550   45.4  0.2280 -171.6
 3.400  0.5508  127.7   2.874   45.1  0.1588   44.6  0.2322 -173.3
 3.500  0.5569  126.1   2.783   43.4  0.1626   43.8  0.2367 -174.9
 3.600  0.5623  124.5   2.707   42.2  0.1659   42.9  0.2411 -176.8
 3.700  0.5682  123.0   2.633   40.9  0.1692   42.0  0.2457 -178.7
 3.800  0.5745  121.5   2.559   39.5  0.1726   41.2  0.2506  179.5
 3.900  0.5811  120.0   2.488   38.0  0.1760   40.4  0.2557  177.8
 4.000  0.5881  118.6   2.418   36.5  0.1795   39.6  0.2610  176.1
 4.100  0.5934  117.3   2.358   35.3  0.1825   38.8  0.2666  174.4
 4.200  0.5990  116.0   2.299   34.1  0.1855   38.0  0.2725  172.7
 4.300  0.6050  114.8   2.240   32.8  0.1885   37.2  0.2786  171.2
 4.400  0.6111  113.6   2.184   31.4  0.1916   36.5  0.2848  169.6
 4.500  0.6176  112.4   2.128   30.0  0.1947   35.8  0.2913  168.2
 4.600  0.6216  111.2   2.081   28.9  0.1976   35.1  0.2959  167.0
 4.700  0.6259  110.1   2.035   27.8  0.2005   34.4  0.3005  165.8
 4.800  0.6304  109.0   1.990   26.6  0.2035   33.7  0.3053  164.7
 4.900  0.6351  107.9   1.946   25.4  0.2065   33.0  0.3103  163.6
 5.000  0.6401  106.8   1.903   24.1  0.2095   32.4  0.3153  162.5
 5.100  0.6430  105.8   1.867   23.1  0.2127   31.7  0.3182  161.6
 5.200  0.6461  104.9   1.832   22.0  0.2158   30.9  0.3213  160.7
 5.300  0.6494  103.9   1.797   20.9  0.2191   30.2  0.3244  159.8
 5.400  0.6529  102.9   1.763   19.8  0.2223   29.6  0.3275  158.9
 5.500  0.6565  102.0   1.730   18.6  0.2256   28.9  0.3308  158.1
 5.600  0.6585  101.2   1.701   17.6  0.2285   28.1  0.3343  157.3
 5.700  0.6606  100.4   1.673   16.5  0.2315   27.2  0.3378  156.4
 5.800  0.6629   99.6   1.646   15.4  0.2345   26.4  0.3414  155.6
 5.900  0.6652   98.9   1.619   14.2  0.2375   25.7  0.3451  154.9
 6.000  0.6677   98.1   1.593   13.0  0.2406   24.9  0.3488  154.1
 6.100  0.6682   97.3   1.569   12.0  0.2432   24.1  0.3511  153.6
 6.200  0.6687   96.5   1.545   11.0  0.2458   23.4  0.3535  153.0
 6.300  0.6695   95.7   1.521   10.0  0.2484   22.7  0.3559  152.5
 6.400  0.6703   94.9   1.498    8.9  0.2511   22.0  0.3583  152.0
 6.500  0.6713   94.1   1.476    7.8  0.2538   21.3  0.3608  151.5
 6.600  0.6707   93.2   1.457    6.8  0.2567   20.6  0.3603  151.1
 6.800  0.6701   91.3   1.421    4.9  0.2628   19.3  0.3593  150.3
 7.000  0.6701   89.5   1.387    2.8  0.2689   18.0  0.3584  149.5
 7.200  0.6718   87.3   1.358    0.7  0.2753   16.3  0.3578  148.0
 7.400  0.6745   85.1   1.332   -1.5  0.2820   14.7  0.3575  146.5
 7.600  0.6785   82.7   1.305   -3.8  0.2883   12.9  0.3591  144.7
 7.800  0.6839   80.2   1.278   -6.2  0.2943   11.1  0.3628  142.4
 8.000  0.6907   77.8   1.253   -8.8  0.3006    9.3  0.3671  140.2
 8.200  0.6961   75.2   1.221  -11.1  0.3046    7.1  0.3716  137.4
 8.400  0.7030   72.6   1.190  -13.6  0.3090    5.0  0.3769  134.6
 8.600  0.7121   70.1   1.159  -16.0  0.3117    3.0  0.3837  131.2
 8.800  0.7233   67.8   1.127  -18.3  0.3127    0.9  0.3929  127.3
 9.000  0.7356   65.6   1.096  -20.7  0.3142   -1.2  0.4038  123.5
 9.200  0.7518   63.7   1.060  -22.6  0.3129   -2.8  0.4207  119.1
 9.400  0.7688   62.0   1.025  -24.6  0.3119   -4.4  0.4398  115.0
 9.600  0.7839   60.3   0.991  -26.3  0.3108   -5.7  0.4595  111.5
 9.800  0.7968   58.8   0.958  -27.8  0.3094   -6.6  0.4791  108.3
10.000  0.8102   57.4   0.925  -29.4  0.3081   -7.6  0.5000  105.5
!
!  f       NFmin   Gammaopt  rn/50
! GHz       dB    MAG  ANG    -
 0.450      1.36  0.13 -171   0.13
 0.900      1.38  0.11 -170   0.13
 1.900      1.49  0.23 -146   0.13
 3.500      1.42  0.46 -122   0.16
!
! (c) 2016  Infineon Technologies AG, Munich
