! Infineon Technologies  Discrete & RF Semiconductors
! BFP460
! VCE =  2.5 V,  IC =  3.0 mA
! Common Emitter S-Parameters:                            Jan 2016
# GHz  S  MA  R  50
!  f         S11            S21            S12            S22
! GHz     MAG   ANG      MAG   ANG      MAG   ANG      MAG   ANG
 0.030  0.9197   -4.3  10.352  177.3  0.0062   86.9  0.9927   -2.8
 0.035  0.9195   -4.9  10.345  176.7  0.0072   86.7  0.9921   -3.2
 0.040  0.9195   -5.6  10.340  176.0  0.0083   86.6  0.9916   -3.6
 0.045  0.9184   -6.3  10.314  175.2  0.0093   86.2  0.9913   -4.0
 0.050  0.9175   -7.0  10.290  174.4  0.0103   85.9  0.9910   -4.4
 0.055  0.9166   -7.8  10.290  174.0  0.0113   85.7  0.9904   -4.8
 0.060  0.9158   -8.6  10.290  173.7  0.0123   85.5  0.9899   -5.3
 0.065  0.9149   -9.3  10.324  173.1  0.0133   84.8  0.9893   -5.7
 0.070  0.9142  -10.0  10.360  172.5  0.0144   84.2  0.9888   -6.2
 0.075  0.9161  -10.7  10.337  172.2  0.0154   83.9  0.9881   -6.6
 0.080  0.9182  -11.4  10.315  171.9  0.0164   83.7  0.9874   -7.1
 0.085  0.9160  -12.1  10.314  171.4  0.0174   82.9  0.9864   -7.5
 0.090  0.9139  -12.8  10.313  170.8  0.0185   82.2  0.9855   -7.9
 0.095  0.9138  -13.4  10.274  170.4  0.0195   81.9  0.9845   -8.4
 0.100  0.9139  -14.0  10.236  169.9  0.0206   81.6  0.9835   -8.9
 0.105  0.9138  -14.8  10.238  169.4  0.0215   81.2  0.9824   -9.3
 0.110  0.9139  -15.5  10.241  169.0  0.0225   80.9  0.9814   -9.7
 0.115  0.9127  -16.3  10.241  168.4  0.0235   80.5  0.9802  -10.1
 0.120  0.9116  -17.1  10.241  167.9  0.0245   80.1  0.9790  -10.6
 0.125  0.9098  -17.7  10.225  167.5  0.0255   79.6  0.9777  -11.0
 0.130  0.9080  -18.3  10.210  167.1  0.0265   79.2  0.9765  -11.4
 0.135  0.9069  -18.9  10.204  166.6  0.0275   78.8  0.9752  -11.8
 0.140  0.9059  -19.6  10.199  166.0  0.0285   78.5  0.9740  -12.3
 0.145  0.9052  -20.3  10.171  165.5  0.0294   78.0  0.9726  -12.7
 0.150  0.9046  -21.1  10.144  164.9  0.0304   77.6  0.9713  -13.2
 0.155  0.9028  -21.8  10.126  164.4  0.0313   77.1  0.9695  -13.6
 0.160  0.9011  -22.4  10.109  164.0  0.0323   76.7  0.9677  -14.0
 0.165  0.8996  -23.1  10.093  163.5  0.0332   76.3  0.9659  -14.4
 0.170  0.8981  -23.8  10.077  163.1  0.0342   75.9  0.9642  -14.9
 0.175  0.8968  -24.5  10.061  162.6  0.0351   75.5  0.9626  -15.3
 0.180  0.8956  -25.2  10.047  162.2  0.0361   75.1  0.9610  -15.7
 0.185  0.8946  -25.8  10.033  161.7  0.0370   74.8  0.9595  -16.1
 0.190  0.8937  -26.5  10.020  161.2  0.0380   74.5  0.9580  -16.5
 0.195  0.8929  -27.2  10.007  160.8  0.0389   74.2  0.9566  -17.0
 0.200  0.8922  -27.9   9.995  160.3  0.0399   73.9  0.9552  -17.4
 0.220  0.8847  -30.6   9.899  158.4  0.0434   72.2  0.9470  -19.0
 0.240  0.8791  -33.2   9.814  156.6  0.0469   70.8  0.9396  -20.6
 0.260  0.8729  -35.9   9.723  154.7  0.0503   69.4  0.9313  -22.2
 0.280  0.8659  -38.4   9.625  153.0  0.0537   68.0  0.9219  -23.7
 0.300  0.8607  -41.0   9.536  151.2  0.0570   66.7  0.9132  -25.3
 0.320  0.8521  -43.5   9.422  149.5  0.0601   65.3  0.9032  -26.7
 0.340  0.8452  -46.0   9.316  147.9  0.0631   64.0  0.8937  -28.2
 0.360  0.8379  -48.5   9.205  146.2  0.0661   62.7  0.8837  -29.6
 0.380  0.8300  -50.8   9.089  144.6  0.0688   61.3  0.8731  -31.0
 0.400  0.8236  -53.2   8.980  142.9  0.0716   60.1  0.8631  -32.4
 0.420  0.8144  -55.5   8.859  141.4  0.0742   58.9  0.8526  -33.7
 0.440  0.8066  -57.8   8.744  139.8  0.0768   57.7  0.8426  -34.9
 0.450  0.8032  -59.0   8.689  139.0  0.0781   57.2  0.8377  -35.6
 0.460  0.7987  -60.1   8.628  138.3  0.0792   56.7  0.8322  -36.2
 0.480  0.7905  -62.3   8.510  136.9  0.0815   55.6  0.8213  -37.4
 0.500  0.7836  -64.6   8.397  135.5  0.0838   54.6  0.8109  -38.6
 0.520  0.7741  -66.6   8.272  134.2  0.0857   53.5  0.8002  -39.7
 0.540  0.7655  -68.7   8.152  132.9  0.0877   52.5  0.7898  -40.8
 0.560  0.7579  -70.8   8.036  131.5  0.0897   51.5  0.7796  -41.9
 0.580  0.7514  -72.9   7.925  130.1  0.0917   50.5  0.7698  -43.0
 0.600  0.7460  -75.1   7.819  128.6  0.0937   49.6  0.7603  -44.2
 0.620  0.7373  -77.0   7.703  127.5  0.0953   48.7  0.7500  -45.1
 0.640  0.7295  -78.9   7.590  126.3  0.0968   47.8  0.7400  -46.1
 0.660  0.7224  -80.8   7.480  125.0  0.0984   46.9  0.7302  -47.1
 0.680  0.7162  -82.8   7.374  123.8  0.1001   46.1  0.7206  -48.1
 0.700  0.7109  -84.8   7.271  122.5  0.1017   45.3  0.7112  -49.2
 0.720  0.7036  -86.5   7.162  121.5  0.1029   44.5  0.7020  -50.0
 0.740  0.6969  -88.3   7.055  120.4  0.1042   43.8  0.6929  -50.9
 0.760  0.6909  -90.0   6.951  119.3  0.1055   43.1  0.6840  -51.7
 0.780  0.6855  -91.9   6.850  118.2  0.1068   42.4  0.6753  -52.6
 0.800  0.6809  -93.7   6.751  117.0  0.1081   41.7  0.6667  -53.5
 0.820  0.6745  -95.3   6.658  116.1  0.1091   41.1  0.6584  -54.2
 0.840  0.6685  -96.9   6.566  115.1  0.1101   40.4  0.6502  -55.0
 0.860  0.6632  -98.6   6.476  114.1  0.1112   39.8  0.6421  -55.7
 0.880  0.6584 -100.3   6.389  113.1  0.1122   39.2  0.6341  -56.5
 0.900  0.6542 -102.0   6.303  112.1  0.1133   38.6  0.6263  -57.3
 0.920  0.6486 -103.5   6.216  111.2  0.1141   38.0  0.6190  -57.9
 0.940  0.6434 -105.0   6.131  110.4  0.1150   37.5  0.6118  -58.6
 0.960  0.6387 -106.5   6.046  109.5  0.1158   37.0  0.6046  -59.3
 0.980  0.6345 -108.0   5.964  108.6  0.1167   36.4  0.5976  -60.0
 1.000  0.6307 -109.6   5.883  107.6  0.1176   35.9  0.5906  -60.7
 1.020  0.6261 -111.0   5.805  106.8  0.1183   35.4  0.5841  -61.3
 1.040  0.6219 -112.4   5.728  106.0  0.1190   35.0  0.5778  -61.9
 1.060  0.6181 -113.8   5.652  105.2  0.1197   34.5  0.5714  -62.5
 1.080  0.6147 -115.2   5.577  104.4  0.1204   34.0  0.5652  -63.2
 1.100  0.6116 -116.7   5.504  103.5  0.1211   33.6  0.5590  -63.8
 1.120  0.6076 -118.0   5.435  102.8  0.1217   33.2  0.5532  -64.3
 1.140  0.6040 -119.3   5.366  102.0  0.1223   32.7  0.5474  -64.9
 1.160  0.6007 -120.6   5.299  101.2  0.1229   32.3  0.5417  -65.4
 1.180  0.5977 -122.0   5.232  100.4  0.1235   31.9  0.5361  -66.0
 1.200  0.5950 -123.3   5.167   99.6  0.1241   31.5  0.5305  -66.6
 1.220  0.5919 -124.5   5.105   98.9  0.1246   31.2  0.5254  -67.1
 1.240  0.5891 -125.8   5.043   98.2  0.1251   30.8  0.5204  -67.6
 1.260  0.5865 -127.0   4.983   97.5  0.1256   30.5  0.5154  -68.1
 1.280  0.5843 -128.3   4.923   96.8  0.1261   30.1  0.5105  -68.7
 1.300  0.5823 -129.6   4.864   96.0  0.1266   29.8  0.5056  -69.2
 1.320  0.5796 -130.8   4.808   95.4  0.1270   29.5  0.5010  -69.7
 1.340  0.5772 -131.9   4.753   94.7  0.1274   29.2  0.4964  -70.1
 1.360  0.5750 -133.1   4.698   94.1  0.1278   28.9  0.4918  -70.6
 1.380  0.5730 -134.3   4.644   93.4  0.1283   28.6  0.4873  -71.1
 1.400  0.5713 -135.5   4.591   92.7  0.1287   28.3  0.4828  -71.6
 1.420  0.5690 -136.6   4.541   92.1  0.1291   28.0  0.4788  -72.0
 1.440  0.5669 -137.7   4.491   91.5  0.1295   27.8  0.4749  -72.5
 1.460  0.5650 -138.8   4.442   90.8  0.1298   27.5  0.4710  -72.9
 1.480  0.5634 -139.9   4.394   90.2  0.1302   27.3  0.4671  -73.3
 1.500  0.5619 -141.0   4.346   89.5  0.1306   27.0  0.4632  -73.8
 1.520  0.5600 -142.1   4.300   88.9  0.1309   26.8  0.4594  -74.2
 1.540  0.5583 -143.1   4.254   88.3  0.1312   26.5  0.4556  -74.6
 1.560  0.5568 -144.2   4.209   87.7  0.1315   26.3  0.4519  -75.0
 1.580  0.5555 -145.3   4.164   87.1  0.1318   26.0  0.4482  -75.5
 1.600  0.5544 -146.4   4.120   86.5  0.1321   25.8  0.4445  -75.9
 1.620  0.5531 -147.4   4.080   85.9  0.1324   25.6  0.4413  -76.3
 1.640  0.5519 -148.3   4.040   85.4  0.1327   25.4  0.4382  -76.7
 1.660  0.5509 -149.3   4.001   84.8  0.1330   25.2  0.4351  -77.1
 1.680  0.5500 -150.3   3.962   84.2  0.1333   25.0  0.4320  -77.5
 1.700  0.5493 -151.3   3.923   83.6  0.1336   24.8  0.4289  -77.9
 1.720  0.5481 -152.2   3.885   83.1  0.1339   24.6  0.4260  -78.3
 1.740  0.5470 -153.2   3.848   82.5  0.1341   24.4  0.4231  -78.7
 1.760  0.5461 -154.1   3.811   82.0  0.1344   24.2  0.4202  -79.1
 1.780  0.5453 -155.1   3.775   81.4  0.1346   24.0  0.4173  -79.5
 1.800  0.5447 -156.0   3.739   80.8  0.1349   23.8  0.4145  -79.9
 1.820  0.5438 -156.9   3.706   80.3  0.1351   23.6  0.4118  -80.3
 1.840  0.5430 -157.8   3.673   79.8  0.1353   23.5  0.4091  -80.6
 1.860  0.5423 -158.8   3.640   79.3  0.1356   23.3  0.4064  -81.0
 1.880  0.5418 -159.7   3.607   78.7  0.1358   23.2  0.4037  -81.4
 1.900  0.5414 -160.6   3.575   78.2  0.1360   23.0  0.4011  -81.8
 1.920  0.5407 -161.5   3.543   77.7  0.1362   22.8  0.3987  -82.2
 1.940  0.5402 -162.4   3.512   77.1  0.1365   22.7  0.3964  -82.5
 1.960  0.5397 -163.3   3.481   76.6  0.1367   22.5  0.3940  -82.9
 1.980  0.5395 -164.2   3.450   76.1  0.1370   22.4  0.3917  -83.3
 2.000  0.5393 -165.1   3.420   75.5  0.1372   22.2  0.3894  -83.7
 2.020  0.5387 -165.9   3.391   75.0  0.1374   22.1  0.3872  -84.1
 2.040  0.5383 -166.7   3.363   74.6  0.1376   21.9  0.3851  -84.4
 2.060  0.5379 -167.6   3.335   74.1  0.1378   21.8  0.3829  -84.8
 2.080  0.5377 -168.4   3.307   73.6  0.1380   21.7  0.3808  -85.1
 2.100  0.5376 -169.2   3.279   73.2  0.1382   21.5  0.3787  -85.5
 2.120  0.5376 -170.0   3.252   72.7  0.1385   21.4  0.3766  -85.9
 2.140  0.5377 -170.8   3.224   72.2  0.1387   21.3  0.3745  -86.2
 2.160  0.5379 -171.7   3.197   71.6  0.1389   21.2  0.3725  -86.6
 2.180  0.5382 -172.5   3.170   71.1  0.1391   21.0  0.3704  -87.0
 2.200  0.5386 -173.3   3.144   70.6  0.1393   20.9  0.3684  -87.4
 2.220  0.5384 -174.1   3.120   70.2  0.1395   20.8  0.3665  -87.8
 2.240  0.5383 -174.8   3.096   69.7  0.1396   20.7  0.3646  -88.1
 2.260  0.5383 -175.6   3.072   69.2  0.1398   20.6  0.3627  -88.5
 2.280  0.5384 -176.3   3.048   68.8  0.1400   20.5  0.3609  -88.9
 2.300  0.5386 -177.1   3.024   68.3  0.1401   20.4  0.3591  -89.3
 2.320  0.5388 -177.9   3.001   67.8  0.1403   20.3  0.3572  -89.6
 2.340  0.5392 -178.6   2.978   67.3  0.1405   20.2  0.3554  -90.0
 2.360  0.5397 -179.4   2.955   66.8  0.1407   20.1  0.3536  -90.4
 2.380  0.5402  179.9   2.932   66.3  0.1408   20.0  0.3519  -90.8
 2.400  0.5409  179.1   2.910   65.8  0.1410   19.9  0.3501  -91.2
 2.420  0.5410  178.4   2.889   65.4  0.1412   19.8  0.3485  -91.6
 2.440  0.5413  177.7   2.867   65.0  0.1413   19.7  0.3470  -92.0
 2.460  0.5416  176.9   2.846   64.5  0.1415   19.7  0.3454  -92.4
 2.480  0.5420  176.2   2.826   64.1  0.1416   19.6  0.3439  -92.8
 2.500  0.5425  175.5   2.805   63.6  0.1418   19.5  0.3424  -93.2
 2.520  0.5431  174.8   2.784   63.2  0.1420   19.4  0.3409  -93.6
 2.540  0.5437  174.0   2.764   62.7  0.1421   19.3  0.3394  -94.0
 2.560  0.5445  173.3   2.744   62.3  0.1423   19.3  0.3380  -94.5
 2.580  0.5453  172.6   2.724   61.8  0.1424   19.2  0.3365  -94.9
 2.600  0.5462  171.9   2.704   61.3  0.1426   19.1  0.3351  -95.3
 2.620  0.5464  171.2   2.685   60.9  0.1427   19.0  0.3339  -95.7
 2.640  0.5468  170.6   2.667   60.5  0.1429   19.0  0.3326  -96.1
 2.660  0.5471  169.9   2.649   60.0  0.1430   18.9  0.3314  -96.5
 2.680  0.5476  169.3   2.631   59.6  0.1432   18.8  0.3302  -96.9
 2.700  0.5481  168.6   2.613   59.2  0.1433   18.7  0.3290  -97.4
 2.720  0.5487  168.0   2.595   58.7  0.1435   18.7  0.3279  -97.8
 2.740  0.5494  167.3   2.577   58.3  0.1436   18.6  0.3267  -98.2
 2.760  0.5501  166.7   2.560   57.8  0.1438   18.5  0.3256  -98.6
 2.780  0.5509  166.0   2.542   57.4  0.1439   18.5  0.3245  -99.1
 2.800  0.5518  165.4   2.525   56.9  0.1441   18.4  0.3234  -99.5
 2.820  0.5523  164.8   2.508   56.5  0.1442   18.3  0.3224  -99.9
 2.840  0.5528  164.2   2.492   56.1  0.1444   18.3  0.3214 -100.3
 2.860  0.5534  163.6   2.476   55.7  0.1445   18.2  0.3204 -100.7
 2.880  0.5540  162.9   2.460   55.3  0.1447   18.2  0.3194 -101.1
 2.900  0.5548  162.3   2.443   54.9  0.1448   18.1  0.3184 -101.6
 2.920  0.5555  161.7   2.427   54.5  0.1449   18.1  0.3175 -102.0
 2.940  0.5564  161.1   2.412   54.1  0.1451   18.0  0.3166 -102.4
 2.960  0.5573  160.5   2.396   53.7  0.1452   18.0  0.3157 -102.8
 2.980  0.5583  159.9   2.380   53.2  0.1454   17.9  0.3148 -103.3
 3.000  0.5593  159.3   2.365   52.8  0.1455   17.9  0.3139 -103.7
 3.100  0.5612  156.5   2.294   51.1  0.1462   17.7  0.3103 -105.7
 3.200  0.5645  153.8   2.225   49.2  0.1470   17.6  0.3071 -107.7
 3.300  0.5690  151.1   2.159   47.3  0.1477   17.4  0.3043 -109.8
 3.400  0.5747  148.5   2.095   45.2  0.1485   17.3  0.3020 -111.9
 3.500  0.5816  145.9   2.034   43.0  0.1492   17.1  0.3000 -114.1
 3.600  0.5854  143.5   1.979   41.4  0.1500   17.0  0.2977 -116.3
 3.700  0.5903  141.2   1.926   39.7  0.1509   17.0  0.2959 -118.5
 3.800  0.5961  138.9   1.875   37.9  0.1517   16.9  0.2945 -120.7
 3.900  0.6028  136.6   1.825   36.1  0.1526   16.9  0.2935 -122.9
 4.000  0.6105  134.4   1.778   34.1  0.1534   16.8  0.2930 -125.2
 4.100  0.6150  132.5   1.734   32.6  0.1544   16.8  0.2934 -127.6
 4.200  0.6202  130.6   1.691   31.0  0.1554   16.9  0.2942 -129.9
 4.300  0.6261  128.8   1.649   29.4  0.1564   16.9  0.2956 -132.2
 4.400  0.6326  127.0   1.609   27.6  0.1574   17.0  0.2974 -134.5
 4.500  0.6397  125.2   1.570   25.8  0.1584   17.0  0.2997 -136.8
 4.600  0.6434  123.7   1.534   24.4  0.1598   17.1  0.3025 -138.7
 4.700  0.6476  122.2   1.499   23.0  0.1612   17.2  0.3056 -140.6
 4.800  0.6522  120.7   1.466   21.5  0.1626   17.4  0.3091 -142.5
 4.900  0.6572  119.2   1.433   19.9  0.1640   17.5  0.3129 -144.3
 5.000  0.6627  117.8   1.401   18.3  0.1654   17.6  0.3170 -146.1
 5.100  0.6657  116.5   1.373   17.1  0.1675   17.7  0.3205 -147.7
 5.200  0.6690  115.3   1.345   15.8  0.1696   17.7  0.3243 -149.2
 5.300  0.6726  114.0   1.318   14.5  0.1717   17.8  0.3282 -150.6
 5.400  0.6766  112.8   1.292   13.1  0.1738   17.8  0.3324 -152.1
 5.500  0.6808  111.6   1.267   11.7  0.1759   17.9  0.3368 -153.5
 5.600  0.6835  110.5   1.244   10.5  0.1783   17.8  0.3413 -155.0
 5.700  0.6864  109.5   1.222    9.3  0.1806   17.6  0.3461 -156.5
 5.800  0.6896  108.5   1.201    8.1  0.1830   17.5  0.3511 -158.0
 5.900  0.6930  107.4   1.180    6.8  0.1853   17.3  0.3563 -159.4
 6.000  0.6966  106.4   1.160    5.4  0.1877   17.2  0.3617 -160.8
 6.100  0.6975  105.4   1.141    4.3  0.1901   17.0  0.3664 -162.1
 6.200  0.6985  104.5   1.122    3.2  0.1925   16.9  0.3713 -163.3
 6.300  0.6998  103.5   1.103    2.0  0.1948   16.7  0.3764 -164.5
 6.400  0.7012  102.6   1.085    0.8  0.1972   16.6  0.3816 -165.7
 6.500  0.7029  101.6   1.068   -0.5  0.1996   16.4  0.3870 -166.8
 6.600  0.7028  100.5   1.052   -1.5  0.2025   16.2  0.3899 -167.6
 6.800  0.7034   98.4   1.022   -3.6  0.2082   15.8  0.3959 -169.2
 7.000  0.7049   96.2   0.994   -5.9  0.2139   15.5  0.4022 -170.8
 7.200  0.7080   93.7   0.971   -8.0  0.2208   14.7  0.4054 -172.9
 7.400  0.7123   91.3   0.949  -10.2  0.2278   14.0  0.4092 -175.0
 7.600  0.7175   88.6   0.927  -12.5  0.2349   13.1  0.4132 -177.5
 7.800  0.7238   85.7   0.906  -14.9  0.2423   11.8  0.4177  179.6
 8.000  0.7320   82.9   0.886  -17.4  0.2497   10.7  0.4234  176.7
 8.200  0.7374   79.9   0.862  -19.7  0.2561    9.0  0.4271  173.4
 8.400  0.7448   76.9   0.839  -22.1  0.2626    7.5  0.4321  170.1
 8.600  0.7538   74.0   0.816  -24.4  0.2678    5.8  0.4361  166.2
 8.800  0.7640   71.3   0.792  -26.5  0.2717    4.0  0.4399  161.8
 9.000  0.7760   68.6   0.770  -28.8  0.2759    2.2  0.4464  157.4
 9.200  0.7898   66.4   0.744  -30.6  0.2776    0.7  0.4562  151.9
 9.400  0.8046   64.2   0.719  -32.6  0.2794   -0.8  0.4701  146.7
 9.600  0.8177   62.4   0.694  -34.3  0.2808   -2.0  0.4865  141.8
 9.800  0.8287   60.7   0.668  -35.7  0.2817   -3.1  0.5051  137.3
10.000  0.8404   59.1   0.643  -37.3  0.2826   -4.1  0.5267  133.1
!
!  f       NFmin   Gammaopt  rn/50
! GHz       dB    MAG  ANG    -
 0.450      0.71  0.48   19   0.20
 0.900      0.75  0.46   37   0.21
 1.900      1.09  0.27   93   0.15
 3.500      1.43  0.36 -162   0.10
!
! (c) 2016  Infineon Technologies AG, Munich
