! Infineon Technologies  Discrete & RF Semiconductors
! BFP460
! VCE =  4.0 V,  IC =  12 mA
! Common Emitter S-Parameters:                            Jan 2016
# GHz  S  MA  R  50
!  f         S11            S21            S12            S22
! GHz     MAG   ANG      MAG   ANG      MAG   ANG      MAG   ANG
 0.030  0.7362   -9.6  32.290  173.2  0.0052   81.3  0.9651   -6.5
 0.035  0.7339  -11.2  32.188  172.1  0.0061   80.7  0.9632   -7.5
 0.040  0.7323  -12.9  32.098  170.9  0.0070   80.2  0.9616   -8.6
 0.045  0.7304  -14.5  31.905  169.8  0.0078   80.0  0.9591   -9.5
 0.050  0.7291  -16.1  31.724  168.7  0.0086   79.9  0.9569  -10.4
 0.055  0.7282  -17.7  31.633  167.8  0.0095   79.1  0.9540  -11.5
 0.060  0.7279  -19.4  31.550  166.9  0.0104   78.4  0.9514  -12.6
 0.065  0.7244  -21.0  31.518  165.8  0.0111   77.8  0.9480  -13.6
 0.070  0.7214  -22.6  31.498  164.7  0.0119   77.2  0.9449  -14.6
 0.075  0.7220  -24.1  31.334  164.0  0.0127   76.6  0.9411  -15.6
 0.080  0.7230  -25.5  31.176  163.2  0.0136   76.1  0.9377  -16.7
 0.085  0.7201  -27.1  31.024  162.2  0.0144   75.5  0.9331  -17.7
 0.090  0.7177  -28.8  30.882  161.1  0.0153   75.0  0.9287  -18.7
 0.095  0.7141  -30.2  30.635  160.2  0.0160   74.5  0.9242  -19.7
 0.100  0.7109  -31.6  30.396  159.3  0.0168   74.1  0.9200  -20.7
 0.105  0.7105  -33.1  30.268  158.5  0.0175   73.4  0.9149  -21.6
 0.110  0.7106  -34.7  30.147  157.6  0.0182   72.8  0.9100  -22.6
 0.115  0.7056  -36.2  29.974  156.6  0.0189   72.3  0.9049  -23.5
 0.120  0.7012  -37.8  29.811  155.6  0.0196   71.8  0.9000  -24.5
 0.125  0.6982  -39.1  29.619  154.8  0.0203   71.0  0.8944  -25.4
 0.130  0.6956  -40.5  29.433  154.0  0.0210   70.3  0.8890  -26.3
 0.135  0.6921  -42.0  29.256  153.1  0.0217   69.6  0.8834  -27.2
 0.140  0.6890  -43.5  29.088  152.1  0.0224   69.0  0.8781  -28.1
 0.145  0.6856  -44.9  28.848  151.2  0.0230   68.5  0.8721  -29.0
 0.150  0.6827  -46.3  28.615  150.3  0.0237   68.1  0.8664  -29.9
 0.155  0.6782  -47.6  28.391  149.6  0.0243   67.5  0.8596  -30.6
 0.160  0.6739  -48.8  28.172  148.9  0.0248   66.9  0.8530  -31.4
 0.165  0.6701  -50.1  27.958  148.1  0.0254   66.4  0.8466  -32.2
 0.170  0.6666  -51.4  27.748  147.4  0.0260   65.8  0.8403  -33.0
 0.175  0.6634  -52.8  27.543  146.6  0.0266   65.3  0.8341  -33.8
 0.180  0.6606  -54.1  27.343  145.8  0.0272   64.8  0.8281  -34.6
 0.185  0.6581  -55.4  27.148  145.0  0.0277   64.4  0.8223  -35.4
 0.190  0.6560  -56.8  26.958  144.2  0.0283   63.9  0.8167  -36.2
 0.195  0.6543  -58.1  26.774  143.4  0.0289   63.5  0.8112  -37.0
 0.200  0.6529  -59.5  26.595  142.6  0.0295   63.1  0.8059  -37.9
 0.220  0.6379  -64.1  25.710  140.0  0.0314   61.3  0.7800  -40.6
 0.240  0.6272  -68.9  24.882  137.2  0.0333   59.7  0.7560  -43.5
 0.260  0.6168  -73.4  24.076  134.6  0.0351   58.3  0.7324  -46.1
 0.280  0.6054  -77.5  23.273  132.3  0.0366   57.0  0.7087  -48.5
 0.300  0.5972  -81.7  22.508  129.9  0.0382   55.8  0.6864  -51.1
 0.320  0.5861  -85.4  21.752  128.0  0.0395   54.7  0.6645  -53.1
 0.340  0.5775  -89.2  21.023  125.9  0.0408   53.7  0.6435  -55.3
 0.360  0.5693  -92.8  20.333  124.0  0.0421   52.8  0.6237  -57.2
 0.380  0.5609  -96.1  19.674  122.2  0.0432   52.0  0.6046  -59.0
 0.400  0.5543  -99.4  19.035  120.4  0.0443   51.3  0.5862  -60.9
 0.420  0.5464 -102.4  18.438  119.0  0.0453   50.7  0.5692  -62.5
 0.440  0.5400 -105.4  17.853  117.4  0.0462   50.2  0.5526  -64.1
 0.450  0.5374 -107.0  17.566  116.6  0.0467   49.9  0.5445  -65.0
 0.460  0.5340 -108.3  17.305  116.0  0.0471   49.7  0.5370  -65.7
 0.480  0.5279 -110.9  16.790  114.6  0.0480   49.3  0.5222  -67.0
 0.500  0.5230 -113.6  16.285  113.2  0.0489   48.9  0.5077  -68.5
 0.520  0.5171 -115.8  15.844  112.2  0.0497   48.6  0.4952  -69.6
 0.540  0.5121 -118.1  15.408  111.1  0.0504   48.3  0.4828  -70.8
 0.560  0.5079 -120.4  14.979  109.9  0.0512   48.0  0.4707  -72.0
 0.580  0.5045 -122.8  14.555  108.7  0.0519   47.8  0.4588  -73.3
 0.600  0.5020 -125.2  14.139  107.4  0.0527   47.5  0.4472  -74.7
 0.620  0.4979 -127.0  13.793  106.5  0.0534   47.4  0.4375  -75.6
 0.640  0.4943 -128.9  13.450  105.6  0.0541   47.3  0.4279  -76.6
 0.660  0.4913 -130.8  13.111  104.7  0.0549   47.1  0.4185  -77.7
 0.680  0.4888 -132.8  12.775  103.7  0.0556   47.0  0.4092  -78.8
 0.700  0.4869 -134.7  12.444  102.6  0.0563   46.9  0.4000  -79.9
 0.720  0.4845 -136.3  12.169  101.9  0.0570   46.8  0.3924  -80.7
 0.740  0.4824 -137.9  11.896  101.1  0.0576   46.8  0.3849  -81.6
 0.760  0.4807 -139.5  11.625  100.3  0.0583   46.7  0.3774  -82.4
 0.780  0.4793 -141.1  11.356   99.5  0.0589   46.7  0.3701  -83.3
 0.800  0.4784 -142.7  11.090   98.6  0.0596   46.6  0.3628  -84.3
 0.820  0.4765 -144.1  10.870   98.0  0.0603   46.6  0.3568  -85.0
 0.840  0.4749 -145.5  10.651   97.3  0.0610   46.6  0.3508  -85.8
 0.860  0.4736 -146.9  10.434   96.6  0.0616   46.7  0.3450  -86.6
 0.880  0.4726 -148.4  10.218   95.9  0.0623   46.7  0.3391  -87.4
 0.900  0.4719 -149.8  10.004   95.1  0.0630   46.7  0.3334  -88.2
 0.920  0.4704 -151.0   9.820   94.5  0.0636   46.7  0.3285  -88.9
 0.940  0.4691 -152.2   9.638   93.9  0.0643   46.7  0.3237  -89.6
 0.960  0.4681 -153.4   9.456   93.3  0.0649   46.8  0.3189  -90.3
 0.980  0.4672 -154.7   9.276   92.7  0.0656   46.8  0.3142  -91.0
 1.000  0.4666 -155.9   9.097   92.0  0.0662   46.8  0.3095  -91.8
 1.020  0.4658 -157.0   8.943   91.5  0.0669   46.8  0.3056  -92.4
 1.040  0.4651 -158.1   8.789   90.9  0.0676   46.9  0.3017  -93.0
 1.060  0.4646 -159.1   8.637   90.3  0.0682   46.9  0.2979  -93.7
 1.080  0.4643 -160.2   8.485   89.7  0.0689   47.0  0.2941  -94.3
 1.100  0.4641 -161.3   8.334   89.1  0.0696   47.0  0.2903  -95.0
 1.120  0.4634 -162.3   8.203   88.6  0.0703   47.0  0.2870  -95.6
 1.140  0.4629 -163.3   8.073   88.1  0.0710   47.1  0.2838  -96.2
 1.160  0.4625 -164.3   7.944   87.6  0.0716   47.1  0.2805  -96.8
 1.180  0.4623 -165.3   7.815   87.1  0.0723   47.2  0.2774  -97.4
 1.200  0.4622 -166.3   7.687   86.5  0.0730   47.2  0.2742  -98.0
 1.220  0.4621 -167.2   7.575   86.0  0.0737   47.2  0.2715  -98.5
 1.240  0.4620 -168.1   7.464   85.5  0.0744   47.3  0.2689  -99.1
 1.260  0.4621 -169.0   7.353   85.0  0.0750   47.3  0.2663  -99.6
 1.280  0.4623 -169.9   7.243   84.5  0.0757   47.4  0.2637 -100.2
 1.300  0.4626 -170.8   7.133   84.0  0.0764   47.4  0.2612 -100.8
 1.320  0.4624 -171.6   7.036   83.6  0.0771   47.4  0.2589 -101.3
 1.340  0.4623 -172.4   6.939   83.1  0.0778   47.4  0.2565 -101.8
 1.360  0.4623 -173.3   6.843   82.7  0.0785   47.5  0.2542 -102.3
 1.380  0.4623 -174.1   6.747   82.2  0.0792   47.5  0.2520 -102.9
 1.400  0.4625 -174.9   6.652   81.7  0.0799   47.5  0.2497 -103.4
 1.420  0.4624 -175.7   6.567   81.3  0.0806   47.5  0.2478 -103.9
 1.440  0.4625 -176.5   6.483   80.8  0.0813   47.5  0.2460 -104.4
 1.460  0.4626 -177.3   6.399   80.4  0.0821   47.6  0.2442 -104.9
 1.480  0.4628 -178.1   6.316   79.9  0.0828   47.6  0.2424 -105.5
 1.500  0.4631 -178.9   6.233   79.4  0.0835   47.6  0.2406 -106.0
 1.520  0.4632 -179.6   6.158   79.0  0.0842   47.6  0.2389 -106.5
 1.540  0.4634  179.7   6.082   78.6  0.0849   47.6  0.2373 -107.0
 1.560  0.4637  178.9   6.008   78.2  0.0855   47.6  0.2357 -107.5
 1.580  0.4641  178.2   5.933   77.7  0.0862   47.6  0.2341 -108.0
 1.600  0.4645  177.5   5.859   77.3  0.0869   47.6  0.2325 -108.5
 1.620  0.4647  176.8   5.794   76.9  0.0876   47.6  0.2311 -108.9
 1.640  0.4649  176.1   5.728   76.5  0.0884   47.6  0.2298 -109.4
 1.660  0.4652  175.5   5.664   76.1  0.0891   47.5  0.2284 -109.9
 1.680  0.4656  174.8   5.599   75.6  0.0899   47.5  0.2271 -110.3
 1.700  0.4660  174.1   5.535   75.2  0.0906   47.5  0.2258 -110.8
 1.720  0.4663  173.5   5.475   74.8  0.0913   47.5  0.2246 -111.3
 1.740  0.4667  172.8   5.415   74.5  0.0920   47.5  0.2235 -111.7
 1.760  0.4671  172.2   5.356   74.1  0.0928   47.5  0.2223 -112.2
 1.780  0.4676  171.5   5.297   73.7  0.0935   47.5  0.2212 -112.7
 1.800  0.4682  170.9   5.238   73.3  0.0942   47.5  0.2201 -113.2
 1.820  0.4685  170.3   5.186   72.9  0.0949   47.5  0.2190 -113.7
 1.840  0.4688  169.7   5.133   72.5  0.0957   47.4  0.2180 -114.1
 1.860  0.4692  169.0   5.081   72.1  0.0964   47.4  0.2170 -114.6
 1.880  0.4696  168.4   5.029   71.7  0.0972   47.3  0.2160 -115.1
 1.900  0.4701  167.8   4.978   71.3  0.0979   47.3  0.2150 -115.6
 1.920  0.4706  167.2   4.930   70.9  0.0986   47.3  0.2141 -116.1
 1.940  0.4712  166.6   4.882   70.5  0.0993   47.2  0.2133 -116.5
 1.960  0.4718  166.0   4.834   70.1  0.1001   47.2  0.2124 -117.0
 1.980  0.4725  165.4   4.786   69.7  0.1008   47.1  0.2116 -117.5
 2.000  0.4732  164.8   4.739   69.3  0.1015   47.1  0.2108 -118.0
 2.020  0.4738  164.2   4.696   69.0  0.1022   47.0  0.2101 -118.5
 2.040  0.4744  163.6   4.654   68.6  0.1030   47.0  0.2093 -119.0
 2.060  0.4751  163.1   4.611   68.3  0.1037   46.9  0.2086 -119.4
 2.080  0.4758  162.5   4.569   67.9  0.1045   46.8  0.2079 -119.9
 2.100  0.4766  161.9   4.527   67.5  0.1052   46.8  0.2073 -120.4
 2.120  0.4774  161.4   4.485   67.2  0.1059   46.7  0.2066 -120.9
 2.140  0.4782  160.8   4.444   66.8  0.1067   46.7  0.2059 -121.4
 2.160  0.4791  160.2   4.402   66.4  0.1074   46.6  0.2053 -121.9
 2.180  0.4801  159.7   4.361   66.0  0.1082   46.6  0.2047 -122.4
 2.200  0.4811  159.1   4.320   65.6  0.1089   46.5  0.2041 -122.9
 2.220  0.4817  158.6   4.284   65.3  0.1096   46.4  0.2036 -123.4
 2.240  0.4824  158.0   4.249   64.9  0.1103   46.4  0.2031 -123.9
 2.260  0.4831  157.5   4.213   64.6  0.1111   46.3  0.2026 -124.4
 2.280  0.4839  157.0   4.178   64.2  0.1118   46.2  0.2021 -124.9
 2.300  0.4847  156.5   4.143   63.9  0.1125   46.1  0.2017 -125.4
 2.320  0.4855  156.0   4.108   63.5  0.1132   46.1  0.2012 -125.9
 2.340  0.4864  155.4   4.073   63.1  0.1139   46.0  0.2008 -126.4
 2.360  0.4873  154.9   4.039   62.8  0.1147   45.9  0.2004 -127.0
 2.380  0.4883  154.4   4.004   62.4  0.1154   45.9  0.2000 -127.5
 2.400  0.4893  153.9   3.970   62.0  0.1161   45.8  0.1996 -128.0
 2.420  0.4901  153.4   3.939   61.7  0.1168   45.7  0.1993 -128.5
 2.440  0.4910  152.9   3.908   61.3  0.1175   45.6  0.1991 -129.1
 2.460  0.4918  152.4   3.878   61.0  0.1183   45.5  0.1989 -129.6
 2.480  0.4928  152.0   3.848   60.7  0.1190   45.4  0.1987 -130.1
 2.500  0.4937  151.5   3.817   60.3  0.1197   45.3  0.1985 -130.7
 2.520  0.4947  151.0   3.787   60.0  0.1204   45.2  0.1983 -131.2
 2.540  0.4957  150.5   3.757   59.6  0.1211   45.2  0.1982 -131.8
 2.560  0.4968  150.0   3.727   59.2  0.1219   45.1  0.1980 -132.3
 2.580  0.4979  149.6   3.698   58.9  0.1226   45.0  0.1979 -132.9
 2.600  0.4990  149.1   3.668   58.5  0.1233   44.9  0.1978 -133.4
 2.620  0.4998  148.6   3.641   58.2  0.1240   44.8  0.1978 -133.9
 2.640  0.5006  148.2   3.615   57.9  0.1247   44.7  0.1978 -134.5
 2.660  0.5015  147.7   3.588   57.5  0.1254   44.6  0.1978 -135.0
 2.680  0.5023  147.3   3.562   57.2  0.1261   44.5  0.1978 -135.5
 2.700  0.5033  146.8   3.536   56.9  0.1268   44.4  0.1979 -136.1
 2.720  0.5042  146.4   3.510   56.5  0.1276   44.3  0.1980 -136.6
 2.740  0.5052  145.9   3.484   56.2  0.1283   44.2  0.1980 -137.1
 2.760  0.5062  145.5   3.458   55.8  0.1290   44.1  0.1981 -137.6
 2.780  0.5072  145.0   3.433   55.5  0.1297   44.0  0.1983 -138.2
 2.800  0.5083  144.6   3.407   55.1  0.1304   43.9  0.1984 -138.7
 2.820  0.5092  144.2   3.384   54.8  0.1311   43.8  0.1986 -139.2
 2.840  0.5101  143.8   3.361   54.5  0.1318   43.7  0.1987 -139.7
 2.860  0.5111  143.4   3.337   54.2  0.1325   43.6  0.1989 -140.2
 2.880  0.5120  142.9   3.314   53.8  0.1332   43.4  0.1991 -140.8
 2.900  0.5130  142.5   3.292   53.5  0.1338   43.3  0.1994 -141.3
 2.920  0.5140  142.1   3.269   53.2  0.1345   43.2  0.1996 -141.8
 2.940  0.5151  141.7   3.246   52.8  0.1352   43.1  0.1998 -142.3
 2.960  0.5162  141.3   3.224   52.5  0.1359   43.0  0.2001 -142.8
 2.980  0.5173  140.9   3.201   52.2  0.1366   42.9  0.2004 -143.3
 3.000  0.5184  140.5   3.179   51.8  0.1373   42.8  0.2007 -143.8
 3.100  0.5225  138.5   3.083   50.4  0.1406   42.1  0.2022 -146.2
 3.200  0.5273  136.5   2.988   48.9  0.1440   41.5  0.2041 -148.5
 3.300  0.5327  134.6   2.896   47.4  0.1473   40.9  0.2063 -150.8
 3.400  0.5386  132.7   2.806   45.7  0.1507   40.3  0.2088 -153.0
 3.500  0.5452  130.8   2.718   43.9  0.1541   39.7  0.2116 -155.2
 3.600  0.5504  129.0   2.644   42.6  0.1571   39.0  0.2141 -157.6
 3.700  0.5562  127.3   2.572   41.2  0.1602   38.3  0.2170 -160.0
 3.800  0.5624  125.6   2.501   39.8  0.1632   37.7  0.2202 -162.2
 3.900  0.5691  124.0   2.432   38.2  0.1663   37.1  0.2237 -164.5
 4.000  0.5763  122.4   2.365   36.6  0.1694   36.5  0.2276 -166.6
 4.100  0.5818  121.0   2.306   35.4  0.1722   35.8  0.2319 -168.8
 4.200  0.5877  119.6   2.249   34.0  0.1750   35.2  0.2365 -170.9
 4.300  0.5938  118.2   2.192   32.7  0.1778   34.6  0.2415 -172.9
 4.400  0.6004  116.9   2.138   31.2  0.1806   34.0  0.2467 -174.8
 4.500  0.6072  115.6   2.084   29.7  0.1835   33.4  0.2522 -176.7
 4.600  0.6114  114.4   2.038   28.5  0.1863   32.8  0.2564 -178.2
 4.700  0.6159  113.1   1.993   27.3  0.1890   32.3  0.2608 -179.6
 4.800  0.6206  111.9   1.949   26.1  0.1918   31.7  0.2653  179.0
 4.900  0.6256  110.8   1.906   24.8  0.1947   31.2  0.2700  177.6
 5.000  0.6309  109.6   1.864   23.4  0.1975   30.7  0.2748  176.3
 5.100  0.6339  108.6   1.828   22.3  0.2005   30.1  0.2780  175.2
 5.200  0.6370  107.5   1.794   21.3  0.2036   29.4  0.2812  174.2
 5.300  0.6404  106.5   1.759   20.1  0.2066   28.8  0.2846  173.2
 5.400  0.6439  105.5   1.726   18.9  0.2097   28.3  0.2880  172.2
 5.500  0.6477  104.5   1.693   17.7  0.2128   27.7  0.2915  171.2
 5.600  0.6502  103.7   1.665   16.6  0.2157   27.0  0.2953  170.2
 5.700  0.6529  102.8   1.637   15.5  0.2185   26.3  0.2993  169.2
 5.800  0.6557  102.0   1.610   14.3  0.2215   25.6  0.3033  168.3
 5.900  0.6586  101.2   1.584   13.1  0.2244   24.9  0.3073  167.4
 6.000  0.6617  100.4   1.558   11.9  0.2274   24.3  0.3115  166.5
 6.100  0.6622   99.6   1.534   10.9  0.2299   23.6  0.3146  165.9
 6.200  0.6629   98.8   1.510    9.8  0.2325   23.0  0.3178  165.3
 6.300  0.6636   97.9   1.486    8.8  0.2351   22.3  0.3209  164.7
 6.400  0.6645   97.1   1.463    7.6  0.2377   21.7  0.3242  164.1
 6.500  0.6656   96.3   1.441    6.5  0.2403   21.1  0.3274  163.5
 6.600  0.6652   95.3   1.422    5.5  0.2432   20.5  0.3278  163.1
 6.800  0.6651   93.4   1.386    3.5  0.2490   19.3  0.3286  162.4
 7.000  0.6657   91.4   1.352    1.3  0.2550   18.1  0.3295  161.7
 7.200  0.6679   89.2   1.323   -0.8  0.2614   16.6  0.3299  160.2
 7.400  0.6710   87.0   1.295   -3.1  0.2680   15.2  0.3304  158.7
 7.600  0.6754   84.6   1.268   -5.4  0.2744   13.6  0.3325  156.8
 7.800  0.6811   82.0   1.241   -7.9  0.2805   11.9  0.3363  154.4
 8.000  0.6882   79.5   1.217  -10.5  0.2869   10.2  0.3406  152.1
 8.200  0.6942   76.8   1.185  -12.9  0.2914    8.2  0.3447  149.1
 8.400  0.7018   74.1   1.156  -15.4  0.2962    6.2  0.3498  146.1
 8.600  0.7114   71.6   1.125  -17.8  0.2995    4.2  0.3558  142.5
 8.800  0.7230   69.2   1.094  -20.1  0.3012    2.2  0.3634  138.2
 9.000  0.7358   66.9   1.064  -22.6  0.3032    0.2  0.3730  134.1
 9.200  0.7519   64.9   1.029  -24.5  0.3027   -1.4  0.3884  129.1
 9.400  0.7689   63.0   0.995  -26.5  0.3024   -2.9  0.4065  124.5
 9.600  0.7840   61.3   0.962  -28.2  0.3020   -4.2  0.4258  120.5
 9.800  0.7970   59.8   0.930  -29.8  0.3012   -5.2  0.4458  116.9
10.000  0.8106   58.4   0.898  -31.4  0.3005   -6.2  0.4674  113.7
!
!  f       NFmin   Gammaopt  rn/50
! GHz       dB    MAG  ANG    -
 0.450      1.03  0.09   22   0.14
 1.900      1.19  0.09 -179   0.12
 3.500      1.20  0.36 -133   0.12
!
! (c) 2016  Infineon Technologies AG, Munich
