Freq.	I(C1)/V(i)	I(C2)/V(i)
1.00000000000000e+007	1.00000001000000e-003,6.91150434694715e-004	9.99999999900100e-002,-6.28318371500184e-005
2.00000000000000e+007	1.00000001000000e-003,1.38230087177675e-003	9.99999999900100e-002,-1.25663698173278e-004
3.00000000000000e+007	1.00000001000000e-003,2.07345130832828e-003	9.99999999900100e-002,-1.88495553891373e-004
4.00000000000000e+007	1.00000001000000e-003,2.76460174474717e-003	9.99999999900100e-002,-2.51327408283177e-004
5.00000000000000e+007	1.00000001000000e-003,3.45575175534782e-003	9.99999999900100e-002,-3.14159262144465e-004
6.00000000000000e+007	1.00000001000000e-003,4.14690261745233e-003	9.99999999900100e-002,-3.76991115740494e-004
7.00000000000000e+007	1.00000001000000e-003,4.83805305377649e-003	9.99999999900100e-002,-4.39822969184947e-004
8.00000000000000e+007	1.00000001000000e-003,5.52920349009118e-003	9.99999999900100e-002,-5.02654822534665e-004
9.00000000000000e+007	1.00000001000000e-003,6.22035392639954e-003	9.99999999900100e-002,-5.65486675821226e-004
1.00000000000000e+008	1.00000001000000e-003,6.91150351117309e-003	9.99999999900100e-002,-6.28318529063577e-004
1.10000000000000e+008	1.00000001000000e-003,7.60265386232079e-003	9.99999999900100e-002,-6.91150382273776e-004
1.20000000000000e+008	1.00000001000000e-003,8.29380523530255e-003	9.99999999900100e-002,-7.53982235459861e-004
1.30000000000000e+008	1.00000001000000e-003,8.98495567159902e-003	9.99999999900100e-002,-8.16814088627396e-004
1.40000000000000e+008	1.00000001000000e-003,9.67610610789402e-003	9.99999999900100e-002,-8.79645941780357e-004
1.50000000000000e+008	1.00000001000000e-003,1.03672552668923e-002	9.99999999900100e-002,-9.42477794921657e-004
1.60000000000000e+008	1.00000001000000e-003,1.10584069804808e-002	9.99999999900100e-002,-1.00530964805348e-003
1.70000000000000e+008	1.00000001000000e-003,1.17495559691712e-002	9.99999999900100e-002,-1.06814150117751e-003
1.80000000000000e+008	1.00000001000000e-003,1.24407078530643e-002	9.99999999900100e-002,-1.13097335429503e-003
1.90000000000000e+008	1.00000001000000e-003,1.31318550535398e-002	9.99999999900100e-002,-1.19380520740708e-003
2.00000000000000e+008	1.00000001000000e-003,1.38230070225849e-002	9.99999999900100e-002,-1.25663706051448e-003
2.10000000000000e+008	1.00000001000000e-003,1.45141555855081e-002	9.99999999900100e-002,-1.31946891361789e-003
2.20000000000000e+008	1.00000001000000e-003,1.52053077248586e-002	9.99999999900100e-002,-1.38230076671785e-003
2.30000000000000e+008	1.00000001000000e-003,1.58964561174751e-002	9.99999999900100e-002,-1.44513261981481e-003
2.40000000000000e+008	1.00000001000000e-003,1.65876104708040e-002	9.99999999900100e-002,-1.50796447290916e-003
2.50000000000000e+008	1.00000001000000e-003,1.72787587782670e-002	9.99999999900100e-002,-1.57079632600120e-003
2.60000000000000e+008	1.00000001000000e-003,1.79699113433817e-002	9.99999999900100e-002,-1.63362817909120e-003
2.70000000000000e+008	1.00000001000000e-003,1.86610594805381e-002	9.99999999900100e-002,-1.69646003217938e-003
2.80000000000000e+008	1.00000001000000e-003,1.93522122159586e-002	9.99999999900100e-002,-1.75929188526594e-003
2.90000000000000e+008	1.00000001000000e-003,2.00433626522468e-002	9.99999999900100e-002,-1.82212373835106e-003
3.00000000000000e+008	1.00000001000000e-003,2.07345105339437e-002	9.99999999900100e-002,-1.88495559143486e-003
3.10000000000000e+008	1.00000001000000e-003,2.14256608850786e-002	9.99999999900100e-002,-1.94778744451749e-003
3.20000000000000e+008	1.00000001000000e-003,2.21168139611107e-002	9.99999999900100e-002,-2.01061929759905e-003
3.30000000000000e+008	1.00000001000000e-003,2.28079615873482e-002	9.99999999900100e-002,-2.07345115067963e-003
3.40000000000000e+008	1.00000001000000e-003,2.34991119384828e-002	9.99999999900100e-002,-2.13628300375933e-003
3.50000000000000e+008	1.00000001000000e-003,2.41902622896174e-002	9.99999999900100e-002,-2.19911485683821e-003
3.60000000000000e+008	1.00000001000000e-003,2.48814157062613e-002	9.99999999900100e-002,-2.26194670991636e-003
3.70000000000000e+008	1.00000001000000e-003,2.55725661425488e-002	9.99999999900100e-002,-2.32477856299382e-003
3.80000000000000e+008	1.00000001000000e-003,2.62637101072052e-002	9.99999999900100e-002,-2.38761041607065e-003
3.90000000000000e+008	1.00000001000000e-003,2.69548636941550e-002	9.99999999900100e-002,-2.45044226914691e-003
4.00000000000000e+008	1.00000001000000e-003,2.76460140452892e-002	9.99999999900100e-002,-2.51327412222262e-003
4.10000000000000e+008	1.00000001000000e-003,2.83371643964234e-002	9.99999999900100e-002,-2.57610597529784e-003
4.20000000000000e+008	1.00000001000000e-003,2.90283111711299e-002	9.99999999900100e-002,-2.63893782837259e-003
4.30000000000000e+008	1.00000001000000e-003,2.97194687602724e-002	9.99999999900100e-002,-2.70176968144692e-003
4.40000000000000e+008	1.00000001000000e-003,3.04106154498257e-002	9.99999999900100e-002,-2.76460153452084e-003
4.50000000000000e+008	1.00000001000000e-003,3.11017658009598e-002	9.99999999900100e-002,-2.82743338759439e-003
4.60000000000000e+008	1.00000001000000e-003,3.17929122350539e-002	9.99999999900100e-002,-2.89026524066759e-003
4.70000000000000e+008	1.00000001000000e-003,3.24840665032277e-002	9.99999999900100e-002,-2.95309709374047e-003
4.80000000000000e+008	1.00000001000000e-003,3.31752209417076e-002	9.99999999900100e-002,-3.01592894681303e-003
4.90000000000000e+008	1.00000001000000e-003,3.38663630329966e-002	9.99999999900100e-002,-3.07876079988531e-003
5.00000000000000e+008	1.00000001000000e-003,3.45575175566294e-002	9.99999999900100e-002,-3.14159265295732e-003
5.10000000000000e+008	1.00000001000000e-003,3.52486679077633e-002	9.99999999900100e-002,-3.20442450602908e-003
5.20000000000000e+008	1.00000001000000e-003,3.59398226868552e-002	9.99999999900100e-002,-3.26725635910059e-003
5.30000000000000e+008	1.00000001000000e-003,3.66309640969198e-002	9.99999999900100e-002,-3.33008821217188e-003
5.40000000000000e+008	1.00000001000000e-003,3.73221189611647e-002	9.99999999900100e-002,-3.39292006524295e-003
5.50000000000000e+008	1.00000001000000e-003,3.80132739957156e-002	9.99999999900100e-002,-3.45575191831382e-003
5.60000000000000e+008	1.00000001000000e-003,3.87044244320024e-002	9.99999999900100e-002,-3.51858377138450e-003
5.70000000000000e+008	1.00000001000000e-003,3.93955651608426e-002	9.99999999900100e-002,-3.58141562445500e-003
5.80000000000000e+008	1.00000001000000e-003,4.00867253045759e-002	9.99999999900100e-002,-3.64424747752533e-003
5.90000000000000e+008	1.00000001000000e-003,4.07778656928040e-002	9.99999999900100e-002,-3.70707933059549e-003
6.00000000000000e+008	1.00000001000000e-003,4.14690210679670e-002	9.99999999900100e-002,-3.76991118366550e-003
6.10000000000000e+008	1.00000001000000e-003,4.21601766134361e-002	9.99999999900100e-002,-3.83274303673536e-003
6.20000000000000e+008	1.00000001000000e-003,4.28513217702343e-002	9.99999999900100e-002,-3.89557488980509e-003
6.30000000000000e+008	1.00000001000000e-003,4.35424721213679e-002	9.99999999900100e-002,-3.95840674287467e-003
6.40000000000000e+008	1.00000001000000e-003,4.42336279222961e-002	9.99999999900100e-002,-4.02123859594413e-003
6.50000000000000e+008	1.00000001000000e-003,4.49247728236351e-002	9.99999999900100e-002,-4.08407044901347e-003
6.60000000000000e+008	1.00000001000000e-003,4.56159231747687e-002	9.99999999900100e-002,-4.14690230208269e-003
6.70000000000000e+008	1.00000001000000e-003,4.63070678206487e-002	9.99999999900100e-002,-4.20973415515181e-003
6.80000000000000e+008	1.00000001000000e-003,4.69982238770359e-002	9.99999999900100e-002,-4.27256600822081e-003
6.90000000000000e+008	1.00000001000000e-003,4.76893801037292e-002	9.99999999900100e-002,-4.33539786128972e-003
7.00000000000000e+008	1.00000001000000e-003,4.83805245793030e-002	9.99999999900100e-002,-4.39822971435852e-003
7.10000000000000e+008	1.00000001000000e-003,4.90716749304366e-002	9.99999999900100e-002,-4.46106156742724e-003
7.20000000000000e+008	1.00000001000000e-003,4.97628314125890e-002	9.99999999900100e-002,-4.52389342049586e-003
7.30000000000000e+008	1.00000001000000e-003,5.04539694165317e-002	9.99999999900100e-002,-4.58672527356441e-003
7.40000000000000e+008	1.00000001000000e-003,5.11451322851621e-002	9.99999999900100e-002,-4.64955712663286e-003
7.50000000000000e+008	1.00000001000000e-003,5.18362827214486e-002	9.99999999900100e-002,-4.71238897970124e-003
7.60000000000000e+008	1.00000001000000e-003,5.25274202144732e-002	9.99999999900100e-002,-4.77522083276955e-003
7.70000000000000e+008	1.00000001000000e-003,5.32185835940217e-002	9.99999999900100e-002,-4.83805268583778e-003
7.80000000000000e+008	1.00000001000000e-003,5.39097273883712e-002	9.99999999900100e-002,-4.90088453890594e-003
7.90000000000000e+008	1.00000001000000e-003,5.46008844665948e-002	9.99999999900100e-002,-4.96371639197404e-003
8.00000000000000e+008	1.00000001000000e-003,5.52920280906381e-002	9.99999999900100e-002,-5.02654824504207e-003
8.10000000000000e+008	1.00000001000000e-003,5.59831715443754e-002	9.99999999900100e-002,-5.08938009811004e-003
8.20000000000000e+008	1.00000001000000e-003,5.66743287929050e-002	9.99999999900100e-002,-5.15221195117795e-003
8.30000000000000e+008	1.00000001000000e-003,5.73654791440385e-002	9.99999999900100e-002,-5.21504380424580e-003
8.40000000000000e+008	1.00000001000000e-003,5.80566223423166e-002	9.99999999900100e-002,-5.27787565731360e-003
8.50000000000000e+008	1.00000001000000e-003,5.87477798463054e-002	9.99999999900100e-002,-5.34070751038134e-003
8.60000000000000e+008	1.00000001000000e-003,5.94389375206003e-002	9.99999999900100e-002,-5.40353936344903e-003
8.70000000000000e+008	1.00000001000000e-003,6.01300731402578e-002	9.99999999900100e-002,-5.46637121651667e-003
8.80000000000000e+008	1.00000001000000e-003,6.08212308997057e-002	9.99999999900100e-002,-5.52920306958426e-003
8.90000000000000e+008	1.00000001000000e-003,6.15123736722186e-002	9.99999999900100e-002,-5.59203492265180e-003
9.00000000000000e+008	1.00000001000000e-003,6.22035316019726e-002	9.99999999900100e-002,-5.65486677571930e-003
9.10000000000000e+008	1.00000001000000e-003,6.28946819531060e-002	9.99999999900100e-002,-5.71769862878676e-003
9.20000000000000e+008	1.00000001000000e-003,6.35858244701597e-002	9.99999999900100e-002,-5.78053048185417e-003
9.30000000000000e+008	1.00000001000000e-003,6.42769826553728e-002	9.99999999900100e-002,-5.84336233492155e-003
9.40000000000000e+008	1.00000001000000e-003,6.49681330065062e-002	9.99999999900100e-002,-5.90619418798888e-003
9.50000000000000e+008	1.00000001000000e-003,6.56592914471784e-002	9.99999999900100e-002,-5.96902604105617e-003
9.60000000000000e+008	1.00000001000000e-003,6.63504418834649e-002	9.99999999900100e-002,-6.03185789412343e-003
9.70000000000000e+008	1.00000001000000e-003,6.70415840599064e-002	9.99999999900100e-002,-6.09468974719065e-003
9.80000000000000e+008	1.00000001000000e-003,6.77327260660419e-002	9.99999999900100e-002,-6.15752160025784e-003
9.90000000000000e+008	1.00000001000000e-003,6.84238847621732e-002	9.99999999900100e-002,-6.22035345332499e-003
1.00000000000000e+009	1.00000001000000e-003,6.91150351133066e-002	9.99999999900100e-002,-6.28318530639212e-003
