Freq.	I(C1)/V(o)
1.00000000000000e+007	(-8.40364121873220e+001dB,-8.99999088110350e+001°)
1.02329299228075e+007	(-8.38364121873215e+001dB,-8.99999108867493e+001°)
1.04712854805090e+007	(-8.36364121873211e+001dB,-8.99999129152145e+001°)
1.07151930523761e+007	(-8.34364121873206e+001dB,-8.99999148975063e+001°)
1.09647819614319e+007	(-8.32364121873202e+001dB,-8.99999168346755e+001°)
1.12201845430196e+007	(-8.30364121873198e+001dB,-8.99999187277494e+001°)
1.14815362149688e+007	(-8.28364121873194e+001dB,-8.99999205777317e+001°)
1.17489755493953e+007	(-8.26364121873190e+001dB,-8.99999223856033e+001°)
1.20226443461741e+007	(-8.24364121873187e+001dB,-8.99999241523226e+001°)
1.23026877081238e+007	(-8.22364121873183e+001dB,-8.99999258788265e+001°)
1.25892541179417e+007	(-8.20364121873180e+001dB,-8.99999275660304e+001°)
1.28824955169313e+007	(-8.18364121873177e+001dB,-8.99999292148289e+001°)
1.31825673855641e+007	(-8.16364121873174e+001dB,-8.99999308260961e+001°)
1.34896288259165e+007	(-8.14364121873171e+001dB,-8.99999324006864e+001°)
1.38038426460288e+007	(-8.12364121873168e+001dB,-8.99999339394346e+001°)
1.41253754462275e+007	(-8.10364121873166e+001dB,-8.99999354431567e+001°)
1.44543977074593e+007	(-8.08364121873163e+001dB,-8.99999369126498e+001°)
1.47910838816821e+007	(-8.06364121873161e+001dB,-8.99999383486932e+001°)
1.51356124843621e+007	(-8.04364121873159e+001dB,-8.99999397520483e+001°)
1.54881661891248e+007	(-8.02364121873156e+001dB,-8.99999411234591e+001°)
1.58489319246111e+007	(-8.00364121873154e+001dB,-8.99999424636528e+001°)
1.62181009735893e+007	(-7.98364121873152e+001dB,-8.99999437733400e+001°)
1.65958690743756e+007	(-7.96364121873150e+001dB,-8.99999450532150e+001°)
1.69824365246174e+007	(-7.94364121873149e+001dB,-8.99999463039565e+001°)
1.73780082874937e+007	(-7.92364121873147e+001dB,-8.99999475262277e+001°)
1.77827941003892e+007	(-7.90364121873145e+001dB,-8.99999487206766e+001°)
1.81970085860998e+007	(-7.88364121873144e+001dB,-8.99999498879365e+001°)
1.86208713666287e+007	(-7.86364121873142e+001dB,-8.99999510286263e+001°)
1.90546071796325e+007	(-7.84364121873141e+001dB,-8.99999521433509e+001°)
1.94984459975804e+007	(-7.82364121873139e+001dB,-8.99999532327012e+001°)
1.99526231496888e+007	(-7.80364121873138e+001dB,-8.99999542972549e+001°)
2.04173794466953e+007	(-7.78364121873137e+001dB,-8.99999553375764e+001°)
2.08929613085404e+007	(-7.76364121873136e+001dB,-8.99999563542173e+001°)
2.13796208950223e+007	(-7.74364121873135e+001dB,-8.99999573477166e+001°)
2.18776162394955e+007	(-7.72364121873133e+001dB,-8.99999583186011e+001°)
2.23872113856834e+007	(-7.70364121873132e+001dB,-8.99999592673856e+001°)
2.29086765276777e+007	(-7.68364121873131e+001dB,-8.99999601945731e+001°)
2.34422881531992e+007	(-7.66364121873131e+001dB,-8.99999611006552e+001°)
2.39883291901949e+007	(-7.64364121873130e+001dB,-8.99999619861124e+001°)
2.45470891568503e+007	(-7.62364121873129e+001dB,-8.99999628514141e+001°)
2.51188643150958e+007	(-7.60364121873128e+001dB,-8.99999636970192e+001°)
2.57039578276886e+007	(-7.58364121873127e+001dB,-8.99999645233759e+001°)
2.63026799189538e+007	(-7.56364121873126e+001dB,-8.99999653309225e+001°)
2.69153480392691e+007	(-7.54364121873126e+001dB,-8.99999661200870e+001°)
2.75422870333816e+007	(-7.52364121873125e+001dB,-8.99999668912880e+001°)
2.81838293126445e+007	(-7.50364121873125e+001dB,-8.99999676449343e+001°)
2.88403150312660e+007	(-7.48364121873124e+001dB,-8.99999683814255e+001°)
2.95120922666638e+007	(-7.46364121873123e+001dB,-8.99999691011521e+001°)
3.01995172040201e+007	(-7.44364121873123e+001dB,-8.99999698044958e+001°)
3.09029543251359e+007	(-7.42364121873122e+001dB,-8.99999704918294e+001°)
3.16227766016837e+007	(-7.40364121873122e+001dB,-8.99999711635173e+001°)
3.23593656929628e+007	(-7.38364121873121e+001dB,-8.99999718199158e+001°)
3.31131121482591e+007	(-7.36364121873121e+001dB,-8.99999724613728e+001°)
3.38844156139202e+007	(-7.34364121873120e+001dB,-8.99999730882285e+001°)
3.46736850452531e+007	(-7.32364121873120e+001dB,-8.99999737008152e+001°)
3.54813389233575e+007	(-7.30364121873119e+001dB,-8.99999742994578e+001°)
3.63078054770101e+007	(-7.28364121873119e+001dB,-8.99999748844735e+001°)
3.71535229097172e+007	(-7.26364121873119e+001dB,-8.99999754561727e+001°)
3.80189396320561e+007	(-7.24364121873118e+001dB,-8.99999760148584e+001°)
3.89045144994280e+007	(-7.22364121873118e+001dB,-8.99999765608269e+001°)
3.98107170553497e+007	(-7.20364121873118e+001dB,-8.99999770943676e+001°)
4.07380277804112e+007	(-7.18364121873117e+001dB,-8.99999776157635e+001°)
4.16869383470335e+007	(-7.16364121873117e+001dB,-8.99999781252909e+001°)
4.26579518801592e+007	(-7.14364121873117e+001dB,-8.99999786232201e+001°)
4.36515832240165e+007	(-7.12364121873116e+001dB,-8.99999791098150e+001°)
4.46683592150962e+007	(-7.10364121873116e+001dB,-8.99999795853336e+001°)
4.57088189614874e+007	(-7.08364121873116e+001dB,-8.99999800500282e+001°)
4.67735141287197e+007	(-7.06364121873116e+001dB,-8.99999805041450e+001°)
4.78630092322637e+007	(-7.04364121873115e+001dB,-8.99999809479248e+001°)
4.89778819368445e+007	(-7.02364121873115e+001dB,-8.99999813816030e+001°)
5.01187233627271e+007	(-7.00364121873115e+001dB,-8.99999818054095e+001°)
5.12861383991364e+007	(-6.98364121873115e+001dB,-8.99999822195689e+001°)
5.24807460249771e+007	(-6.96364121873115e+001dB,-8.99999826243009e+001°)
5.37031796370251e+007	(-6.94364121873114e+001dB,-8.99999830198201e+001°)
5.49540873857623e+007	(-6.92364121873114e+001dB,-8.99999834063362e+001°)
5.62341325190348e+007	(-6.90364121873114e+001dB,-8.99999837840541e+001°)
5.75439937337156e+007	(-6.88364121873114e+001dB,-8.99999841531741e+001°)
5.88843655355588e+007	(-6.86364121873114e+001dB,-8.99999845138919e+001°)
6.02559586074356e+007	(-6.84364121873114e+001dB,-8.99999848663988e+001°)
6.16595001861481e+007	(-6.82364121873114e+001dB,-8.99999852108816e+001°)
6.30957344480192e+007	(-6.80364121873113e+001dB,-8.99999855475230e+001°)
6.45654229034654e+007	(-6.78364121873113e+001dB,-8.99999858765016e+001°)
6.60693448007594e+007	(-6.76364121873113e+001dB,-8.99999861979916e+001°)
6.76082975391980e+007	(-6.74364121873113e+001dB,-8.99999865121637e+001°)
6.91830970918935e+007	(-6.72364121873113e+001dB,-8.99999868191843e+001°)
7.07945784384136e+007	(-6.70364121873113e+001dB,-8.99999871192163e+001°)
7.24435960074988e+007	(-6.68364121873113e+001dB,-8.99999874124188e+001°)
7.41310241300915e+007	(-6.66364121873113e+001dB,-8.99999876989471e+001°)
7.58577575029182e+007	(-6.64364121873113e+001dB,-8.99999879789532e+001°)
7.76247116628690e+007	(-6.62364121873112e+001dB,-8.99999882525857e+001°)
7.94328234724279e+007	(-6.60364121873112e+001dB,-8.99999885199895e+001°)
8.12830516164097e+007	(-6.58364121873112e+001dB,-8.99999887813064e+001°)
8.31763771102669e+007	(-6.56364121873112e+001dB,-8.99999890366751e+001°)
8.51138038202374e+007	(-6.54364121873112e+001dB,-8.99999892862308e+001°)
8.70963589956078e+007	(-6.52364121873112e+001dB,-8.99999895301060e+001°)
8.91250938133743e+007	(-6.50364121873112e+001dB,-8.99999897684299e+001°)
9.12010839355907e+007	(-6.48364121873112e+001dB,-8.99999900013288e+001°)
9.33254300796988e+007	(-6.46364121873112e+001dB,-8.99999902289264e+001°)
9.54992586021433e+007	(-6.44364121873112e+001dB,-8.99999904513432e+001°)
9.77237220955808e+007	(-6.42364121873112e+001dB,-8.99999906686971e+001°)
9.99999999999997e+007	(-6.40364121873112e+001dB,-8.99999908811035e+001°)
1.02329299228075e+008	(-6.38364121873112e+001dB,-8.99999910886749e+001°)
1.04712854805090e+008	(-6.36364121873112e+001dB,-8.99999912915215e+001°)
1.07151930523760e+008	(-6.34364121873112e+001dB,-8.99999914897506e+001°)
1.09647819614318e+008	(-6.32364121873112e+001dB,-8.99999916834676e+001°)
1.12201845430196e+008	(-6.30364121873112e+001dB,-8.99999918727749e+001°)
1.14815362149688e+008	(-6.28364121873112e+001dB,-8.99999920577732e+001°)
1.17489755493953e+008	(-6.26364121873112e+001dB,-8.99999922385603e+001°)
1.20226443461741e+008	(-6.24364121873111e+001dB,-8.99999924152323e+001°)
1.23026877081238e+008	(-6.22364121873111e+001dB,-8.99999925878827e+001°)
1.25892541179416e+008	(-6.20364121873112e+001dB,-8.99999927566030e+001°)
1.28824955169313e+008	(-6.18364121873111e+001dB,-8.99999929214829e+001°)
1.31825673855640e+008	(-6.16364121873111e+001dB,-8.99999930826096e+001°)
1.34896288259165e+008	(-6.14364121873111e+001dB,-8.99999932400686e+001°)
1.38038426460288e+008	(-6.12364121873111e+001dB,-8.99999933939435e+001°)
1.41253754462275e+008	(-6.10364121873111e+001dB,-8.99999935443157e+001°)
1.44543977074592e+008	(-6.08364121873111e+001dB,-8.99999936912650e+001°)
1.47910838816820e+008	(-6.06364121873111e+001dB,-8.99999938348693e+001°)
1.51356124843620e+008	(-6.04364121873111e+001dB,-8.99999939752048e+001°)
1.54881661891248e+008	(-6.02364121873111e+001dB,-8.99999941123459e+001°)
1.58489319246111e+008	(-6.00364121873111e+001dB,-8.99999942463653e+001°)
1.62181009735892e+008	(-5.98364121873111e+001dB,-8.99999943773340e+001°)
1.65958690743755e+008	(-5.96364121873111e+001dB,-8.99999945053215e+001°)
1.69824365246174e+008	(-5.94364121873111e+001dB,-8.99999946303957e+001°)
1.73780082874937e+008	(-5.92364121873111e+001dB,-8.99999947526228e+001°)
1.77827941003892e+008	(-5.90364121873111e+001dB,-8.99999948720677e+001°)
1.81970085860998e+008	(-5.88364121873111e+001dB,-8.99999949887937e+001°)
1.86208713666286e+008	(-5.86364121873111e+001dB,-8.99999951028626e+001°)
1.90546071796324e+008	(-5.84364121873111e+001dB,-8.99999952143351e+001°)
1.94984459975804e+008	(-5.82364121873111e+001dB,-8.99999953232701e+001°)
1.99526231496887e+008	(-5.80364121873111e+001dB,-8.99999954297255e+001°)
2.04173794466952e+008	(-5.78364121873111e+001dB,-8.99999955337576e+001°)
2.08929613085403e+008	(-5.76364121873111e+001dB,-8.99999956354217e+001°)
2.13796208950222e+008	(-5.74364121873111e+001dB,-8.99999957347717e+001°)
2.18776162394954e+008	(-5.72364121873111e+001dB,-8.99999958318601e+001°)
2.23872113856833e+008	(-5.70364121873111e+001dB,-8.99999959267386e+001°)
2.29086765276776e+008	(-5.68364121873111e+001dB,-8.99999960194573e+001°)
2.34422881531991e+008	(-5.66364121873111e+001dB,-8.99999961100655e+001°)
2.39883291901948e+008	(-5.64364121873111e+001dB,-8.99999961986112e+001°)
2.45470891568502e+008	(-5.62364121873111e+001dB,-8.99999962851414e+001°)
2.51188643150957e+008	(-5.60364121873111e+001dB,-8.99999963697019e+001°)
2.57039578276885e+008	(-5.58364121873111e+001dB,-8.99999964523376e+001°)
2.63026799189537e+008	(-5.56364121873111e+001dB,-8.99999965330922e+001°)
2.69153480392690e+008	(-5.54364121873111e+001dB,-8.99999966120087e+001°)
2.75422870333815e+008	(-5.52364121873111e+001dB,-8.99999966891288e+001°)
2.81838293126444e+008	(-5.50364121873111e+001dB,-8.99999967644934e+001°)
2.88403150312659e+008	(-5.48364121873111e+001dB,-8.99999968381426e+001°)
2.95120922666637e+008	(-5.46364121873111e+001dB,-8.99999969101152e+001°)
3.01995172040200e+008	(-5.44364121873111e+001dB,-8.99999969804496e+001°)
3.09029543251358e+008	(-5.42364121873111e+001dB,-8.99999970491829e+001°)
3.16227766016836e+008	(-5.40364121873111e+001dB,-8.99999971163517e+001°)
3.23593656929627e+008	(-5.38364121873111e+001dB,-8.99999971819916e+001°)
3.31131121482589e+008	(-5.36364121873111e+001dB,-8.99999972461373e+001°)
3.38844156139201e+008	(-5.34364121873111e+001dB,-8.99999973088229e+001°)
3.46736850452530e+008	(-5.32364121873111e+001dB,-8.99999973700815e+001°)
3.54813389233574e+008	(-5.30364121873111e+001dB,-8.99999974299458e+001°)
3.63078054770099e+008	(-5.28364121873111e+001dB,-8.99999974884474e+001°)
3.71535229097171e+008	(-5.26364121873111e+001dB,-8.99999975456173e+001°)
3.80189396320559e+008	(-5.24364121873111e+001dB,-8.99999976014858e+001°)
3.89045144994279e+008	(-5.22364121873111e+001dB,-8.99999976560827e+001°)
3.98107170553495e+008	(-5.20364121873111e+001dB,-8.99999977094368e+001°)
4.07380277804111e+008	(-5.18364121873111e+001dB,-8.99999977615764e+001°)
4.16869383470333e+008	(-5.16364121873111e+001dB,-8.99999978125291e+001°)
4.26579518801590e+008	(-5.14364121873111e+001dB,-8.99999978623220e+001°)
4.36515832240164e+008	(-5.12364121873111e+001dB,-8.99999979109815e+001°)
4.46683592150961e+008	(-5.10364121873111e+001dB,-8.99999979585334e+001°)
4.57088189614873e+008	(-5.08364121873111e+001dB,-8.99999980050028e+001°)
4.67735141287196e+008	(-5.06364121873111e+001dB,-8.99999980504145e+001°)
4.78630092322636e+008	(-5.04364121873111e+001dB,-8.99999980947925e+001°)
4.89778819368443e+008	(-5.02364121873111e+001dB,-8.99999981381603e+001°)
5.01187233627270e+008	(-5.00364121873111e+001dB,-8.99999981805410e+001°)
5.12861383991362e+008	(-4.98364121873111e+001dB,-8.99999982219569e+001°)
5.24807460249770e+008	(-4.96364121873111e+001dB,-8.99999982624301e+001°)
5.37031796370250e+008	(-4.94364121873111e+001dB,-8.99999983019820e+001°)
5.49540873857621e+008	(-4.92364121873111e+001dB,-8.99999983406336e+001°)
5.62341325190346e+008	(-4.90364121873111e+001dB,-8.99999983784054e+001°)
5.75439937337154e+008	(-4.88364121873111e+001dB,-8.99999984153174e+001°)
5.88843655355585e+008	(-4.86364121873111e+001dB,-8.99999984513892e+001°)
6.02559586074354e+008	(-4.84364121873111e+001dB,-8.99999984866399e+001°)
6.16595001861478e+008	(-4.82364121873111e+001dB,-8.99999985210882e+001°)
6.30957344480189e+008	(-4.80364121873111e+001dB,-8.99999985547523e+001°)
6.45654229034652e+008	(-4.78364121873111e+001dB,-8.99999985876502e+001°)
6.60693448007592e+008	(-4.76364121873111e+001dB,-8.99999986197992e+001°)
6.76082975391978e+008	(-4.74364121873111e+001dB,-8.99999986512164e+001°)
6.91830970918932e+008	(-4.72364121873111e+001dB,-8.99999986819184e+001°)
7.07945784384134e+008	(-4.70364121873111e+001dB,-8.99999987119216e+001°)
7.24435960074986e+008	(-4.68364121873111e+001dB,-8.99999987412419e+001°)
7.41310241300913e+008	(-4.66364121873111e+001dB,-8.99999987698947e+001°)
7.58577575029179e+008	(-4.64364121873111e+001dB,-8.99999987978953e+001°)
7.76247116628687e+008	(-4.62364121873111e+001dB,-8.99999988252586e+001°)
7.94328234724277e+008	(-4.60364121873111e+001dB,-8.99999988519990e+001°)
8.12830516164094e+008	(-4.58364121873111e+001dB,-8.99999988781306e+001°)
8.31763771102666e+008	(-4.56364121873111e+001dB,-8.99999989036675e+001°)
8.51138038202371e+008	(-4.54364121873111e+001dB,-8.99999989286231e+001°)
8.70963589956075e+008	(-4.52364121873111e+001dB,-8.99999989530106e+001°)
8.91250938133740e+008	(-4.50364121873111e+001dB,-8.99999989768430e+001°)
9.12010839355904e+008	(-4.48364121873111e+001dB,-8.99999990001329e+001°)
9.33254300796985e+008	(-4.46364121873111e+001dB,-8.99999990228926e+001°)
9.54992586021430e+008	(-4.44364121873111e+001dB,-8.99999990451343e+001°)
9.77237220955804e+008	(-4.42364121873111e+001dB,-8.99999990668697e+001°)
1.00000000000000e+009	(-4.40364121873110e+001dB,-8.99999990881104e+001°)
