! Infineon Technologies  Discrete & RF Semiconductors
! BFP720
! VCE =  3.0 V,  IC =  10 mA
! Common Emitter S-Parameters:                            Aug 2012
# GHz  S  MA  R  50
!  f         S11            S21            S12            S22
! GHz     MAG   ANG      MAG   ANG      MAG   ANG      MAG   ANG
 0.010  0.8709    0.6  24.946  179.7  0.0003    6.7  0.9720    1.6
 0.020  0.8742   -1.2  24.893  178.1  0.0006   91.9  0.9939   -0.5
 0.030  0.8734   -1.8  24.962  177.6  0.0010   87.6  0.9942   -1.0
 0.040  0.8727   -2.5  25.032  177.1  0.0013   85.7  0.9945   -1.4
 0.050  0.8721   -3.1  25.105  176.6  0.0017   84.6  0.9948   -1.9
 0.060  0.8717   -3.8  25.061  176.2  0.0021   84.3  0.9947   -2.3
 0.070  0.8715   -4.4  25.020  175.7  0.0024   84.1  0.9947   -2.7
 0.080  0.8713   -5.1  24.980  175.2  0.0028   84.0  0.9947   -3.2
 0.090  0.8712   -5.7  24.942  174.7  0.0032   83.9  0.9947   -3.6
 0.100  0.8713   -6.4  24.906  174.2  0.0036   83.8  0.9948   -4.1
 0.110  0.8706   -7.0  24.874  173.7  0.0039   84.0  0.9942   -4.5
 0.120  0.8700   -7.6  24.845  173.2  0.0042   84.1  0.9936   -4.9
 0.130  0.8695   -8.3  24.818  172.6  0.0045   84.2  0.9931   -5.3
 0.140  0.8692   -8.9  24.793  172.1  0.0048   84.3  0.9926   -5.7
 0.150  0.8689   -9.5  24.771  171.5  0.0052   84.4  0.9922   -6.1
 0.200  0.8641  -12.7  24.492  169.0  0.0069   82.0  0.9877   -8.2
 0.250  0.8595  -15.8  24.314  166.5  0.0086   80.5  0.9832  -10.1
 0.300  0.8532  -18.9  24.027  164.1  0.0102   79.3  0.9751  -12.1
 0.350  0.8470  -22.0  23.772  161.8  0.0119   77.6  0.9690  -14.1
 0.400  0.8409  -25.1  23.555  159.5  0.0135   75.8  0.9602  -16.0
 0.450  0.8333  -28.1  23.277  157.2  0.0152   73.9  0.9530  -17.9
 0.500  0.8264  -31.2  23.022  155.1  0.0168   72.6  0.9439  -19.8
 0.600  0.8111  -37.3  22.562  150.9  0.0198   69.3  0.9237  -23.5
 0.700  0.7948  -43.4  22.056  146.8  0.0226   66.1  0.9030  -27.2
 0.800  0.7758  -49.7  21.684  142.7  0.0254   63.0  0.8815  -30.8
 0.900  0.7596  -55.6  21.123  138.9  0.0279   60.0  0.8567  -34.2
 1.000  0.7416  -61.6  20.575  135.0  0.0303   57.0  0.8311  -37.6
 1.100  0.7239  -67.5  20.034  131.2  0.0324   54.1  0.8049  -40.9
 1.200  0.7057  -73.3  19.494  127.5  0.0344   51.5  0.7787  -44.0
 1.300  0.6887  -79.1  18.952  123.9  0.0362   48.9  0.7516  -47.1
 1.400  0.6719  -84.5  18.377  120.4  0.0378   46.5  0.7248  -49.9
 1.500  0.6561  -90.0  17.840  117.0  0.0392   44.2  0.6983  -52.6
 1.600  0.6400  -95.5  17.350  113.6  0.0405   42.1  0.6731  -55.1
 1.700  0.6262 -100.6  16.781  110.5  0.0417   40.0  0.6478  -57.7
 1.800  0.6146 -105.3  16.241  107.5  0.0427   38.1  0.6246  -60.0
 1.900  0.6030 -109.8  15.708  104.6  0.0436   36.3  0.6027  -62.3
 2.000  0.5943 -114.1  15.196  101.9  0.0444   34.7  0.5820  -64.4
 2.100  0.5845 -118.1  14.704   99.4  0.0451   33.2  0.5624  -66.3
 2.200  0.5775 -122.2  14.242   96.7  0.0458   31.7  0.5435  -68.3
 2.300  0.5706 -125.8  13.796   94.3  0.0463   30.4  0.5267  -70.1
 2.400  0.5661 -129.6  13.374   91.8  0.0469   29.0  0.5105  -72.0
 2.500  0.5597 -132.9  12.976   89.6  0.0473   27.9  0.4956  -73.7
 2.600  0.5552 -136.3  12.598   87.2  0.0478   26.7  0.4812  -75.4
 2.700  0.5509 -139.5  12.238   85.1  0.0482   25.7  0.4681  -77.1
 2.800  0.5484 -142.8  11.896   82.9  0.0487   24.7  0.4554  -78.9
 2.900  0.5436 -145.9  11.569   80.9  0.0490   23.8  0.4434  -80.5
 3.000  0.5404 -149.0  11.258   78.8  0.0493   22.9  0.4317  -82.1
 3.100  0.5348 -152.0  10.965   77.0  0.0496   22.1  0.4202  -83.6
 3.200  0.5308 -155.1  10.683   75.1  0.0499   21.3  0.4090  -85.2
 3.300  0.5283 -158.2  10.414   73.1  0.0502   20.5  0.3981  -86.8
 3.400  0.5273 -161.3  10.157   71.0  0.0505   19.8  0.3876  -88.6
 3.500  0.5279 -164.4   9.915   68.8  0.0508   19.0  0.3774  -90.4
 3.600  0.5238 -167.6   9.674   67.1  0.0510   18.4  0.3667  -92.2
 3.700  0.5212 -170.8   9.443   65.4  0.0512   17.7  0.3563  -94.0
 3.800  0.5203 -174.0   9.221   63.5  0.0514   17.1  0.3463  -95.9
 3.900  0.5210 -177.2   9.010   61.5  0.0516   16.5  0.3367  -97.9
 4.000  0.5234  179.6   8.810   59.5  0.0518   15.9  0.3276 -100.1
 4.100  0.5234  176.8   8.605   57.9  0.0519   15.3  0.3175 -102.3
 4.200  0.5246  174.1   8.408   56.2  0.0521   14.8  0.3080 -104.6
 4.300  0.5270  171.4   8.219   54.4  0.0522   14.3  0.2990 -107.1
 4.400  0.5306  168.7   8.038   52.5  0.0524   13.7  0.2906 -109.7
 4.500  0.5353  166.1   7.866   50.6  0.0526   13.2  0.2828 -112.5
 4.600  0.5374  163.7   7.685   49.0  0.0527   12.8  0.2751 -115.2
 4.700  0.5403  161.3   7.510   47.4  0.0527   12.3  0.2680 -118.0
 4.800  0.5442  159.0   7.341   45.7  0.0528   11.9  0.2617 -121.0
 4.900  0.5490  156.7   7.179   44.0  0.0529   11.5  0.2560 -124.1
 5.000  0.5546  154.5   7.024   42.1  0.0530   11.0  0.2511 -127.3
 5.100  0.5576  152.7   6.872   40.7  0.0530   10.8  0.2476 -129.9
 5.200  0.5613  150.9   6.724   39.3  0.0531   10.5  0.2446 -132.6
 5.300  0.5654  149.2   6.581   37.8  0.0532   10.2  0.2422 -135.3
 5.400  0.5701  147.4   6.443   36.2  0.0532    9.9  0.2403 -138.0
 5.500  0.5753  145.7   6.310   34.5  0.0533    9.6  0.2390 -140.8
 5.600  0.5777  144.4   6.185   33.2  0.0533    9.5  0.2392 -142.7
 5.700  0.5804  143.1   6.063   31.8  0.0534    9.3  0.2397 -144.5
 5.800  0.5835  141.7   5.945   30.4  0.0535    9.1  0.2405 -146.3
 5.900  0.5868  140.4   5.830   28.9  0.0535    9.0  0.2415 -148.1
 6.000  0.5905  139.1   5.720   27.4  0.0536    8.8  0.2427 -149.9
 6.100  0.5907  138.0   5.616   26.1  0.0538    8.8  0.2434 -150.8
 6.200  0.5912  136.9   5.515   24.8  0.0540    8.9  0.2441 -151.6
 6.300  0.5919  135.8   5.417   23.5  0.0542    8.9  0.2449 -152.4
 6.400  0.5928  134.6   5.323   22.1  0.0543    8.9  0.2457 -153.2
 6.500  0.5939  133.5   5.231   20.6  0.0545    8.9  0.2466 -154.0
 6.600  0.5925  132.5   5.147   19.4  0.0549    9.0  0.2452 -154.2
 6.700  0.5913  131.4   5.065   18.2  0.0553    9.1  0.2438 -154.5
 6.800  0.5904  130.3   4.986   16.9  0.0557    9.2  0.2424 -154.7
 6.900  0.5896  129.3   4.909   15.5  0.0561    9.3  0.2410 -155.0
 7.000  0.5890  128.2   4.836   14.2  0.0565    9.4  0.2396 -155.2
 7.100  0.5888  127.0   4.771   12.9  0.0572    9.2  0.2374 -155.8
 7.200  0.5888  125.7   4.709   11.6  0.0579    9.1  0.2353 -156.4
 7.300  0.5890  124.5   4.649   10.3  0.0586    9.0  0.2331 -157.0
 7.400  0.5896  123.3   4.593    8.9  0.0593    8.9  0.2310 -157.7
 7.500  0.5904  122.1   4.538    7.5  0.0600    8.7  0.2289 -158.3
 7.600  0.5925  120.5   4.481    6.1  0.0607    8.3  0.2256 -163.0
 7.700  0.5950  118.9   4.427    4.6  0.0614    7.9  0.2238 -167.7
 7.800  0.5980  117.3   4.375    3.1  0.0621    7.4  0.2235 -172.5
 7.900  0.6015  115.7   4.327    1.5  0.0628    7.0  0.2248 -177.3
 8.000  0.6054  114.2   4.282   -0.1  0.0635    6.6  0.2277  178.0
 8.500  0.6311  105.2   3.975   -8.1  0.0661    4.2  0.2312  161.4
 9.000  0.6660   97.0   3.661  -15.6  0.0691    2.0  0.2626  144.6
 9.500  0.7116   90.2   3.359  -23.0  0.0714   -1.2  0.3167  131.2
10.000  0.7554   84.2   3.047  -30.0  0.0722   -4.4  0.3795  120.7
10.500  0.7792   80.0   2.743  -35.3  0.0730   -6.2  0.4337  113.5
11.000  0.7945   78.4   2.548  -39.2  0.0753   -7.7  0.4763  109.5
11.500  0.8258   78.0   2.426  -44.5  0.0784  -10.3  0.5217  107.4
12.000  0.8542   76.4   2.279  -51.2  0.0797  -13.9  0.5661  104.8
!
!  f       NFmin   Gammaopt  rn/50
! GHz       dB    MAG  ANG    -
 0.450      0.53  0.29    1   0.21
 1.800      0.58  0.26   18   0.12
 2.400      0.64  0.23   38   0.29
 5.500      0.78  0.11   20   0.14
10.000      0.97  0.40  -78   0.22
!
! (c) 2012  Infineon Technologies AG, Munich
