<Qucs Dataset 0.0.20>
<indep frequency 101>
  +7.00000000000000000000e+07
  +7.06000000000000000000e+07
  +7.12000000000000000000e+07
  +7.18000000000000000000e+07
  +7.24000000000000000000e+07
  +7.30000000000000000000e+07
  +7.36000000000000000000e+07
  +7.42000000000000000000e+07
  +7.48000000000000000000e+07
  +7.54000000000000000000e+07
  +7.60000000000000000000e+07
  +7.66000000000000000000e+07
  +7.72000000000000000000e+07
  +7.78000000000000000000e+07
  +7.84000000000000000000e+07
  +7.90000000000000000000e+07
  +7.96000000000000000000e+07
  +8.02000000000000000000e+07
  +8.08000000000000000000e+07
  +8.14000000000000000000e+07
  +8.20000000000000000000e+07
  +8.26000000000000000000e+07
  +8.32000000000000000000e+07
  +8.38000000000000000000e+07
  +8.44000000000000000000e+07
  +8.50000000000000000000e+07
  +8.56000000000000000000e+07
  +8.62000000000000000000e+07
  +8.68000000000000000000e+07
  +8.74000000000000000000e+07
  +8.80000000000000000000e+07
  +8.86000000000000000000e+07
  +8.92000000000000000000e+07
  +8.98000000000000000000e+07
  +9.04000000000000000000e+07
  +9.10000000000000000000e+07
  +9.16000000000000000000e+07
  +9.22000000000000000000e+07
  +9.28000000000000000000e+07
  +9.34000000000000000000e+07
  +9.40000000000000000000e+07
  +9.46000000000000000000e+07
  +9.52000000000000000000e+07
  +9.58000000000000000000e+07
  +9.64000000000000000000e+07
  +9.70000000000000000000e+07
  +9.76000000000000000000e+07
  +9.82000000000000000000e+07
  +9.88000000000000000000e+07
  +9.94000000000000000000e+07
  +1.00000000000000000000e+08
  +1.00600000000000000000e+08
  +1.01200000000000000000e+08
  +1.01800000000000000000e+08
  +1.02400000000000000000e+08
  +1.03000000000000000000e+08
  +1.03600000000000000000e+08
  +1.04200000000000000000e+08
  +1.04800000000000000000e+08
  +1.05400000000000000000e+08
  +1.06000000000000000000e+08
  +1.06600000000000000000e+08
  +1.07200000000000000000e+08
  +1.07800000000000000000e+08
  +1.08400000000000000000e+08
  +1.09000000000000000000e+08
  +1.09600000000000000000e+08
  +1.10200000000000000000e+08
  +1.10800000000000000000e+08
  +1.11400000000000000000e+08
  +1.12000000000000000000e+08
  +1.12600000000000000000e+08
  +1.13200000000000000000e+08
  +1.13800000000000000000e+08
  +1.14400000000000000000e+08
  +1.15000000000000000000e+08
  +1.15600000000000000000e+08
  +1.16200000000000000000e+08
  +1.16800000000000000000e+08
  +1.17400000000000000000e+08
  +1.18000000000000000000e+08
  +1.18600000000000000000e+08
  +1.19200000000000000000e+08
  +1.19800000000000000000e+08
  +1.20400000000000000000e+08
  +1.21000000000000000000e+08
  +1.21600000000000000000e+08
  +1.22200000000000000000e+08
  +1.22800000000000000000e+08
  +1.23400000000000000000e+08
  +1.24000000000000000000e+08
  +1.24600000000000000000e+08
  +1.25200000000000000000e+08
  +1.25800000000000000000e+08
  +1.26400000000000000000e+08
  +1.27000000000000000000e+08
  +1.27600000000000000000e+08
  +1.28200000000000000000e+08
  +1.28800000000000000000e+08
  +1.29400000000000000000e+08
  +1.30000000000000000000e+08
</indep>
<dep dBS21 frequency>
  +1.79303422304697690493e+01
  +1.79449196233011321056e+01
  +1.79592467046981525414e+01
  +1.79733094861791506958e+01
  +1.79870937326162767533e+01
  +1.80005849680566782922e+01
  +1.80137684822002910323e+01
  +1.80266293375602906224e+01
  +1.80391523773314332857e+01
  +1.80513407766850662028e+01
  +1.80631756418542224196e+01
  +1.80746333178380140794e+01
  +1.80856980753502263326e+01
  +1.80963540168306096234e+01
  +1.81065850886365566907e+01
  +1.81163750940507384257e+01
  +1.81257077071134453661e+01
  +1.81349393528145377275e+01
  +1.81444105902488281856e+01
  +1.81533511685517439105e+01
  +1.81617444179937912452e+01
  +1.81695736661779925214e+01
  +1.81768222584123932961e+01
  +1.81834735788067511919e+01
  +1.81895110720612933619e+01
  +1.81949182659119088612e+01
  +1.81996970845705838826e+01
  +1.82038127039979364952e+01
  +1.82072489795909575605e+01
  +1.82099899454230786944e+01
  +1.82120198393322887398e+01
  +1.82133231283472909467e+01
  +1.82138845343813997602e+01
  +1.82136890601191581140e+01
  +1.82097586895691350151e+01
  +1.82035468960791675386e+01
  +1.81965194487497186060e+01
  +1.81886637418091119400e+01
  +1.81799676087763870669e+01
  +1.81704193460803935523e+01
  +1.81600077361162881573e+01
  +1.81487220696472917325e+01
  +1.81366264819839742017e+01
  +1.81237954528802731602e+01
  +1.81100762841902529487e+01
  +1.80954606124389734134e+01
  +1.80799406651605565344e+01
  +1.80635092771966014880e+01
  +1.80461599057965891291e+01
  +1.80278866444516197021e+01
  +1.80086842353983058729e+01
  +1.79924041428045065061e+01
  +1.79751402295463016401e+01
  +1.79568875176174458375e+01
  +1.79376417751278083301e+01
  +1.79173995254405404864e+01
  +1.78961580545177803003e+01
  +1.78739154164377858081e+01
  +1.78506704370553848094e+01
  +1.78264444115572047167e+01
  +1.78012261541680736343e+01
  +1.77750058794360228376e+01
  +1.77477855675599620611e+01
  +1.77195679609382068520e+01
  +1.76903565564032163593e+01
  +1.76601555956719948881e+01
  +1.76289700540600478007e+01
  +1.75965891824850615421e+01
  +1.75628467406186103972e+01
  +1.75282054168012315642e+01
  +1.74926739278445637638e+01
  +1.74562615445040307804e+01
  +1.74189780709808488268e+01
  +1.73808338235752444234e+01
  +1.73418396085805817108e+01
  +1.73020066995098247276e+01
  +1.72607020168058902243e+01
  +1.72185684203145150661e+01
  +1.71756189421898497471e+01
  +1.71318669931169971221e+01
  +1.70873263362051446279e+01
  +1.70420110607774262235e+01
  +1.69959355561471312512e+01
  +1.69491144854665662933e+01
  +1.69015620983521444032e+01
  +1.68532931854898713198e+01
  +1.68043221816789127843e+01
  +1.67546633861062979065e+01
  +1.67043312740730875987e+01
  +1.66533404744460398206e+01
  +1.66017057475101950104e+01
  +1.65494419632742548742e+01
  +1.64966775583221263446e+01
  +1.64435452148634659864e+01
  +1.63898350235215346515e+01
  +1.63355619376887304384e+01
  +1.62807409210545159794e+01
  +1.62253869297039479136e+01
  +1.61695148948973823622e+01
  +1.61131397065491484000e+01
  +1.60562761974198693338e+01
</dep>
<dep Rn frequency>
  +5.91418737771752400789e+00
  +5.88056632736874806966e+00
  +5.84748270571067685353e+00
  +5.81495611199256678958e+00
  +5.78300635558191533647e+00
  +5.75165345437143571417e+00
  +5.72091763328019986545e+00
  +5.69081932284298286362e+00
  +5.66137915788215551061e+00
  +5.63265952908167655266e+00
  +5.60466030767465639428e+00
  +5.57738181603003546627e+00
  +5.55084542257173563229e+00
  +5.52507269381008470077e+00
  +5.50008539339820146097e+00
  +5.47590548124128684293e+00
  +5.45255511265578007851e+00
  +5.42999764391209627235e+00
  +5.40820292182584871910e+00
  +5.38731481081862106919e+00
  +5.36735622475108709040e+00
  +5.34835026321852780029e+00
  +5.33032021086817131561e+00
  +5.31328953674856929723e+00
  +5.29728189368928870095e+00
  +5.28232111770915135907e+00
  +5.26841127394549157970e+00
  +5.25559695129770343414e+00
  +5.24390255868591648181e+00
  +5.23335268632665862043e+00
  +5.22397210526453115165e+00
  +5.21578576692411388649e+00
  +5.20881880268103980569e+00
  +5.20309652345112283456e+00
  +5.19879594591904314882e+00
  +5.19586642240135621051e+00
  +5.19425806730858496962e+00
  +5.19399707047557956940e+00
  +5.19510980582774450909e+00
  +5.19762283113294376591e+00
  +5.20156288776581998690e+00
  +5.20695690048390869009e+00
  +5.21385067311483130226e+00
  +5.22228791595083485788e+00
  +5.23225747256411288788e+00
  +5.24378686936902216331e+00
  +5.25690381371917769826e+00
  +5.27163619371982239414e+00
  +5.28801207804815565083e+00
  +5.30605971578137314282e+00
  +5.32580753623177027833e+00
  +5.34692026130374209458e+00
  +5.36979741840238045114e+00
  +5.39446807212611556537e+00
  +5.42096146356345176542e+00
  +5.44930701013518170583e+00
  +5.47953430544192876539e+00
  +5.51167311911681778724e+00
  +5.54575339668318356701e+00
  +5.58181220413007128656e+00
  +5.61987785543590767645e+00
  +5.65997764640396461289e+00
  +5.70214222185670394083e+00
  +5.74640240125814205641e+00
  +5.79278917859425934722e+00
  +5.84133372225691438473e+00
  +5.89206737493117760351e+00
  +5.94508928779067868930e+00
  +6.00049212170830070789e+00
  +6.05816877702337297507e+00
  +6.11815082033278301310e+00
  +6.18046998660795221525e+00
  +6.24515817906607573207e+00
  +6.31224746904387856716e+00
  +6.38177009587396604218e+00
  +6.45375846676342934671e+00
  +6.52829090494189934191e+00
  +6.60535947159650582705e+00
  +6.68499712636917564623e+00
  +6.76723699594992922357e+00
  +6.85211237396550920664e+00
  +6.93965672086982010569e+00
  +7.02990366383615938872e+00
  +7.12288699665115920823e+00
  +7.21856220330327769119e+00
  +7.31699933426171078565e+00
  +7.41827153079867684937e+00
  +7.52241356618673240320e+00
  +7.62946038742655119336e+00
  +7.73944711519430228464e+00
  +7.85240904379026538606e+00
  +7.96838164108824020815e+00
  +8.08739284405014835500e+00
  +8.20946901617744728696e+00
  +8.33466061412518577356e+00
  +8.46300371185534849872e+00
  +8.59453455482662143083e+00
  +8.72928955992303734490e+00
  +8.86730531538315069895e+00
  +9.00861858072964949429e+00
  +9.15326628669954267536e+00
</dep>
<dep Fmin frequency>
  +1.27925139490573380741e+00
  +1.27925777090973147310e+00
  +1.27926414561892487498e+00
  +1.27927051901046806570e+00
  +1.27927689106073616543e+00
  +1.27928326174536577398e+00
  +1.27928963103928361456e+00
  +1.27929599891673628775e+00
  +1.27930236535132424436e+00
  +1.27930856940176407299e+00
  +1.27931468485496946386e+00
  +1.27932079078591787180e+00
  +1.27932688713728426322e+00
  +1.27933297385125377410e+00
  +1.27933905086954924357e+00
  +1.27934511813344342634e+00
  +1.27935117558378586011e+00
  +1.27935469260520906509e+00
  +1.27935310160017468029e+00
  +1.27935144517474230774e+00
  +1.27934972332810881213e+00
  +1.27934793606054020287e+00
  +1.27934608337339095208e+00
  +1.27934416526911087786e+00
  +1.27934218175126535044e+00
  +1.27934013282453973304e+00
  +1.27933793623269620454e+00
  +1.27933568144720632986e+00
  +1.27933336847854350893e+00
  +1.27933099733819188870e+00
  +1.27932856803865213635e+00
  +1.27932608059345187534e+00
  +1.27932353501715345701e+00
  +1.27932093132536506275e+00
  +1.27933122145717126372e+00
  +1.27934796036049580614e+00
  +1.27936467806549214465e+00
  +1.27938137435908871886e+00
  +1.27939804902763865080e+00
  +1.27941470185693084716e+00
  +1.27943133263219777085e+00
  +1.27944794113812765346e+00
  +1.27946433093264655412e+00
  +1.27948029016321163098e+00
  +1.27949620327822599641e+00
  +1.27951206995487587470e+00
  +1.27952788987015075861e+00
  +1.27954366270085495572e+00
  +1.27955938812362268742e+00
  +1.27957506581493940523e+00
  +1.27959069545114778599e+00
  +1.27958699123963715039e+00
  +1.27958324125906597324e+00
  +1.27957944553110980479e+00
  +1.27957560407805281955e+00
  +1.27957171692279514374e+00
  +1.27956778408885263332e+00
  +1.27956380560035709593e+00
  +1.27955978148206384049e+00
  +1.27955565903433954311e+00
  +1.27955147023983073495e+00
  +1.27954724261331320712e+00
  +1.27954297618960577410e+00
  +1.27953867100404794499e+00
  +1.27953432709250325416e+00
  +1.27952994449135681876e+00
  +1.27952552323751822527e+00
  +1.27952240309242704086e+00
  +1.27952190511912777815e+00
  +1.27952134051900978662e+00
  +1.27952070928083205814e+00
  +1.27952001139471316371e+00
  +1.27951924685213525024e+00
  +1.27951841564594492873e+00
  +1.27951751777035771518e+00
  +1.27951655322095936285e+00
  +1.27951585970828785044e+00
  +1.27951510378128174850e+00
  +1.27951428544864986847e+00
  +1.27951340472038599394e+00
  +1.27951246160777420968e+00
  +1.27951145612338912372e+00
  +1.27951038828109697754e+00
  +1.27950925809605742245e+00
  +1.27951166247996672709e+00
  +1.27951581801555080986e+00
  +1.27951992916924783827e+00
  +1.27952399583970111152e+00
  +1.27952801792603620967e+00
  +1.27953199532786054959e+00
  +1.27953592794527226673e+00
  +1.27953981567886265758e+00
  +1.27954341756342437897e+00
  +1.27954648146733829250e+00
  +1.27954948342499874592e+00
  +1.27955242331785901122e+00
  +1.27955530102847370166e+00
  +1.27955811644050854170e+00
  +1.27956086943874747242e+00
  +1.27956355990909997900e+00
  +1.27956618773860708593e+00
</dep>
<dep Sopt frequency>
  +3.56162641139598015738e-02+j3.82097252928504651712e-03
  +3.27400544129631265733e-02+j7.87900917813730088633e-04
  +2.98748573155564883796e-02-j2.30133249492537467207e-03
  +2.70218470081983325182e-02-j5.44707583708523186694e-03
  +2.41822148056477642664e-02-j8.64964902732346697933e-03
  +2.13571686614938034687e-02-j1.19093431852004619231e-02
  +1.85479326485135549707e-02-j1.52264200358670359625e-02
  +1.57557464081982297188e-02-j1.86011113109055409298e-02
  +1.29818645688300378371e-02-j2.20336181471644174112e-02
  +1.02314331183260432551e-02-j2.55246531108369069385e-02
  +7.50381660680127324931e-03-j2.90739397044694238004e-02
  +4.79837238366268188650e-03-j3.26812826332839312382e-02
  +2.11640399848929709400e-03-j3.63467535700719157621e-02
  -5.40773478944740672997e-04-j4.00703907412544926836e-02
  -3.17183423501414670995e-03-j4.38521983582813024150e-02
  -5.77544252193315423710e-03-j4.76921460605442618097e-02
  -8.35025350076701658453e-03-j5.15901683718239939536e-02
  -1.08969024120005378298e-02-j5.55515818587762402747e-02
  -1.34156805468351927185e-02-j5.95817735753639970975e-02
  -1.59010717669580241285e-02-j6.36697768748248210668e-02
  -1.83516984733250142214e-02-j6.78153667689321143497e-02
  -2.07661790625688312539e-02-j7.20182804423831618434e-02
  -2.31431289788254709872e-02-j7.62782168427938306321e-02
  -2.54811617957364927589e-02-j8.05948362990932115624e-02
  -2.77788903277766778543e-02-j8.49677601703025531243e-02
  -3.00349277699166750111e-02-j8.93965705266281246422e-02
  -3.22497930675648344923e-02-j9.38808477913043309959e-02
  -3.44201915814788678150e-02-j9.84201182353056508445e-02
  -3.65447429440952931134e-02-j1.03013844306030971643e-01
  -3.86220719838700973781e-02-j1.07661448189343839088e-01
  -4.06508099903369404804e-02-j1.12362311679372967044e-01
  -4.26295959994376430502e-02-j1.17115776091522696967e-01
  -4.45570780973913935230e-02-j1.21921142220275321999e-01
  -4.64319147412710353517e-02-j1.26777670343327181213e-01
  -4.82518005913010056274e-02-j1.31684558066147427979e-01
  -5.00159584088940567526e-02-j1.36640966444659811563e-01
  -5.17235846178566854858e-02-j1.41646042288079337945e-01
  -5.33733933064182014538e-02-j1.46698887512530601329e-01
  -5.49641156152075732733e-02-j1.51798564303558675137e-01
  -5.64945011126984572569e-02-j1.56944095421288842829e-01
  -5.79633191720896542853e-02-j1.62134464559847618625e-01
  -5.93693603471042025133e-02-j1.67368616761741112464e-01
  -6.07089450169576369531e-02-j1.72644397231619034505e-01
  -6.19785031619489307220e-02-j1.77959464367768577242e-01
  -6.31819305911174855517e-02-j1.83314702117981009888e-01
  -6.43181228334536586599e-02-j1.88708910336345514480e-01
  -6.53860032470444246799e-02-j1.94140853372638449992e-01
  -6.63845243223851327885e-02-j1.99609260820273221038e-01
  -6.73126689657465721028e-02-j2.05112828319773732311e-01
  -6.81694517598292609728e-02-j2.10650218417328727316e-01
  -6.89539201989206040899e-02-j2.16220061477826935858e-01
  -6.96844650392479808554e-02-j2.21827869148501694019e-01
  -7.03405129070182738582e-02-j2.27465838191655528311e-01
  -7.09212020374834911651e-02-j2.33132494940463563804e-01
  -7.14257086716924144421e-02-j2.38826337207593747403e-01
  -7.18532481458014349318e-02-j2.44545835473424066908e-01
  -7.22030759381023096166e-02-j2.50289434123043275093e-01
  -7.24744886711963520742e-02-j2.56055552730338698009e-01
  -7.26668250668382059709e-02-j2.61842587387298375567e-01
  -7.27794493631774841447e-02-j2.67650722674725505268e-01
  -7.28117206329554622624e-02-j2.73477390445629797711e-01
  -7.27631036771946015929e-02-j2.79320013714809356475e-01
  -7.26331152023217962999e-02-j2.85176905991220697167e-01
  -7.24213180958920010877e-02-j2.91046364594378159651e-01
  -7.21273220492505279244e-02-j2.96926672212083408997e-01
  -7.17507841183046835010e-02-j3.02816098486470453022e-01
  -7.12914092208943306339e-02-j3.08712901625473268297e-01
  -7.07412803930651257200e-02-j3.14613588390952825247e-01
  -7.00927868372257373286e-02-j3.20514215407217306630e-01
  -6.93612627439413459429e-02-j3.26416290947505183251e-01
  -6.85466259519023485280e-02-j3.32318060175004870160e-01
  -6.76488430218954162054e-02-j3.38217765724460106558e-01
  -6.66679293083291546473e-02-j3.44113649374014451965e-01
  -6.56039489627467387045e-02-j3.50003953719306981629e-01
  -6.44570148692374389476e-02-j3.55886923846588487663e-01
  -6.32272885118312366615e-02-j3.61760809001607341884e-01
  -6.19159988443569106464e-02-j3.67629845492304430099e-01
  -6.05221876964061183957e-02-j3.73486280879587906334e-01
  -5.90461633630420743013e-02-j3.79328380905628981257e-01
  -5.74882817334102930174e-02-j3.85154422161785414680e-01
  -5.58489458196450849758e-02-j3.90962693696139618194e-01
  -5.41286052216045782126e-02-j3.96751498597614937758e-01
  -5.23277555287480142243e-02-j4.02519155553694607530e-01
  -5.04469376606115627037e-02-j4.08264000378856961593e-01
  -4.84927310600503785887e-02-j4.13976486806078236569e-01
  -4.64629875391509503113e-02-j4.19659292679051054709e-01
  -4.43554126019521655078e-02-j4.25314839089918517168e-01
  -4.21707051681783767760e-02-j4.30941549054551287234e-01
  -3.99096053000422348878e-02-j4.36537869239211007155e-01
  -3.75728932375473251293e-02-j4.42102271261045509654e-01
  -3.51613883861536385966e-02-j4.47633252943252679668e-01
  -3.26759482592209535290e-02-j4.53129339522916285699e-01
  -3.01170835990215227107e-02-j4.58588616429462692103e-01
  -2.74853752581961582879e-02-j4.64009186049300581534e-01
  -2.47825731023900153183e-02-j4.69390594307988628930e-01
  -2.20096757770697273870e-02-j4.74731488835021697703e-01
  -1.91677141013492646771e-02-j4.80030549934488182107e-01
  -1.62577497947613003326e-02-j4.85286491473662984220e-01
  -1.32808741776868095147e-02-j4.90498061714753741391e-01
  -1.02382068482951300165e-02-j4.95664044089042965524e-01
  -7.13089433883586868573e-03-j5.00783257912863155603e-01
</dep>
<dep F frequency>
  +1.27981743613040821472e+00
  +1.27973085362755578664e+00
  +1.27966012175820020857e+00
  +1.27960563349666411881e+00
  +1.27956778602040732729e+00
  +1.27954698067819339080e+00
  +1.27954362296013224309e+00
  +1.27955812246948652522e+00
  +1.27959089289613414664e+00
  +1.27964223819274414140e+00
  +1.27971260769894090714e+00
  +1.27980247691898352258e+00
  +1.27991227414408625940e+00
  +1.28004243162722008975e+00
  +1.28019338556425443798e+00
  +1.28036557607614254195e+00
  +1.28055944719211955984e+00
  +1.28077319127701905188e+00
  +1.28100505810135945062e+00
  +1.28126004011441296804e+00
  +1.28153859532203462379e+00
  +1.28184118544117753302e+00
  +1.28216827588626225420e+00
  +1.28252033575617785388e+00
  +1.28289783782189892314e+00
  +1.28330125851466259057e+00
  +1.28373105403922238565e+00
  +1.28418775247230643188e+00
  +1.28467184170339110416e+00
  +1.28518381324460051474e+00
  +1.28572416222135377240e+00
  +1.28629338736342124783e+00
  +1.28689199099635986911e+00
  +1.28752047903331612311e+00
  +1.28819250835203558125e+00
  +1.28890209108828956985e+00
  +1.28964318838628488884e+00
  +1.29041632466128652901e+00
  +1.29122202800830754299e+00
  +1.29206083019713302562e+00
  +1.29293326666758723320e+00
  +1.29383987652504184318e+00
  +1.29478068269057855488e+00
  +1.29575563488276501722e+00
  +1.29676628226335788341e+00
  +1.29781317573442445124e+00
  +1.29889686981239682595e+00
  +1.30001792262429161084e+00
  +1.30117689590409058020e+00
  +1.30237435498928078026e+00
  +1.30361086881752497035e+00
  +1.30486960468614743291e+00
  +1.30616867824351867711e+00
  +1.30750867063939057999e+00
  +1.30889016655147494284e+00
  +1.31031375418230022767e+00
  +1.31178002525616310692e+00
  +1.31328957501618637238e+00
  +1.31484300222148320358e+00
  +1.31644132610848774156e+00
  +1.31808497233865140608e+00
